Time Stamp,ID,Extended,Dir,Bus,LEN,D1,D2,D3,D4,D5,D6,D7,D8
1506916,0000013A,false,Rx,0,8,64,F1,00,00,00,0E,FF,FF,
1510544,00000510,false,Rx,0,8,40,10,20,00,00,00,00,00,
1511634,00000100,false,Rx,0,8,B9,F8,7F,C0,5D,05,87,70,
1513271,00000112,false,Rx,0,8,DB,24,03,0E,A0,71,85,5A,
1514865,00000206,false,Rx,0,8,C7,2B,C1,FF,FF,FF,FF,FF,
1515093,000000EF,false,Rx,0,8,F6,F7,00,7D,21,00,7D,FF,
1515344,000000C3,false,Rx,0,8,46,7C,00,40,00,7D,FF,FF,
1515520,000001A1,false,Rx,0,5,7D,C2,00,00,8A,00,00,00,
1515994,00000140,false,Rx,0,8,9F,62,40,9C,00,00,04,FF,
1516224,00000141,false,Rx,0,8,F3,72,40,9C,00,00,F4,FF,
1516473,00000163,false,Rx,0,8,FF,FF,15,25,FF,FF,FF,FF,
1516699,00000173,false,Rx,0,8,3A,FE,00,0E,30,00,DE,10,
1516907,00000199,false,Rx,0,6,FF,FF,72,7E,FF,3F,00,00,
1517114,0000019A,false,Rx,0,6,FF,FF,58,7F,FF,3F,00,00,
1517322,0000019F,false,Rx,0,6,FF,FF,F9,7F,FF,2F,00,00,
1517571,00000254,false,Rx,0,8,FF,7F,FF,7F,FF,7F,FF,7F,
1517697,00000258,false,Rx,0,2,11,11,00,00,00,00,00,00,
1517944,000007BD,false,Rx,0,8,00,00,00,40,FF,C0,01,08,
1518214,000007BE,false,Rx,0,8,07,70,2D,80,06,67,00,00,
1521456,000002C4,false,Rx,0,8,00,00,FF,00,C8,64,FF,CF,
1521690,000000A5,false,Rx,0,8,B4,F1,FF,F7,7F,00,00,C1,
1521918,00000100,false,Rx,0,8,E4,F9,7F,C0,5D,05,87,70,
1522054,000000AC,false,Rx,0,2,00,F0,00,00,00,00,00,00,
1522293,000000D9,false,Rx,0,8,F8,F1,00,10,00,F0,7F,C0,
1522532,000000F3,false,Rx,0,8,D6,01,00,FF,F0,C0,FF,FF,
1523265,00000112,false,Rx,0,8,DB,24,03,0E,A0,71,85,5A,
1524859,000000C3,false,Rx,0,8,1B,7D,00,40,00,7D,FF,FF,
1525108,0000015F,false,Rx,0,8,90,F8,00,7D,00,EE,00,7D,
1526912,0000013A,false,Rx,0,8,DE,F3,00,00,00,0E,FF,FF,
1527674,00000197,false,Rx,0,4,8F,04,0E,C0,00,00,00,00,
1528540,00000302,false,Rx,0,7,FF,FF,59,81,FE,FF,FF,00,
1531641,00000100,false,Rx,0,8,03,FA,7F,C0,5D,05,87,70,
1533267,00000112,false,Rx,0,8,DE,24,03,0E,A0,71,85,5A,
1534882,000000C3,false,Rx,0,8,FC,7E,00,40,00,7D,FF,FF,
1535120,000000EF,false,Rx,0,8,AA,F8,00,7D,21,00,7D,FF,
1535360,00000201,false,Rx,0,8,0F,8B,87,2D,FF,FF,FF,FF,
1535547,000001A1,false,Rx,0,5,14,C4,00,00,8A,00,00,00,
1535993,00000140,false,Rx,0,8,4C,64,40,9C,00,00,04,FF,
1536233,00000141,false,Rx,0,8,20,74,40,9C,00,00,F4,FF,
1536646,00000199,false,Rx,0,6,FF,FF,9A,7E,FF,3F,00,00,
1536843,0000019A,false,Rx,0,6,FF,FF,62,7F,FF,3F,00,00,
1537061,0000019F,false,Rx,0,6,FF,FF,F0,7F,FF,2F,00,00,
1537310,00000254,false,Rx,0,8,FF,7F,FF,7F,FF,7F,FF,7F,
1537435,00000258,false,Rx,0,2,11,11,00,00,00,00,00,00,
1539607,0000003C,false,Rx,0,8,FF,5F,00,00,00,00,FF,FF,
1541522,000000A5,false,Rx,0,8,53,F2,FF,F7,7F,00,00,C1,
1541766,00000100,false,Rx,0,8,5E,FB,7F,C0,5D,05,87,70,
1541892,000000AC,false,Rx,0,2,00,F0,00,00,00,00,00,00,
1542130,000000D9,false,Rx,0,8,1F,F2,00,10,00,F0,7F,C0,
1542369,000000F3,false,Rx,0,8,31,02,00,FF,F0,C0,FF,FF,
1542556,000002A7,false,Rx,0,5,8E,F9,FE,FF,14,00,00,00,
1543268,00000112,false,Rx,0,8,DD,24,03,0E,A0,71,85,5A,
1544862,000000C3,false,Rx,0,8,FD,70,00,40,00,7D,FF,FF,
1545100,0000015F,false,Rx,0,8,CD,F9,00,7D,00,EE,00,7D,
1546904,0000013A,false,Rx,0,8,0D,F5,00,00,00,0E,FF,FF,
1549684,000001D6,false,Rx,0,2,F0,C0,00,00,00,00,00,00,
1549845,00000314,false,Rx,0,3,50,00,FF,00,00,00,00,00,
1550165,00000607,false,Rx,0,5,F1,03,7F,22,78,00,00,00,
1551630,00000100,false,Rx,0,8,D0,FC,7F,C0,5D,05,87,70,
1551847,00000246,false,Rx,0,6,3F,FB,00,FF,FF,FF,00,00,
1552074,00000299,false,Rx,0,8,FF,00,30,00,00,00,F0,00,
1552943,00000239,false,Rx,0,8,30,DA,35,15,05,FF,FF,FF,
1553399,00000112,false,Rx,0,8,E0,24,03,0E,A0,71,85,5A,
1554248,00000607,false,Rx,0,8,F1,06,62,DD,C4,10,40,01,
1554857,00000206,false,Rx,0,8,49,2C,C1,FF,FF,FF,FF,FF,
1555095,000000EF,false,Rx,0,8,F7,F9,00,7D,21,00,7D,FF,
1555336,000000C3,false,Rx,0,8,A0,71,00,40,00,7D,FF,FF,
1555523,000001A1,false,Rx,0,5,33,C6,00,00,8A,00,00,00,
1556022,00000140,false,Rx,0,8,F6,66,40,9C,00,00,04,FF,
1556262,00000141,false,Rx,0,8,9A,76,40,9C,00,00,F4,FF,
1556469,00000199,false,Rx,0,6,FF,FF,90,7E,FF,3F,00,00,
1556676,0000019A,false,Rx,0,6,FF,FF,58,7F,FF,3F,00,00,
1556884,0000019F,false,Rx,0,6,FF,FF,F4,7F,FF,2F,00,00,
1557132,00000254,false,Rx,0,8,FF,7F,FF,7F,FF,7F,FF,7F,
1557382,00000200,false,Rx,0,8,00,00,83,00,00,00,00,FF,
1557508,00000258,false,Rx,0,2,11,11,00,00,00,00,00,00,
1557673,00000197,false,Rx,0,4,00,05,0E,C0,00,00,00,00,
1561528,000000A5,false,Rx,0,8,0E,F3,FF,F7,7F,00,00,C1,
1561762,00000100,false,Rx,0,8,8D,FD,7F,C0,5D,05,87,70,
1561887,000000AC,false,Rx,0,2,00,F0,00,00,00,00,00,00,
1562125,000000D9,false,Rx,0,8,42,F3,00,10,00,F0,7F,C0,
1562365,000000F3,false,Rx,0,8,6C,03,00,FF,F0,C0,FF,FF,
1563499,00000112,false,Rx,0,8,DE,24,03,0E,A0,71,85,5A,
1564865,000000C3,false,Rx,0,8,47,72,00,40,00,7D,FF,FF,
1565103,0000015F,false,Rx,0,8,2A,FA,00,7D,00,EE,00,7D,
1566774,000007BD,false,Rx,0,8,04,00,00,01,00,00,00,80,
1567012,0000013A,false,Rx,0,8,B7,F7,00,00,00,0E,FF,FF,
1567251,000007BE,false,Rx,0,8,00,C0,FA,1C,02,00,00,00,
1568541,00000302,false,Rx,0,7,FF,FF,59,81,FE,FF,FF,00,
1571631,00000100,false,Rx,0,8,6A,FE,7F,C0,5D,05,87,70,
1573267,00000112,false,Rx,0,8,E0,24,03,0E,A0,71,85,5A,
1574820,000003FD,false,Rx,0,5,92,0B,00,00,FF,00,00,00,
1575068,000000EF,false,Rx,0,8,10,FA,00,7D,21,00,7D,FF,
1575308,00000108,false,Rx,0,8,00,7D,FF,FF,47,F1,FF,FF,
1575546,000000C3,false,Rx,0,8,1A,73,00,40,00,7D,FF,FF,
1575725,000001A1,false,Rx,0,5,C6,C8,00,00,8A,00,00,00,
1575974,00000212,false,Rx,0,8,2B,FE,F9,FF,FF,FF,FF,FF,
1576214,00000140,false,Rx,0,8,F7,68,40,9C,00,00,04,FF,
1576442,00000141,false,Rx,0,8,9B,78,40,9C,00,00,F4,FF,
1576649,00000199,false,Rx,0,6,FF,FF,90,7E,FF,3F,00,00,
1576858,0000019A,false,Rx,0,6,FF,FF,44,7F,FF,3F,00,00,
1577065,0000019F,false,Rx,0,6,FF,FF,FB,7F,FF,2F,00,00,
1577314,00000254,false,Rx,0,8,FF,7F,FF,7F,FF,7F,FF,7F,
1577439,00000258,false,Rx,0,2,11,11,00,00,00,00,00,00,
1577709,0000029E,false,Rx,0,8,47,D0,11,C6,07,FF,FF,FF,
1577927,000002DB,false,Rx,0,8,FF,FF,FF,FF,BF,FF,FF,FF,
1578176,000002F1,false,Rx,0,8,37,10,7D,98,01,7A,00,A0,
1581529,000000A5,false,Rx,0,8,80,F4,FF,F7,7F,00,00,C1,
1581763,00000100,false,Rx,0,8,6B,F0,7F,C0,5D,05,87,70,
1581899,000000AC,false,Rx,0,2,00,F0,00,00,00,00,00,00,
1582137,000000D9,false,Rx,0,8,CC,F4,00,10,00,F0,7F,C0,
1582376,000000F3,false,Rx,0,8,E2,04,00,FF,F0,C0,FF,FF,
1582614,0000019D,false,Rx,0,8,C8,32,8E,01,FF,FF,FF,FF,
1582801,0000036E,false,Rx,0,5,1A,F5,FE,FF,14,00,00,00,
1583009,000002C5,false,Rx,0,7,E8,F3,00,60,06,70,C8,00,
1583269,00000112,false,Rx,0,8,DF,24,03,0E,A0,71,85,5A,
1584887,000000C3,false,Rx,0,8,94,74,00,40,00,7D,FF,FF,
1585125,0000015F,false,Rx,0,8,77,FB,00,7D,00,EE,00,7D,
1585366,00000201,false,Rx,0,8,1A,8B,93,2D,FF,FF,FF,FF,
1586810,000002B2,false,Rx,0,8,06,0E,E2,04,FF,0F,FF,FF,
1587048,0000013A,false,Rx,0,8,B6,F9,00,00,00,0E,FF,FF,
1587287,000003B4,false,Rx,0,8,00,00,0D,F4,BD,FF,09,B0,
1587671,00000197,false,Rx,0,4,8C,06,0E,C0,00,00,00,00,
1587817,000002ED,false,Rx,0,3,A3,09,02,00,00,00,00,00,
1588324,0000012F,false,Rx,0,8,8A,24,86,1B,F1,35,30,00,
1591630,00000100,false,Rx,0,8,36,F1,7F,C0,5D,05,87,70,
1591926,000002BB,false,Rx,0,5,F7,FA,D1,7F,F2,00,00,00,
1592165,00000289,false,Rx,0,8,60,F5,E0,FF,FD,00,EC,01,
1593331,00000112,false,Rx,0,8,E2,24,03,0E,A0,71,85,5A,
1593591,00000239,false,Rx,0,8,30,DA,35,15,05,FF,FF,FF,
1594326,000002E8,false,Rx,0,8,C0,E8,C3,FF,FF,F4,F4,7D,
1594555,000002F5,false,Rx,0,8,BF,0F,E2,24,28,0A,06,10,
1594865,00000206,false,Rx,0,8,14,2D,C1,FF,FF,FF,FF,FF,
1595103,000000EF,false,Rx,0,8,4D,FB,00,7D,21,00,7D,FF,
1595344,000000C3,false,Rx,0,8,C9,75,00,40,00,7D,FF,FF,
1595531,000001A1,false,Rx,0,5,E1,CA,00,00,8A,00,00,00,
1596022,00000140,false,Rx,0,8,4D,6A,40,9C,00,00,04,FF,
1596262,00000141,false,Rx,0,8,21,7A,40,9C,00,00,F4,FF,
1596469,00000199,false,Rx,0,6,FF,FF,90,7E,FF,3F,00,00,
1596677,0000019A,false,Rx,0,6,FF,FF,62,7F,FF,3F,00,00,
1596874,0000019F,false,Rx,0,6,FF,FF,17,80,FF,2F,00,00,
1597122,00000254,false,Rx,0,8,FF,7F,FF,7F,FF,7F,FF,7F,
1597248,00000258,false,Rx,0,2,11,11,00,00,00,00,00,00,
1597487,000002EF,false,Rx,0,8,F4,01,14,C0,12,00,C0,FC,
1599651,000001AE,false,Rx,0,2,F7,FF,00,00,00,00,00,00,
1601513,000000A5,false,Rx,0,8,DD,F5,FF,F7,7F,00,00,C1,
1601751,00000100,false,Rx,0,8,D1,F2,7F,C0,5D,05,87,70,
1601887,000000AC,false,Rx,0,2,00,F0,00,00,00,00,00,00,
1602125,000000D9,false,Rx,0,8,91,F5,00,10,00,F0,7F,C0,
1602364,000000F3,false,Rx,0,8,BF,05,00,FF,F0,C0,FF,FF,
1602850,0000036F,false,Rx,0,5,6F,F6,FE,FF,14,00,00,00,
1603098,0000031C,false,Rx,0,8,FF,FF,FF,FF,FF,FF,FF,FF,
1603327,00000112,false,Rx,0,8,E0,24,03,0E,A0,71,85,5A,
1603534,0000033B,false,Rx,0,6,D7,F9,DC,FF,FF,FF,00,00,
1603753,000003A7,false,Rx,0,7,96,F0,00,00,1F,11,F0,00,
1603888,000003E6,false,Rx,0,2,50,00,00,00,00,00,00,00,
1604867,000000C3,false,Rx,0,8,2E,76,00,40,00,7D,FF,FF,
1605106,0000015F,false,Rx,0,8,F9,FC,00,7D,00,EE,00,7D,
1606909,0000013A,false,Rx,0,8,0C,FB,00,00,00,0E,FF,FF,
1608545,00000302,false,Rx,0,7,FF,FF,59,81,FE,FF,FF,00,
1612326,00000100,false,Rx,0,8,8C,F3,7F,C0,5D,05,87,70,
1612963,00000297,false,Rx,0,7,C9,E1,F0,E0,F2,92,EA,00,
1613284,00000112,false,Rx,0,8,E1,24,03,0E,A0,71,85,5A,
1614860,000000C3,false,Rx,0,8,73,77,00,40,00,7D,FF,FF,
1615100,000000EF,false,Rx,0,8,C3,FC,00,7D,21,00,7D,FF,
1615493,000001A1,false,Rx,0,5,88,CC,00,00,8A,00,00,00,
1615979,00000140,false,Rx,0,8,9E,6C,40,9C,00,00,04,FF,
1616219,00000141,false,Rx,0,8,F2,7C,40,9C,00,00,F4,FF,
1616462,000003D8,false,Rx,0,8,03,FF,FF,FF,FF,FF,FF,FF,
1616701,00000163,false,Rx,0,8,FF,FF,15,25,FF,FF,FF,FF,
1616939,00000173,false,Rx,0,8,B4,F9,00,0E,30,00,DE,10,
1617146,00000199,false,Rx,0,6,FF,FF,90,7E,FF,3F,00,00,
1617355,0000019A,false,Rx,0,6,FF,FF,4E,7F,FF,3F,00,00,
1617552,0000019F,false,Rx,0,6,FF,FF,E2,7F,FF,2F,00,00,
1617729,00000197,false,Rx,0,4,03,07,0E,C0,00,00,00,00,
1617966,00000254,false,Rx,0,8,FF,7F,FF,7F,FF,7F,FF,7F,
1618217,0000021F,false,Rx,0,8,00,00,00,00,00,EE,FE,FF,
1618426,000001E1,false,Rx,0,6,AF,FA,05,FF,FF,FF,00,00,
1618550,00000258,false,Rx,0,2,11,11,00,00,00,00,00,00,
1618798,000007BD,false,Rx,0,8,00,00,00,40,FF,C0,01,08,
1619068,000007BE,false,Rx,0,8,05,00,00,00,00,00,00,E0,
1621627,00000100,false,Rx,0,8,02,F4,7F,C0,5D,05,87,70,
1621875,000000A5,false,Rx,0,8,3A,F6,FF,F7,7F,00,00,C1,
1622053,000002A7,false,Rx,0,5,34,FA,FE,FF,14,00,00,00,
1622189,000000AC,false,Rx,0,2,00,F0,00,00,00,00,00,00,
1622426,000000D9,false,Rx,0,8,76,F6,00,10,00,F0,7F,C0,
1622658,000000F3,false,Rx,0,8,58,06,00,FF,F0,C0,FF,FF,
1622907,000002C4,false,Rx,0,8,00,00,FF,00,C8,64,FF,CF,
1623115,00000304,false,Rx,0,6,FF,FF,D4,38,FF,FF,00,00,
1623343,000003F9,false,Rx,0,8,AE,F6,80,E0,A6,30,C3,FF,
1623572,00000112,false,Rx,0,8,E0,24,03,0E,A0,71,85,5A,
1624876,00000201,false,Rx,0,8,24,8B,9C,2D,FF,FF,FF,FF,
1625115,0000015F,false,Rx,0,8,A4,FD,00,7D,00,EE,00,7D,
1625355,000000C3,false,Rx,0,8,2F,78,00,40,00,7D,FF,FF,
1625582,000000F5,false,Rx,0,7,DC,DC,00,82,00,82,00,00,
1625759,000000FF,false,Rx,0,4,E2,24,F0,00,00,00,00,00,
1626846,00000272,false,Rx,0,8,88,F3,05,12,FF,FF,FF,FF,
1627095,0000013A,false,Rx,0,8,DF,FD,00,00,00,0E,FF,FF,
1631627,00000100,false,Rx,0,8,5F,F5,7F,C0,5D,05,87,70,
1633304,00000112,false,Rx,0,8,DE,24,03,0E,A0,71,85,5A,
1633543,00000431,false,Rx,0,8,C6,FD,44,00,0E,9F,F7,00,
1634861,00000206,false,Rx,0,8,F3,2E,C1,FF,FF,FF,FF,FF,
1635100,000000EF,false,Rx,0,8,9E,FD,00,7D,21,00,7D,FF,
1635340,000000C3,false,Rx,0,8,72,79,00,40,00,7D,FF,FF,
1635527,000001A1,false,Rx,0,5,AF,CE,00,00,8A,00,00,00,
1635766,00000201,false,Rx,0,8,26,8B,9F,2D,FF,FF,FF,FF,
1636005,00000140,false,Rx,0,8,24,6E,40,9C,00,00,04,FF,
1636245,00000141,false,Rx,0,8,48,7E,40,9C,00,00,F4,FF,
1636442,00000199,false,Rx,0,6,FF,FF,86,7E,FF,3F,00,00,
1636650,0000019A,false,Rx,0,6,FF,FF,58,7F,FF,3F,00,00,
1636857,0000019F,false,Rx,0,6,FF,FF,F7,7F,FF,2F,00,00,
1637105,00000254,false,Rx,0,8,FF,7F,FF,7F,FF,7F,FF,7F,
1637232,00000258,false,Rx,0,2,11,11,00,00,00,00,00,00,
1639447,000000C0,false,Rx,0,2,FC,40,00,00,00,00,00,00,
1639695,0000003C,false,Rx,0,8,FF,5F,00,00,00,00,FF,FF,
1641519,000000A5,false,Rx,0,8,67,F7,FF,F7,7F,00,00,C1,
1641753,00000100,false,Rx,0,8,B8,F6,7F,C0,5D,05,87,70,
1641878,000000AC,false,Rx,0,2,00,F0,00,00,00,00,00,00,
1642126,000000D9,false,Rx,0,8,2B,F7,00,10,00,F0,7F,C0,
1642366,000000F3,false,Rx,0,8,05,07,00,FF,F0,C0,FF,FF,
1643274,00000112,false,Rx,0,8,DD,24,03,0E,A0,71,85,5A,
1643513,00000432,false,Rx,0,8,3C,DA,15,BD,4D,7C,1B,BC,
1644859,000000C3,false,Rx,0,8,95,7A,00,40,00,7D,FF,FF,
1645099,0000015F,false,Rx,0,8,43,FE,00,7D,00,EE,00,7D,
1646912,0000013A,false,Rx,0,8,39,F0,00,00,00,0E,FF,FF,
1647676,00000197,false,Rx,0,4,85,08,0E,C0,00,00,00,00,
1648592,00000302,false,Rx,0,7,FF,FF,59,81,FE,FF,FF,00,
1649582,000001EE,false,Rx,0,2,00,FC,00,00,00,00,00,00,
1651631,00000100,false,Rx,0,8,E5,F7,7F,C0,5D,05,87,70,
1652948,00000239,false,Rx,0,8,30,DB,35,15,05,FF,FF,FF,
1653270,00000112,false,Rx,0,8,D7,24,03,0E,A0,71,85,5A,
1654547,00000301,false,Rx,0,7,FF,FF,2C,81,FF,FF,CF,00,
1654857,000000C3,false,Rx,0,8,C8,7B,00,40,00,7D,FF,FF,
1655097,000000EF,false,Rx,0,8,79,FE,00,7D,21,00,7D,FF,
1655490,000001A1,false,Rx,0,5,C7,C1,00,00,8A,00,00,00,
1655978,00000140,false,Rx,0,8,78,61,40,9C,00,00,04,FF,
1656217,00000141,false,Rx,0,8,14,71,40,9C,00,00,F4,FF,
1656414,00000199,false,Rx,0,6,FF,FF,86,7E,FF,3F,00,00,
1656622,0000019A,false,Rx,0,6,FF,FF,58,7F,FF,3F,00,00,
1656829,0000019F,false,Rx,0,6,FF,FF,19,80,FF,2F,00,00,
1657015,000001B9,false,Rx,0,5,FF,FF,FF,14,FF,00,00,00,
1657265,000001D0,false,Rx,0,8,31,F1,DF,FF,FF,FF,FF,FF,
1657515,00000254,false,Rx,0,8,FF,7F,FF,7F,FF,7F,FF,7F,
1657640,00000258,false,Rx,0,2,11,11,00,00,00,00,00,00,
1661526,000000A5,false,Rx,0,8,3B,F8,FF,F7,7F,00,00,C1,
1661760,00000100,false,Rx,0,8,B9,F8,7F,C0,5D,05,87,70,
1661895,000000AC,false,Rx,0,2,00,F0,00,00,00,00,00,00,
1662134,000000D9,false,Rx,0,8,77,F8,00,10,00,F0,7F,C0,
1662374,000000F3,false,Rx,0,8,59,08,00,FF,F0,C0,FF,FF,
1663499,00000112,false,Rx,0,8,D8,24,03,0E,A0,71,95,5A,
1664884,000000C3,false,Rx,0,8,46,7C,00,40,00,7D,FF,FF,
1665123,0000015F,false,Rx,0,8,42,F0,00,7D,00,EE,00,7D,
1666742,000007BE,false,Rx,0,8,0B,00,00,00,00,00,00,00,
1666990,0000013A,false,Rx,0,8,83,F2,00,00,00,0E,FF,FF,
1671628,00000100,false,Rx,0,8,E4,F9,7F,C0,5D,05,87,70,
1673285,00000112,false,Rx,0,8,D5,24,03,0E,A0,71,95,5A,
1674828,000003FD,false,Rx,0,5,66,0C,00,00,FF,00,00,00,
1675067,000000EF,false,Rx,0,8,78,F0,00,7D,21,00,7D,FF,
1675316,00000108,false,Rx,0,8,00,7D,FF,FF,47,F1,FF,FF,
1675554,000000C3,false,Rx,0,8,1B,7D,00,40,00,7D,FF,FF,
1675743,000001A1,false,Rx,0,5,E0,C3,00,00,8A,00,00,00,
1675972,000001B5,false,Rx,0,8,EB,49,52,70,FF,FF,FF,FF,
1676211,00000140,false,Rx,0,8,C2,63,40,9C,00,00,04,FF,
1676449,00000141,false,Rx,0,8,AE,73,40,9C,00,00,F4,FF,
1676648,00000199,false,Rx,0,6,FF,FF,90,7E,FF,3F,00,00,
1676855,0000019A,false,Rx,0,6,FF,FF,58,7F,FF,3F,00,00,
1677062,0000019F,false,Rx,0,6,FF,FF,10,80,FF,2F,00,00,
1677312,00000206,false,Rx,0,8,F2,20,C1,FF,FF,FF,FF,FF,
1677561,00000254,false,Rx,0,8,FF,7F,FF,7F,FF,7F,FF,7F,
1677718,00000197,false,Rx,0,4,0A,09,0E,C0,00,00,00,00,
1677966,00000212,false,Rx,0,8,2A,F0,F9,FF,FF,FF,FF,FF,
1678092,00000258,false,Rx,0,2,11,11,00,00,00,00,00,00,
1678331,0000029E,false,Rx,0,8,47,D0,11,C6,07,FF,FF,FF,
1678579,000002DB,false,Rx,0,8,FF,FF,FF,FF,BF,FF,FF,FF,
1678817,000002F1,false,Rx,0,8,37,10,7D,98,01,7A,00,A0,
1679067,0000032B,false,Rx,0,8,FF,FF,FF,FF,FF,FF,00,FF,
1679316,00000331,false,Rx,0,8,FF,FF,FF,EF,7F,FE,F7,FF,
1679555,000003E9,false,Rx,0,8,5C,8F,21,A1,7C,7D,20,4B,
1681537,000000A5,false,Rx,0,8,66,F9,FF,F7,7F,00,00,C1,
1681781,00000100,false,Rx,0,8,03,FA,7F,C0,5D,05,87,70,
1681918,000000AC,false,Rx,0,2,00,F0,00,00,00,00,00,00,
1682155,000000D9,false,Rx,0,8,2A,F9,00,10,00,F0,7F,C0,
1682394,000000F3,false,Rx,0,8,04,09,00,FF,F0,C0,FF,FF,
1682612,000002C5,false,Rx,0,7,27,F4,00,60,06,70,C8,00,
1683263,00000112,false,Rx,0,8,D7,24,03,0E,A0,71,95,5A,
1684868,000000C3,false,Rx,0,8,FC,7E,00,40,00,7D,FF,FF,
1685107,0000015F,false,Rx,0,8,1F,F1,00,7D,00,EE,00,7D,
1685347,00000201,false,Rx,0,8,32,8B,AA,2D,FF,FF,FF,FF,
1686915,000002B2,false,Rx,0,8,06,0E,E2,04,FF,0F,FF,FF,
1687153,0000013A,false,Rx,0,8,50,F4,00,00,00,0E,FF,FF,
1688329,0000012F,false,Rx,0,8,D7,25,86,1B,F1,35,30,00,
1688557,00000302,false,Rx,0,7,FF,FF,59,81,FE,FF,FF,00,
1689755,00000349,false,Rx,0,5,FE,FF,FE,FF,00,00,00,00,
1691631,00000100,false,Rx,0,8,5E,FB,7F,C0,5D,05,87,70,
1691928,000002BB,false,Rx,0,5,9F,F5,D1,7F,F2,00,00,00,
1692165,00000289,false,Rx,0,8,87,F6,E0,FF,FD,00,EC,01,
1693332,00000112,false,Rx,0,8,D5,24,03,0E,A0,71,95,5A,
1694085,000002E8,false,Rx,0,8,C0,E8,C3,FF,FF,F4,F5,60,
1694316,000002F5,false,Rx,0,8,BF,0F,E2,24,28,0A,06,10,
1694862,000000C3,false,Rx,0,8,FD,70,00,40,00,7D,FF,FF,
1695101,000000EF,false,Rx,0,8,25,F1,00,7D,21,00,7D,FF,
1695495,000001A1,false,Rx,0,5,89,C5,00,00,8A,00,00,00,
1695984,00000140,false,Rx,0,8,11,65,40,9C,00,00,04,FF,
1696224,00000141,false,Rx,0,8,7D,75,40,9C,00,00,F4,FF,
1696617,00000199,false,Rx,0,6,FF,FF,A4,7E,FF,3F,00,00,
1696825,0000019A,false,Rx,0,6,FF,FF,58,7F,FF,3F,00,00,
1697032,0000019F,false,Rx,0,6,FF,FF,00,80,FF,2F,00,00,
1697272,00000254,false,Rx,0,8,FF,7F,FF,7F,FF,7F,FF,7F,
1697407,00000258,false,Rx,0,2,11,11,00,00,00,00,00,00,
1697634,000002EF,false,Rx,0,8,F4,01,14,C0,12,00,C0,FC,
1699646,000001AE,false,Rx,0,2,F7,FF,00,00,00,00,00,00,
1701518,000000A5,false,Rx,0,8,81,FA,FF,F7,7F,00,00,C1,
1701745,00000100,false,Rx,0,8,D0,FC,7F,C0,5D,05,87,70,
1701882,000000AC,false,Rx,0,2,00,F0,00,00,00,00,00,00,
1702118,000000D9,false,Rx,0,8,CD,FA,00,10,00,F0,7F,C0,
1702358,000000F3,false,Rx,0,8,E3,0A,00,FF,F0,C0,FF,FF,
1702545,000002A7,false,Rx,0,5,A9,FB,FE,FF,14,00,00,00,
1703268,00000112,false,Rx,0,8,D6,24,03,0E,A0,71,95,5A,
1704868,000000C3,false,Rx,0,8,A0,71,00,40,00,7D,FF,FF,
1705118,0000015F,false,Rx,0,8,F8,F2,00,7D,00,EE,00,7D,
1706839,00000348,false,Rx,0,8,B1,08,62,FE,FE,E6,11,1B,
1707078,0000013A,false,Rx,0,8,EA,F6,00,00,00,0E,FF,FF,
1707308,00000459,false,Rx,0,8,46,4D,AB,7E,B8,AF,51,8B,
1707680,00000197,false,Rx,0,4,86,0A,0E,C0,00,00,00,00,
1709682,00000314,false,Rx,0,3,50,00,FF,00,00,00,00,00,
1711625,00000100,false,Rx,0,8,8D,FD,7F,C0,5D,05,87,70,
1713272,00000112,false,Rx,0,8,D6,24,03,0E,A0,71,95,5A,
1714886,00000206,false,Rx,0,8,AF,21,C1,FF,FF,FF,FF,FF,
1715126,000000EF,false,Rx,0,8,C2,F2,00,7D,21,00,7D,FF,
1715365,000000C3,false,Rx,0,8,47,72,00,40,00,7D,FF,FF,
1715542,000001A1,false,Rx,0,5,AE,C7,00,00,8A,00,00,00,
1715986,00000140,false,Rx,0,8,AB,67,40,9C,00,00,04,FF,
1716219,00000141,false,Rx,0,8,C7,77,40,9C,00,00,F4,FF,
1716469,00000163,false,Rx,0,8,FF,FF,15,25,FF,FF,FF,FF,
1716697,00000173,false,Rx,0,8,52,F4,00,0E,30,00,DE,10,
1716894,00000199,false,Rx,0,6,FF,FF,86,7E,FF,3F,00,00,
1717101,0000019A,false,Rx,0,6,FF,FF,58,7F,FF,3F,00,00,
1717310,0000019F,false,Rx,0,6,FF,FF,FC,7F,FF,2F,00,00,
1717558,00000254,false,Rx,0,8,FF,7F,FF,7F,FF,7F,FF,7F,
1717683,00000258,false,Rx,0,2,11,11,00,00,00,00,00,00,
1717931,000007BD,false,Rx,0,8,00,00,00,40,FF,C0,01,08,
1718203,000007BE,false,Rx,0,8,0C,41,04,69,00,00,00,00,
1721457,000002C4,false,Rx,0,8,00,00,FF,00,C8,64,FF,CF,
1721695,000000A5,false,Rx,0,8,DC,FB,FF,F7,7F,00,00,C1,
1721924,00000100,false,Rx,0,8,6A,FE,7F,C0,5D,05,87,70,
1722059,000000AC,false,Rx,0,2,00,F0,00,00,00,00,00,00,
1722299,000000D9,false,Rx,0,8,90,FB,00,10,00,F0,7F,C0,
1722537,000000F3,false,Rx,0,8,BE,0B,00,FF,F0,C0,FF,FF,
1723271,00000112,false,Rx,0,8,D7,24,03,0E,A0,71,95,5A,
1724859,000000C3,false,Rx,0,8,1A,73,00,40,00,7D,FF,FF,
1725098,0000015F,false,Rx,0,8,A5,F3,00,7D,00,EE,00,7D,
1725636,0000043D,false,Rx,0,8,62,15,E7,FF,21,56,08,F0,
1726905,0000013A,false,Rx,0,8,EB,F8,00,00,00,0E,FF,FF,
1728542,00000302,false,Rx,0,7,FF,FF,59,81,FE,FF,FF,00,
1728966,00000300,false,Rx,0,8,31,7A,59,96,65,59,96,65,
1732349,00000100,false,Rx,0,8,6B,F0,7F,C0,5D,05,87,70,
1733325,00000112,false,Rx,0,8,D9,24,03,0E,A0,71,95,5A,
1734867,000000C3,false,Rx,0,8,94,74,00,40,00,7D,FF,FF,
1735097,000000EF,false,Rx,0,8,9F,F3,00,7D,21,00,7D,FF,
1735336,00000201,false,Rx,0,8,3D,8B,B6,2D,FF,FF,FF,FF,
1735523,000001A1,false,Rx,0,5,5B,C9,00,00,8A,00,00,00,
1735988,00000140,false,Rx,0,8,AA,69,40,9C,00,00,04,FF,
1736227,00000141,false,Rx,0,8,C6,79,40,9C,00,00,F4,FF,
1736617,00000199,false,Rx,0,6,FF,FF,90,7E,FF,3F,00,00,
1736824,0000019A,false,Rx,0,6,FF,FF,58,7F,FF,3F,00,00,
1737031,0000019F,false,Rx,0,6,FF,FF,10,80,FF,2F,00,00,
1737281,00000254,false,Rx,0,8,FF,7F,FF,7F,FF,7F,FF,7F,
1737406,00000258,false,Rx,0,2,11,11,00,00,00,00,00,00,
1737674,00000197,false,Rx,0,4,09,0B,0E,C0,00,00,00,00,
1739597,0000003C,false,Rx,0,8,FF,5F,00,00,00,00,FF,FF,
1741512,000000A5,false,Rx,0,8,52,FC,FF,F7,7F,00,00,C1,
1741750,00000100,false,Rx,0,8,36,F1,7F,C0,5D,05,87,70,
1741876,000000AC,false,Rx,0,2,00,F0,00,00,00,00,00,00,
1742124,000000D9,false,Rx,0,8,1E,FC,00,10,00,F0,7F,C0,
1742373,000000F3,false,Rx,0,8,30,0C,00,FF,F0,C0,FF,FF,
1742554,0000036E,false,Rx,0,5,A0,F6,FE,FF,14,00,00,00,
1743277,00000112,false,Rx,0,8,D9,24,03,0E,A0,71,95,5A,
1744862,000000C3,false,Rx,0,8,C9,75,00,40,00,7D,FF,FF,
1745102,0000015F,false,Rx,0,8,2B,F4,00,7D,00,EE,00,7D,
1745671,0000043C,false,Rx,0,8,FE,FE,FF,FF,FF,FF,FF,FF,
1746930,0000013A,false,Rx,0,8,51,FA,00,00,00,0E,FF,FF,
1751633,00000100,false,Rx,0,8,D1,F2,7F,C0,5D,05,87,70,
1752950,00000239,false,Rx,0,8,30,DC,35,15,05,FF,FF,FF,
1753406,00000112,false,Rx,0,8,DC,24,03,0E,A0,71,95,5A,
1754889,00000206,false,Rx,0,8,48,22,C1,FF,FF,FF,FF,FF,
1755128,000000EF,false,Rx,0,8,11,F4,00,7D,21,00,7D,FF,
1755367,000000C3,false,Rx,0,8,2E,76,00,40,00,7D,FF,FF,
1755554,000001A1,false,Rx,0,5,7C,CB,00,00,8A,00,00,00,
1755980,00000140,false,Rx,0,8,10,6B,40,9C,00,00,04,FF,
1756219,00000141,false,Rx,0,8,7C,7B,40,9C,00,00,F4,FF,
1756613,00000199,false,Rx,0,6,FF,FF,B8,7E,FF,3F,00,00,
1756820,0000019A,false,Rx,0,6,FF,FF,58,7F,FF,3F,00,00,
1757037,0000019F,false,Rx,0,6,FF,FF,19,80,FF,2F,00,00,
1757277,00000254,false,Rx,0,8,FF,7F,FF,7F,FF,7F,FF,7F,
1757402,00000258,false,Rx,0,2,11,11,00,00,00,00,00,00,
1761522,000000A5,false,Rx,0,8,0F,FD,FF,F7,7F,00,00,C1,
1761756,00000100,false,Rx,0,8,8C,F3,7F,C0,5D,05,87,70,
1761892,000000AC,false,Rx,0,2,00,F0,00,00,00,00,00,00,
1762129,000000D9,false,Rx,0,8,43,FD,00,10,00,F0,7F,C0,
1762369,000000F3,false,Rx,0,8,6D,0D,00,FF,F0,C0,FF,FF,
1762855,0000036F,false,Rx,0,5,F2,F7,FE,FF,14,00,00,00,
1763506,00000112,false,Rx,0,8,DC,24,03,0E,A0,71,95,5A,
1764863,000000C3,false,Rx,0,8,73,77,00,40,00,7D,FF,FF,
1765101,0000015F,false,Rx,0,8,76,F5,00,7D,00,EE,00,7D,
1766740,000007BE,false,Rx,0,8,00,C0,FA,1C,02,00,00,00,
1766978,0000013A,false,Rx,0,8,82,FC,00,00,00,0E,FF,FF,
1767679,00000197,false,Rx,0,4,83,0C,0E,C0,00,00,00,00,
1768535,00000302,false,Rx,0,7,FF,FF,59,81,FE,FF,FF,00,
1769874,0000051A,false,Rx,0,8,00,00,00,00,50,00,00,1A,
1771633,00000100,false,Rx,0,8,02,F4,7F,C0,5D,05,87,70,
1773276,00000112,false,Rx,0,8,DF,24,03,0E,A0,71,95,5A,
1774810,000003FD,false,Rx,0,5,FB,0D,00,00,FF,00,00,00,
1775039,000000EF,false,Rx,0,8,4C,F5,00,7D,21,00,7D,FF,
1775288,00000108,false,Rx,0,8,00,7D,FF,FF,47,F1,FF,FF,
1775526,000000C3,false,Rx,0,8,2F,78,00,40,00,7D,FF,FF,
1775716,000001A1,false,Rx,0,5,15,CD,00,00,8A,00,00,00,
1775954,00000212,false,Rx,0,8,77,F1,F9,FF,FF,FF,FF,FF,
1776193,00000140,false,Rx,0,8,C3,6D,40,9C,00,00,04,FF,
1776433,00000141,false,Rx,0,8,AF,7D,40,9C,00,00,F4,FF,
1776640,00000199,false,Rx,0,6,FF,FF,90,7E,FF,3F,00,00,
1776847,0000019A,false,Rx,0,6,FF,FF,62,7F,FF,3F,00,00,
1777054,0000019F,false,Rx,0,6,FF,FF,0F,80,FF,2F,00,00,
1777305,00000254,false,Rx,0,8,FF,7F,FF,7F,FF,7F,FF,7F,
1777430,00000258,false,Rx,0,2,11,11,00,00,00,00,00,00,
1777667,0000029E,false,Rx,0,8,47,D0,11,C6,07,FF,FF,FF,
1777920,000002DB,false,Rx,0,8,FF,FF,FF,FF,BF,FF,FF,FF,
1778158,000002F1,false,Rx,0,8,37,10,7D,98,01,7A,00,A0,
1781528,000000A5,false,Rx,0,8,E8,FE,FF,F7,7F,00,00,C1,
1781763,00000100,false,Rx,0,8,5F,F5,7F,C0,5D,05,87,70,
1781888,000000AC,false,Rx,0,2,00,F0,00,00,00,00,00,00,
1782136,000000D9,false,Rx,0,8,A4,FE,00,10,00,F0,7F,C0,
1782365,000000F3,false,Rx,0,8,8A,0E,00,FF,F0,C0,FF,FF,
1782553,000002A7,false,Rx,0,5,5D,FC,FE,FF,14,00,00,00,
1782770,000002C5,false,Rx,0,7,61,F5,00,60,06,70,C8,00,
1783266,00000112,false,Rx,0,8,DE,24,03,0E,A0,71,95,5A,
1784863,000000C3,false,Rx,0,8,72,79,00,40,00,7D,FF,FF,
1785101,0000015F,false,Rx,0,8,91,F6,00,7D,00,EE,00,7D,
1785340,00000201,false,Rx,0,8,49,8B,C2,2D,FF,FF,FF,FF,
1786969,0000013A,false,Rx,0,8,38,FE,00,00,00,0E,FF,FF,
1787200,000002B2,false,Rx,0,8,06,0E,E2,04,FF,0F,FF,FF,
1787376,00000337,false,Rx,0,2,FF,FF,00,00,00,00,00,00,
1787654,000003B4,false,Rx,0,8,00,00,0D,F4,BD,FF,09,B0,
1788328,0000012F,false,Rx,0,8,30,26,86,1B,F1,35,30,00,
1791633,00000100,false,Rx,0,8,B8,F6,7F,C0,5D,05,87,70,
1791920,000002BB,false,Rx,0,5,4C,F0,D1,7F,F2,00,00,00,
1792157,00000289,false,Rx,0,8,DA,F7,E0,FF,FD,00,EC,01,
1793356,00000112,false,Rx,0,8,DF,24,03,0E,A0,71,95,5A,
1793840,00000239,false,Rx,0,8,30,DC,35,15,05,FF,FF,FF,
1794894,00000206,false,Rx,0,8,15,23,C1,FF,FF,FF,FF,FF,
1795132,000000EF,false,Rx,0,8,AB,F6,00,7D,21,00,7D,FF,
1795371,000000C3,false,Rx,0,8,95,7A,00,40,00,7D,FF,FF,
1795548,000001A1,false,Rx,0,5,5A,C0,00,00,8A,00,00,00,
1795787,000002E8,false,Rx,0,8,C0,E8,C3,FF,FF,F4,F6,47,
1796031,00000140,false,Rx,0,8,25,60,40,9C,00,00,04,FF,
1796260,00000141,false,Rx,0,8,49,70,40,9C,00,00,F4,FF,
1796469,00000199,false,Rx,0,6,FF,FF,90,7E,FF,3F,00,00,
1796676,0000019A,false,Rx,0,6,FF,FF,58,7F,FF,3F,00,00,
1796883,0000019F,false,Rx,0,6,FF,FF,12,80,FF,2F,00,00,
1797132,00000254,false,Rx,0,8,FF,7F,FF,7F,FF,7F,FF,7F,
1797258,00000258,false,Rx,0,2,11,11,00,00,00,00,00,00,
1797485,000002EF,false,Rx,0,8,F4,01,14,C0,12,00,C0,FC,
1797723,000002F5,false,Rx,0,8,BF,0F,E2,24,28,0A,06,10,
1797892,00000197,false,Rx,0,4,0C,0D,0E,C0,00,00,00,00,
1798119,000003C0,false,Rx,0,8,DD,DD,DD,FD,FF,FF,FF,FF,
1799327,00000458,false,Rx,0,8,09,4F,AB,7E,8D,AF,51,8B,
1799648,000001AE,false,Rx,0,2,F7,FF,00,00,00,00,00,00,
1801628,00000100,false,Rx,0,8,E5,F7,7F,C0,5D,05,87,70,
1801877,000000A5,false,Rx,0,8,E9,F0,FF,F7,7F,00,00,C1,
1802011,000000AC,false,Rx,0,2,00,F0,00,00,00,00,00,00,
1802249,000000D9,false,Rx,0,8,A5,F0,00,10,00,F0,7F,C0,
1802489,000000F3,false,Rx,0,8,8B,00,00,FF,F0,C0,FF,FF,
1802912,0000031C,false,Rx,0,8,FF,FF,FF,FF,FF,FF,FF,FF,
1803109,0000033B,false,Rx,0,6,69,FA,DC,FF,FF,FF,00,00,
1803339,00000112,false,Rx,0,8,DE,24,03,0E,A0,71,95,5A,
1804881,000000C3,false,Rx,0,8,C8,7B,00,40,00,7D,FF,FF,
1805119,0000015F,false,Rx,0,8,CC,F7,00,7D,00,EE,00,7D,
1806922,0000013A,false,Rx,0,8,64,F1,00,00,00,0E,FF,FF,
1808538,00000302,false,Rx,0,7,FF,FF,59,81,FE,FF,FF,00,
1811626,00000100,false,Rx,0,8,B9,F8,7F,C0,5D,05,87,70,
1812902,00000297,false,Rx,0,7,03,E2,F0,E0,F2,92,EA,00,
1813267,00000112,false,Rx,0,8,DD,24,03,0E,A0,71,95,5A,
1814863,000000C3,false,Rx,0,8,46,7C,00,40,00,7D,FF,FF,
1815101,000000EF,false,Rx,0,8,F6,F7,00,7D,21,00,7D,FF,
1815484,000001A1,false,Rx,0,5,7D,C2,00,00,8A,00,00,00,
1815969,00000140,false,Rx,0,8,9F,62,40,9C,00,00,04,FF,
1816211,00000141,false,Rx,0,8,F3,72,40,9C,00,00,F4,FF,
1816666,00000163,false,Rx,0,8,FF,FF,15,25,FF,FF,FF,FF,
1816894,00000173,false,Rx,0,8,3A,FE,00,0E,30,00,DE,10,
1817102,00000199,false,Rx,0,6,FF,FF,A4,7E,FF,3F,00,00,
1817300,0000019A,false,Rx,0,6,FF,FF,58,7F,FF,3F,00,00,
1817507,0000019F,false,Rx,0,6,FF,FF,E8,7F,FF,2F,00,00,
1817755,00000254,false,Rx,0,8,FF,7F,FF,7F,FF,7F,FF,7F,
1817882,00000258,false,Rx,0,2,11,11,00,00,00,00,00,00,
1818128,000007BD,false,Rx,0,8,00,00,00,40,FF,C0,01,08,
1818337,000001E1,false,Rx,0,6,C5,FB,05,FF,FF,FF,00,00,
1818585,000007BE,false,Rx,0,8,05,00,00,00,00,00,00,E0,
1821626,00000100,false,Rx,0,8,E4,F9,7F,C0,5D,05,87,70,
1821866,000000A5,false,Rx,0,8,B4,F1,FF,F7,7F,00,00,C1,
1822102,000002C4,false,Rx,0,8,00,00,FF,00,C8,64,FF,CF,
1822239,000000AC,false,Rx,0,2,00,F0,00,00,00,00,00,00,
1822477,000000D9,false,Rx,0,8,F8,F1,00,10,00,F0,7F,C0,
1822715,000000F3,false,Rx,0,8,D6,01,00,FF,F0,C0,FF,FF,
1822922,00000304,false,Rx,0,6,FF,FF,D4,38,FF,FF,00,00,
1823276,00000112,false,Rx,0,8,DC,24,03,0E,A0,71,95,5A,
1824869,000000C3,false,Rx,0,8,1B,7D,00,40,00,7D,FF,FF,
1825108,0000015F,false,Rx,0,8,90,F8,00,7D,00,EE,00,7D,
1826901,0000013A,false,Rx,0,8,DE,F3,00,00,00,0E,FF,FF,
1827140,00000272,false,Rx,0,8,06,F4,05,12,FF,FF,FF,FF,
1827677,00000197,false,Rx,0,4,80,0E,0E,C0,00,00,00,00,
1831633,00000100,false,Rx,0,8,03,FA,7F,C0,5D,05,87,70,
1833271,00000112,false,Rx,0,8,DA,24,03,0E,A0,71,95,5A,
1833509,00000431,false,Rx,0,8,C6,FD,44,00,0E,9F,F7,00,
1834859,00000206,false,Rx,0,8,9B,24,C1,FF,FF,FF,FF,FF,
1835097,000000EF,false,Rx,0,8,AA,F8,00,7D,21,00,7D,FF,
1835348,000000C3,false,Rx,0,8,FC,7E,00,40,00,7D,FF,FF,
1835525,000001A1,false,Rx,0,5,14,C4,00,00,8A,00,00,00,
1835765,00000201,false,Rx,0,8,55,8B,CD,2D,FF,FF,FF,FF,
1836003,00000140,false,Rx,0,8,4C,64,40,9C,00,00,04,FF,
1836243,00000141,false,Rx,0,8,20,74,40,9C,00,00,F4,FF,
1836451,00000199,false,Rx,0,6,FF,FF,90,7E,FF,3F,00,00,
1836658,0000019A,false,Rx,0,6,FF,FF,58,7F,FF,3F,00,00,
1836865,0000019F,false,Rx,0,6,FF,FF,1D,80,FF,2F,00,00,
1837114,00000254,false,Rx,0,8,FF,7F,FF,7F,FF,7F,FF,7F,
1837241,00000258,false,Rx,0,2,11,11,00,00,00,00,00,00,
1839447,000000C0,false,Rx,0,2,FD,40,00,00,00,00,00,00,
1839694,0000003C,false,Rx,0,8,FF,5F,00,00,00,00,FF,FF,
1841517,000000A5,false,Rx,0,8,53,F2,FF,F7,7F,00,00,C1,
1841752,00000100,false,Rx,0,8,5E,FB,7F,C0,5D,05,87,70,
1841888,000000AC,false,Rx,0,2,00,F0,00,00,00,00,00,00,
1842125,000000D9,false,Rx,0,8,1F,F2,00,10,00,F0,7F,C0,
1842364,000000F3,false,Rx,0,8,31,02,00,FF,F0,C0,FF,FF,
1843274,00000112,false,Rx,0,8,DA,24,03,0E,A0,71,95,5A,
1843512,00000432,false,Rx,0,8,3C,DA,15,BD,4D,7C,1B,BC,
1844880,000000C3,false,Rx,0,8,FD,70,00,40,00,7D,FF,FF,
1845128,0000015F,false,Rx,0,8,CD,F9,00,7D,00,EE,00,7D,
1846911,0000013A,false,Rx,0,8,0D,F5,00,00,00,0E,FF,FF,
1848537,00000302,false,Rx,0,7,FF,FF,59,81,FE,FF,FF,00,
1851625,00000100,false,Rx,0,8,D0,FC,7F,C0,5D,05,87,70,
1852130,00000356,false,Rx,0,8,EF,40,05,FF,FF,FF,FF,FF,
1852349,00000373,false,Rx,0,6,00,40,05,FF,FF,FF,00,00,
1852608,000003A6,false,Rx,0,8,75,04,2E,F0,C0,FF,FF,FF,
1852867,000005E0,false,Rx,0,8,11,03,00,04,09,05,D5,7F,
1853313,00000112,false,Rx,0,8,D8,24,03,0E,A0,71,95,5A,
1854567,00000301,false,Rx,0,7,FF,FF,2C,81,FF,FF,CF,00,
1854868,000000C3,false,Rx,0,8,A0,71,00,40,00,7D,FF,FF,
1855095,000000EF,false,Rx,0,8,F7,F9,00,7D,21,00,7D,FF,
1855490,000001A1,false,Rx,0,5,33,C6,00,00,8A,00,00,00,
1855976,00000140,false,Rx,0,8,F6,66,40,9C,00,00,04,FF,
1856216,00000141,false,Rx,0,8,9A,76,40,9C,00,00,F4,FF,
1856414,00000199,false,Rx,0,6,FF,FF,86,7E,FF,3F,00,00,
1856621,0000019A,false,Rx,0,6,FF,FF,76,7F,FF,3F,00,00,
1856828,0000019F,false,Rx,0,6,FF,FF,07,80,FF,2F,00,00,
1857077,00000254,false,Rx,0,8,FF,7F,FF,7F,FF,7F,FF,7F,
1857203,00000258,false,Rx,0,2,11,11,00,00,00,00,00,00,
1857677,00000197,false,Rx,0,4,89,00,0E,C0,00,00,00,00,
1859224,000001B6,false,Rx,0,7,51,81,02,04,77,C1,F0,00,
1861519,000000A5,false,Rx,0,8,0E,F3,FF,F7,7F,00,00,C1,
1861759,00000100,false,Rx,0,8,8D,FD,7F,C0,5D,05,87,70,
1861884,000000AC,false,Rx,0,2,00,F0,00,00,00,00,00,00,
1862120,000000D9,false,Rx,0,8,42,F3,00,10,00,F0,7F,C0,
1862360,000000F3,false,Rx,0,8,6C,03,00,FF,F0,C0,FF,FF,
1862548,000002A7,false,Rx,0,5,C0,FD,FE,FF,14,00,00,00,
1863507,00000112,false,Rx,0,8,D8,24,03,0E,A0,71,95,5A,
1863745,000001FA,false,Rx,0,8,41,65,45,70,4D,4D,4B,4D,
1864865,000000C3,false,Rx,0,8,47,72,00,40,00,7D,FF,FF,
1865103,0000015F,false,Rx,0,8,2A,FA,00,7D,00,EE,00,7D,
1866753,000007BE,false,Rx,0,8,0B,00,00,00,00,00,00,00,
1866992,0000013A,false,Rx,0,8,B7,F7,00,00,00,0E,FF,FF,
1869765,00000314,false,Rx,0,3,50,00,FF,00,00,00,00,00,
1871627,00000100,false,Rx,0,8,6A,FE,7F,C0,5D,05,87,70,
1872953,00000239,false,Rx,0,8,30,DD,35,15,05,FF,FF,FF,
1873266,00000112,false,Rx,0,8,D7,24,03,0E,A0,71,95,5A,
1873730,00000363,false,Rx,0,8,DA,76,EE,0A,FF,FF,FF,FF,
1874804,000003FD,false,Rx,0,5,41,0E,00,00,FF,00,00,00,
1875042,000000EF,false,Rx,0,8,DE,FA,00,7D,21,FC,7C,FF,
1875292,00000108,false,Rx,0,8,00,7D,FF,FF,47,F1,FF,FF,
1875531,000000C3,false,Rx,0,8,1A,73,00,40,00,7D,FF,FF,
1875708,000001A1,false,Rx,0,5,C6,C8,00,00,8A,00,00,00,
1875925,000000F5,false,Rx,0,7,DC,DC,00,82,00,82,00,00,
1876158,00000140,false,Rx,0,8,F7,68,40,9C,00,00,04,FF,
1876327,000000FF,false,Rx,0,4,E2,24,F0,00,00,00,00,00,
1876564,00000141,false,Rx,0,8,9B,78,40,9C,00,00,F4,FF,
1876772,00000199,false,Rx,0,6,FF,FF,86,7E,FF,3F,00,00,
1876980,0000019A,false,Rx,0,6,FF,FF,58,7F,FF,3F,00,00,
1877188,0000019F,false,Rx,0,6,FF,FF,F8,7F,FF,2F,00,00,
1877426,000001B5,false,Rx,0,8,60,4A,22,70,FF,FF,FF,FF,
1877664,00000254,false,Rx,0,8,FF,7F,FF,7F,FF,7F,FF,7F,
1877903,00000201,false,Rx,0,8,5E,8B,D7,2D,FF,FF,FF,FF,
1878028,00000258,false,Rx,0,2,11,11,00,00,00,00,00,00,
1878280,00000206,false,Rx,0,8,C6,25,C1,FF,FF,FF,FF,FF,
1878519,0000029E,false,Rx,0,8,47,D0,11,C6,07,FF,FF,FF,
1878758,00000212,false,Rx,0,8,90,F2,F9,FF,FF,FF,FF,FF,
1879006,000002DB,false,Rx,0,8,FF,FF,FF,FF,BF,FF,FF,FF,
1879255,000002F1,false,Rx,0,8,37,10,7D,98,01,7A,00,A0,
1879505,000002FA,false,Rx,0,8,44,00,30,FF,FF,FF,FF,FF,
1879754,0000032B,false,Rx,0,8,FF,FF,FF,FF,FF,FF,00,FF,
1879992,00000331,false,Rx,0,8,FF,FF,FF,EF,7F,FE,F7,FF,
1880254,000003AD,false,Rx,0,8,00,F0,FF,FF,FF,FF,FF,F0,
1880389,000003E8,false,Rx,0,2,F1,FF,00,00,00,00,00,00,
1880626,000003E9,false,Rx,0,8,5C,8F,21,A1,7C,7D,20,4B,
1880886,0000041E,false,Rx,0,8,00,03,CF,FF,FF,FF,FF,FF,
1881651,00000100,false,Rx,0,8,6B,F0,7F,C0,5D,05,87,70,
1881889,000000A5,false,Rx,0,8,80,F4,FF,F7,7F,00,00,C1,
1882014,000000AC,false,Rx,0,2,00,F0,00,00,00,00,00,00,
1882261,000000D9,false,Rx,0,8,CC,F4,00,10,00,F0,7F,C0,
1882500,000000F3,false,Rx,0,8,E2,04,00,FF,F0,C0,FF,FF,
1882738,0000019D,false,Rx,0,8,C8,32,8E,01,FF,FF,FF,FF,
1882966,000002C5,false,Rx,0,7,AB,F6,00,60,06,70,C8,00,
1883268,00000112,false,Rx,0,8,D8,24,03,0E,A0,71,95,5A,
1884881,000000C3,false,Rx,0,8,94,74,00,40,00,7D,FF,FF,
1885120,0000015F,false,Rx,0,8,77,FB,00,7D,00,EE,00,7D,
1885359,00000201,false,Rx,0,8,60,8B,D9,2D,FF,FF,FF,FF,
1886969,0000013A,false,Rx,0,8,B6,F9,00,00,00,0E,FF,FF,
1887208,000002B2,false,Rx,0,8,06,0E,E2,04,FF,0F,FF,FF,
1887682,00000197,false,Rx,0,4,06,01,0E,C0,00,00,00,00,
1888333,0000012F,false,Rx,0,8,6D,27,86,1B,F1,35,30,00,
1888562,00000302,false,Rx,0,7,FF,FF,59,81,FE,FF,FF,00,
1889676,00000349,false,Rx,0,5,FE,FF,FE,FF,00,00,00,00,
1891626,00000100,false,Rx,0,8,36,F1,7F,C0,5D,05,87,70,
1891916,000002BB,false,Rx,0,5,F7,FA,D1,7F,F2,00,00,00,
1892163,00000289,false,Rx,0,8,86,F8,E0,FF,FD,00,EC,01,
1893331,00000112,false,Rx,0,8,D7,24,03,0E,A0,71,95,5A,
1894074,000002E8,false,Rx,0,8,C0,E8,C3,FF,FF,F4,F7,5A,
1894311,000002F5,false,Rx,0,8,BF,0F,E2,24,28,0A,06,10,
1894879,000000C3,false,Rx,0,8,C9,75,00,40,00,7D,FF,FF,
1895118,000000EF,false,Rx,0,8,4D,FB,00,7D,21,00,7D,FF,
1895493,000001A1,false,Rx,0,5,E1,CA,00,00,8A,00,00,00,
1895987,00000140,false,Rx,0,8,4D,6A,40,9C,00,00,04,FF,
1896228,00000141,false,Rx,0,8,21,7A,40,9C,00,00,F4,FF,
1896606,00000199,false,Rx,0,6,FF,FF,AE,7E,FF,3F,00,00,
1896813,0000019A,false,Rx,0,6,FF,FF,62,7F,FF,3F,00,00,
1897021,0000019F,false,Rx,0,6,FF,FF,03,80,FF,2F,00,00,
1897271,00000254,false,Rx,0,8,FF,7F,FF,7F,FF,7F,FF,7F,
1897396,00000258,false,Rx,0,2,11,11,00,00,00,00,00,00,
1897633,000002EF,false,Rx,0,8,F4,01,14,C0,12,00,C0,FC,
1899650,000001AE,false,Rx,0,2,F7,FF,00,00,00,00,00,00,
1901541,000000A5,false,Rx,0,8,DD,F5,FF,F7,7F,00,00,C1,
1901853,000000D9,false,Rx,0,8,91,F5,00,10,00,F0,7F,C0,
1901978,000000AC,false,Rx,0,2,00,F0,00,00,00,00,00,00,
1902216,000000F3,false,Rx,0,8,BF,05,00,FF,F0,C0,FF,FF,
1902457,00000100,false,Rx,0,8,D1,F2,7F,C0,5D,05,87,70,
1902644,0000036E,false,Rx,0,5,3D,F7,FE,FF,14,00,00,00,
1903276,00000112,false,Rx,0,8,D8,24,03,0E,A0,71,95,5A,
1904864,000000C3,false,Rx,0,8,2E,76,00,40,00,7D,FF,FF,
1905112,0000015F,false,Rx,0,8,F9,FC,00,7D,00,EE,00,7D,
1906905,0000013A,false,Rx,0,8,0C,FB,00,00,00,0E,FF,FF,
1912335,00000100,false,Rx,0,8,8C,F3,7F,C0,5D,05,87,70,
1913281,00000112,false,Rx,0,8,D9,24,03,0E,A0,71,95,5A,
1914865,00000206,false,Rx,0,8,21,26,C1,FF,FF,FF,FF,FF,
1915103,000000EF,false,Rx,0,8,0D,FC,00,7D,21,FC,7C,FF,
1915343,000000C3,false,Rx,0,8,73,77,00,40,00,7D,FF,FF,
1915531,000001A1,false,Rx,0,5,88,CC,00,00,8A,00,00,00,
1915984,00000140,false,Rx,0,8,9E,6C,40,9C,00,00,04,FF,
1916215,00000141,false,Rx,0,8,F2,7C,40,9C,00,00,F4,FF,
1916459,00000163,false,Rx,0,8,FF,FF,15,25,FF,FF,FF,FF,
1916697,00000173,false,Rx,0,8,B4,F9,00,0E,30,00,DE,10,
1916905,00000199,false,Rx,0,6,FF,FF,90,7E,FF,3F,00,00,
1917103,0000019A,false,Rx,0,6,FF,FF,3A,7F,FF,3F,00,00,
1917321,0000019F,false,Rx,0,6,FF,FF,26,80,FF,2F,00,00,
1917559,00000254,false,Rx,0,8,FF,7F,FF,7F,FF,7F,FF,7F,
1917726,00000197,false,Rx,0,4,8A,02,0E,C0,00,00,00,00,
1917851,00000258,false,Rx,0,2,11,11,00,00,00,00,00,00,
1918098,000007BD,false,Rx,0,8,00,00,00,40,FF,C0,01,08,
1918368,000007BE,false,Rx,0,8,07,70,2D,80,06,67,00,00,
1921451,000002C4,false,Rx,0,8,00,00,FF,00,C8,64,FF,CF,
1921686,000000A5,false,Rx,0,8,3A,F6,FF,F7,7F,00,00,C1,
1921924,00000100,false,Rx,0,8,02,F4,7F,C0,5D,05,87,70,
1922059,000000AC,false,Rx,0,2,00,F0,00,00,00,00,00,00,
1922299,000000D9,false,Rx,0,8,76,F6,00,10,00,F0,7F,C0,
1922537,000000F3,false,Rx,0,8,58,06,00,FF,F0,C0,FF,FF,
1922858,0000036F,false,Rx,0,5,9A,F8,FE,FF,14,00,00,00,
1923293,00000112,false,Rx,0,8,DA,24,03,0E,A0,71,95,5A,
1924868,000000C3,false,Rx,0,8,2F,78,00,40,00,7D,FF,FF,
1925106,0000015F,false,Rx,0,8,A4,FD,00,7D,00,EE,00,7D,
1926920,0000013A,false,Rx,0,8,DF,FD,00,00,00,0E,FF,FF,
1928536,00000302,false,Rx,0,7,FF,FF,59,81,FE,FF,FF,00,
1931625,00000100,false,Rx,0,8,5F,F5,7F,C0,5D,05,87,70,
1933344,00000112,false,Rx,0,8,DB,24,03,0E,A0,71,95,5A,
1934877,000000C3,false,Rx,0,8,72,79,00,40,00,7D,FF,FF,
1935115,000000EF,false,Rx,0,8,9E,FD,00,7D,21,00,7D,FF,
1935355,00000201,false,Rx,0,8,6C,8B,E5,2D,FF,FF,FF,FF,
1935542,000001A1,false,Rx,0,5,AF,CE,00,00,8A,00,00,00,
1935997,00000140,false,Rx,0,8,24,6E,40,9C,00,00,04,FF,
1936228,00000141,false,Rx,0,8,48,7E,40,9C,00,00,F4,FF,
1936610,00000199,false,Rx,0,6,FF,FF,90,7E,FF,3F,00,00,
1936817,0000019A,false,Rx,0,6,FF,FF,58,7F,FF,3F,00,00,
1937025,0000019F,false,Rx,0,6,FF,FF,1F,80,FF,2F,00,00,
1937274,00000254,false,Rx,0,8,FF,7F,FF,7F,FF,7F,FF,7F,
1937399,00000258,false,Rx,0,2,11,11,00,00,00,00,00,00,
1939592,0000003C,false,Rx,0,8,FF,5F,00,00,00,00,FF,FF,
1941518,000000A5,false,Rx,0,8,67,F7,FF,F7,7F,00,00,C1,
1941752,00000100,false,Rx,0,8,B8,F6,7F,C0,5D,05,87,70,
1941877,000000AC,false,Rx,0,2,00,F0,00,00,00,00,00,00,
1942124,000000D9,false,Rx,0,8,2B,F7,00,10,00,F0,7F,C0,
1942365,000000F3,false,Rx,0,8,05,07,00,FF,F0,C0,FF,FF,
1942542,000002A7,false,Rx,0,5,7A,FE,FE,FF,14,00,00,00,
1943306,00000112,false,Rx,0,8,DD,24,03,0E,A0,71,95,5A,
1944859,000000C3,false,Rx,0,8,95,7A,00,40,00,7D,FF,FF,
1945107,0000015F,false,Rx,0,8,43,FE,00,7D,00,EE,00,7D,
1946912,0000013A,false,Rx,0,8,39,F0,00,00,00,0E,FF,FF,
1947678,00000197,false,Rx,0,4,05,03,0E,C0,00,00,00,00,
1951624,00000100,false,Rx,0,8,E5,F7,7F,C0,5D,05,87,70,
1953302,00000112,false,Rx,0,8,DD,24,03,0E,A0,71,95,5A,
1954875,00000206,false,Rx,0,8,7C,27,C1,FF,FF,FF,FF,FF,
1955114,000000EF,false,Rx,0,8,79,FE,00,7D,21,00,7D,FF,
1955354,000000C3,false,Rx,0,8,C8,7B,00,40,00,7D,FF,FF,
1955530,000001A1,false,Rx,0,5,C7,C1,00,00,8A,00,00,00,
1955986,00000140,false,Rx,0,8,78,61,40,9C,00,00,04,FF,
1956226,00000141,false,Rx,0,8,14,71,40,9C,00,00,F4,FF,
1956434,00000199,false,Rx,0,6,FF,FF,90,7E,FF,3F,00,00,
1956641,0000019A,false,Rx,0,6,FF,FF,58,7F,FF,3F,00,00,
1956849,0000019F,false,Rx,0,6,FF,FF,13,80,FF,2F,00,00,
1957086,00000254,false,Rx,0,8,FF,7F,FF,7F,FF,7F,FF,7F,
1957213,00000258,false,Rx,0,2,11,11,00,00,00,00,00,00,
1961528,000000A5,false,Rx,0,8,3B,F8,FF,F7,7F,00,00,C1,
1961824,000000D9,false,Rx,0,8,77,F8,00,10,00,F0,7F,C0,
1961959,000000AC,false,Rx,0,2,00,F0,00,00,00,00,00,00,
1962197,000000F3,false,Rx,0,8,59,08,00,FF,F0,C0,FF,FF,
1962426,00000100,false,Rx,0,8,B9,F8,7F,C0,5D,05,87,70,
1963273,00000112,false,Rx,0,8,DF,24,03,0E,A0,71,A5,5A,
1964865,000000C3,false,Rx,0,8,46,7C,00,40,00,7D,FF,FF,
1965103,0000015F,false,Rx,0,8,42,F0,00,7D,00,EE,00,7D,
1966908,0000013A,false,Rx,0,8,83,F2,00,00,00,0E,FF,FF,
1968534,00000302,false,Rx,0,7,FF,FF,59,81,FE,FF,FF,00,
1972338,00000100,false,Rx,0,8,E4,F9,7F,C0,5D,05,87,70,
1972952,00000239,false,Rx,0,8,30,DE,35,15,05,FF,FF,FF,
1973399,00000112,false,Rx,0,8,DF,24,03,0E,A0,71,A5,5A,
1974831,000003FD,false,Rx,0,5,B4,00,00,00,FF,00,00,00,
1975068,000000EF,false,Rx,0,8,78,F0,00,7D,21,00,7D,FF,
1975319,00000108,false,Rx,0,8,00,7D,FF,FF,47,F1,FF,FF,
1975557,000000C3,false,Rx,0,8,1B,7D,00,40,00,7D,FF,FF,
1975744,000001A1,false,Rx,0,5,E0,C3,00,00,8A,00,00,00,
1975982,00000212,false,Rx,0,8,CD,F3,F9,FF,FF,FF,FF,FF,
1976222,00000140,false,Rx,0,8,C2,63,40,9C,00,00,04,FF,
1976458,00000141,false,Rx,0,8,AE,73,40,9C,00,00,F4,FF,
1976666,00000199,false,Rx,0,6,FF,FF,90,7E,FF,3F,00,00,
1976874,0000019A,false,Rx,0,6,FF,FF,58,7F,FF,3F,00,00,
1977081,0000019F,false,Rx,0,6,FF,FF,FD,7F,FF,2F,00,00,
1977330,00000254,false,Rx,0,8,FF,7F,FF,7F,FF,7F,FF,7F,
1977455,00000258,false,Rx,0,2,11,11,00,00,00,00,00,00,
1977693,0000029E,false,Rx,0,8,47,D0,11,C6,07,FF,FF,FF,
1977859,00000197,false,Rx,0,4,8F,04,0E,C0,00,00,00,00,
1978107,000002DB,false,Rx,0,8,FF,FF,FF,FF,BF,FF,FF,FF,
1978346,000002F1,false,Rx,0,8,37,10,7D,98,01,7A,00,A0,
1981522,000000A5,false,Rx,0,8,66,F9,FF,F7,7F,00,00,C1,
1981756,00000100,false,Rx,0,8,03,FA,7F,C0,5D,05,87,70,
1981891,000000AC,false,Rx,0,2,00,F0,00,00,00,00,00,00,
1982139,000000D9,false,Rx,0,8,2A,F9,00,10,00,F0,7F,C0,
1982379,000000F3,false,Rx,0,8,04,09,00,FF,F0,C0,FF,FF,
1982597,000002C5,false,Rx,0,7,ED,F7,00,60,06,70,C8,00,
1983269,00000112,false,Rx,0,8,E1,24,03,0E,A0,71,A5,5A,
1984893,000000C3,false,Rx,0,8,FC,7E,00,40,00,7D,FF,FF,
1985131,0000015F,false,Rx,0,8,1F,F1,00,7D,00,EE,00,7D,
1985372,00000201,false,Rx,0,8,78,8B,F0,2D,FF,FF,FF,FF,
1986981,0000013A,false,Rx,0,8,50,F4,00,00,00,0E,FF,FF,
1987231,000002B2,false,Rx,0,8,06,0E,E2,04,FF,0F,FF,FF,
1987510,000003B4,false,Rx,0,8,00,00,0D,F4,BD,FF,09,B0,
1988338,0000012F,false,Rx,0,8,31,28,86,1B,F1,35,30,00,
1991777,00000100,false,Rx,0,8,5E,FB,7F,C0,5D,05,87,70,
1991960,000002BB,false,Rx,0,5,9F,F5,D1,7F,F2,00,00,00,
1992200,00000289,false,Rx,0,8,DB,F9,E0,FF,FD,00,EC,01,
1993345,00000112,false,Rx,0,8,DE,24,03,0E,A0,71,A5,5A,
1994087,000002E8,false,Rx,0,8,C0,E8,C3,FF,FF,F4,F8,E1,
1994327,000002F5,false,Rx,0,8,BF,0F,E2,24,28,0A,06,10,
1994874,00000206,false,Rx,0,8,20,28,C1,FF,FF,FF,FF,FF,
1995113,000000EF,false,Rx,0,8,25,F1,00,7D,21,00,7D,FF,
1995363,000000C3,false,Rx,0,8,FD,70,00,40,00,7D,FF,FF,
1995540,000001A1,false,Rx,0,5,89,C5,00,00,8A,00,00,00,
1996000,00000140,false,Rx,0,8,11,65,40,9C,00,00,04,FF,
1996240,00000141,false,Rx,0,8,7D,75,40,9C,00,00,F4,FF,
1996437,00000199,false,Rx,0,6,FF,FF,A4,7E,FF,3F,00,00,
1996644,0000019A,false,Rx,0,6,FF,FF,4E,7F,FF,3F,00,00,
1996852,0000019F,false,Rx,0,6,FF,FF,F5,7F,FF,2F,00,00,
1997100,00000254,false,Rx,0,8,FF,7F,FF,7F,FF,7F,FF,7F,
1997227,00000258,false,Rx,0,2,11,11,00,00,00,00,00,00,
1997464,000002EF,false,Rx,0,8,F4,01,14,C0,12,00,C0,FC,
1999639,000001AE,false,Rx,0,2,F7,FF,00,00,00,00,00,00,
2001491,000000A5,false,Rx,0,8,81,FA,FF,F7,7F,00,00,C1,
2001729,00000100,false,Rx,0,8,D0,FC,7F,C0,5D,05,87,70,
2001854,000000AC,false,Rx,0,2,00,F0,00,00,00,00,00,00,
2002101,000000D9,false,Rx,0,8,CD,FA,00,10,00,F0,7F,C0,
2002342,000000F3,false,Rx,0,8,E3,0A,00,FF,F0,C0,FF,FF,
2002539,00000328,false,Rx,0,6,B0,2B,C9,04,AB,1E,00,00,
2002993,0000031C,false,Rx,0,8,FF,FF,FF,FF,FF,FF,FF,FF,
2003192,0000033B,false,Rx,0,6,03,FB,DC,FF,FF,FF,00,00,
2003419,00000112,false,Rx,0,8,E1,24,03,0E,A0,71,A5,5A,
2004869,000000C3,false,Rx,0,8,A0,71,00,40,00,7D,FF,FF,
2005107,0000015F,false,Rx,0,8,F8,F2,00,7D,00,EE,00,7D,
2006902,0000013A,false,Rx,0,8,EA,F6,00,00,00,0E,FF,FF,
2007688,00000197,false,Rx,0,4,00,05,0E,C0,00,00,00,00,
2007894,00000350,false,Rx,0,6,F7,FF,FF,FF,FF,FF,00,00,
2008535,00000302,false,Rx,0,7,FF,FF,59,81,FE,FF,FF,00,
2012326,00000100,false,Rx,0,8,8D,FD,7F,C0,5D,05,87,70,
2012889,00000297,false,Rx,0,7,45,E3,F0,E0,F2,92,EA,00,
2013273,00000112,false,Rx,0,8,E0,24,03,0E,A0,71,A5,5A,
2013522,00000239,false,Rx,0,8,30,DE,35,15,05,FF,FF,FF,
2014874,000000C3,false,Rx,0,8,47,72,00,40,00,7D,FF,FF,
2015112,000000EF,false,Rx,0,8,C2,F2,00,7D,21,00,7D,FF,
2015486,000001A1,false,Rx,0,5,AE,C7,00,00,8A,00,00,00,
2015970,00000140,false,Rx,0,8,AB,67,40,9C,00,00,04,FF,
2016200,00000141,false,Rx,0,8,C7,77,40,9C,00,00,F4,FF,
2016659,00000163,false,Rx,0,8,FF,FF,15,25,FF,FF,FF,FF,
2016888,00000173,false,Rx,0,8,52,F4,00,0E,30,00,DE,10,
2017095,00000199,false,Rx,0,6,FF,FF,AE,7E,FF,3F,00,00,
2017293,0000019A,false,Rx,0,6,FF,FF,58,7F,FF,3F,00,00,
2017500,0000019F,false,Rx,0,6,FF,FF,EB,7F,FF,2F,00,00,
2017749,00000254,false,Rx,0,8,FF,7F,FF,7F,FF,7F,FF,7F,
2017874,00000258,false,Rx,0,2,11,11,00,00,00,00,00,00,
2018122,000007BD,false,Rx,0,8,00,00,00,40,FF,C0,01,08,
2018332,000001E1,false,Rx,0,6,CE,FC,05,FF,FF,FF,00,00,
2018571,000007BE,false,Rx,0,8,05,00,00,00,00,00,00,E0,
2021628,00000100,false,Rx,0,8,6A,FE,7F,C0,5D,05,87,70,
2021867,000000A5,false,Rx,0,8,DC,FB,FF,F7,7F,00,00,C1,
2022043,000002A7,false,Rx,0,5,8F,F0,FE,FF,14,00,00,00,
2022180,000000AC,false,Rx,0,2,00,F0,00,00,00,00,00,00,
2022417,000000D9,false,Rx,0,8,90,FB,00,10,00,F0,7F,C0,
2022659,000000F3,false,Rx,0,8,BE,0B,00,FF,F0,C0,FF,FF,
2022909,000002C4,false,Rx,0,8,00,00,FF,00,C8,64,FF,CF,
2023106,00000304,false,Rx,0,6,FF,FF,D6,38,FF,FF,00,00,
2023334,00000112,false,Rx,0,8,E1,24,03,0E,A0,71,A5,5A,
2024883,000000C3,false,Rx,0,8,1A,73,00,40,00,7D,FF,FF,
2025121,0000015F,false,Rx,0,8,A5,F3,00,7D,00,EE,00,7D,
2026905,0000013A,false,Rx,0,8,EB,F8,00,00,00,0E,FF,FF,
2027267,00000272,false,Rx,0,8,5B,F5,05,12,FF,FF,FF,FF,
2029585,00000314,false,Rx,0,3,50,00,FF,00,00,00,00,00,
2031633,00000100,false,Rx,0,8,6B,F0,7F,C0,5D,05,87,70,
2033289,00000112,false,Rx,0,8,E0,24,03,0E,A0,71,A5,5A,
2033755,00000431,false,Rx,0,8,C6,FD,44,00,0E,9F,F7,00,
2034867,00000206,false,Rx,0,8,7D,29,C1,FF,FF,FF,FF,FF,
2035105,000000EF,false,Rx,0,8,9F,F3,00,7D,21,00,7D,FF,
2035345,000000C3,false,Rx,0,8,94,74,00,40,00,7D,FF,FF,
2035522,000001A1,false,Rx,0,5,5B,C9,00,00,8A,00,00,00,
2035770,00000201,false,Rx,0,8,83,8B,FC,2D,FF,FF,FF,FF,
2036009,00000140,false,Rx,0,8,AA,69,40,9C,00,00,04,FF,
2036249,00000141,false,Rx,0,8,C6,79,40,9C,00,00,F4,FF,
2036446,00000199,false,Rx,0,6,FF,FF,7C,7E,FF,3F,00,00,
2036653,0000019A,false,Rx,0,6,FF,FF,58,7F,FF,3F,00,00,
2036861,0000019F,false,Rx,0,6,FF,FF,EF,7F,FF,2F,00,00,
2037109,00000254,false,Rx,0,8,FF,7F,FF,7F,FF,7F,FF,7F,
2037235,00000258,false,Rx,0,2,11,11,00,00,00,00,00,00,
2037679,00000197,false,Rx,0,4,8C,06,0E,C0,00,00,00,00,
2039435,000000C0,false,Rx,0,2,FE,40,00,00,00,00,00,00,
2039693,0000003C,false,Rx,0,8,FF,5F,00,00,00,00,FF,FF,
2039819,000002A6,false,Rx,0,2,00,8A,00,00,00,00,00,00,
2041509,000000A5,false,Rx,0,8,52,FC,FF,F7,7F,00,00,C1,
2041747,00000100,false,Rx,0,8,36,F1,7F,C0,5D,05,87,70,
2041882,000000AC,false,Rx,0,2,00,F0,00,00,00,00,00,00,
2042120,000000D9,false,Rx,0,8,1E,FC,00,10,00,F0,7F,C0,
2042370,000000F3,false,Rx,0,8,30,0C,00,FF,F0,C0,FF,FF,
2043303,00000112,false,Rx,0,8,DE,24,03,0E,A0,71,A5,5A,
2043531,00000432,false,Rx,0,8,3C,DA,15,BD,4D,7C,1B,BC,
2044860,000000C3,false,Rx,0,8,C9,75,00,40,00,7D,FF,FF,
2045109,0000015F,false,Rx,0,8,2B,F4,00,7D,00,EE,00,7D,
2046923,0000013A,false,Rx,0,8,51,FA,00,00,00,0E,FF,FF,
2048554,00000302,false,Rx,0,7,FF,FF,59,81,FE,FF,FF,00,
2051640,00000100,false,Rx,0,8,D1,F2,7F,C0,5D,05,87,70,
2051874,000005E0,false,Rx,0,8,11,03,00,05,0D,00,D5,60,
2053278,00000112,false,Rx,0,8,DE,24,03,0E,A0,71,A5,5A,
2054535,00000301,false,Rx,0,7,FF,FF,2C,81,FF,FF,CF,00,
2054866,000000C3,false,Rx,0,8,2E,76,00,40,00,7D,FF,FF,
2055104,000000EF,false,Rx,0,8,11,F4,00,7D,21,00,7D,FF,
2055488,000001A1,false,Rx,0,5,7C,CB,00,00,8A,00,00,00,
2055976,00000140,false,Rx,0,8,10,6B,40,9C,00,00,04,FF,
2056215,00000141,false,Rx,0,8,7C,7B,40,9C,00,00,F4,FF,
2056422,00000199,false,Rx,0,6,FF,FF,90,7E,FF,3F,00,00,
2056629,0000019A,false,Rx,0,6,FF,FF,62,7F,FF,3F,00,00,
2056838,0000019F,false,Rx,0,6,FF,FF,0E,80,FF,2F,00,00,
2057086,00000254,false,Rx,0,8,FF,7F,FF,7F,FF,7F,FF,7F,
2057212,00000258,false,Rx,0,2,11,11,00,00,00,00,00,00,
2061517,000000A5,false,Rx,0,8,0F,FD,FF,F7,7F,00,00,C1,
2061751,00000100,false,Rx,0,8,8C,F3,7F,C0,5D,05,87,70,
2061886,000000AC,false,Rx,0,2,00,F0,00,00,00,00,00,00,
2062135,000000D9,false,Rx,0,8,43,FD,00,10,00,F0,7F,C0,
2062364,000000F3,false,Rx,0,8,6D,0D,00,FF,F0,C0,FF,FF,
2062551,0000036E,false,Rx,0,5,55,F8,FE,FF,14,00,00,00,
2063500,00000112,false,Rx,0,8,DB,24,03,0E,A0,71,A5,5A,
2064878,000000C3,false,Rx,0,8,73,77,00,40,00,7D,FF,FF,
2065116,0000015F,false,Rx,0,8,76,F5,00,7D,00,EE,00,7D,
2066737,000007BE,false,Rx,0,8,0C,41,04,69,00,00,00,00,
2066985,0000013A,false,Rx,0,8,82,FC,00,00,00,0E,FF,FF,
2067686,00000197,false,Rx,0,4,03,07,0E,C0,00,00,00,00,
2070620,000003A5,false,Rx,0,5,E1,D5,FF,FF,FF,00,00,00,
2071636,00000100,false,Rx,0,8,02,F4,7F,C0,5D,05,87,70,
2072947,00000239,false,Rx,0,8,30,E0,35,15,05,FF,FF,FF,
2073268,00000112,false,Rx,0,8,DB,24,03,0E,A0,71,A5,5A,
2074805,000003FD,false,Rx,0,5,29,01,00,00,FF,00,00,00,
2075042,000000EF,false,Rx,0,8,4C,F5,00,7D,21,00,7D,FF,
2075293,00000108,false,Rx,0,8,00,7D,FF,FF,47,F1,FF,FF,
2075531,000000C3,false,Rx,0,8,2F,78,00,40,00,7D,FF,FF,
2075710,000001A1,false,Rx,0,5,15,CD,00,00,8A,00,00,00,
2075949,000001B5,false,Rx,0,8,3D,4B,22,70,FF,FF,FF,FF,
2076188,00000140,false,Rx,0,8,C3,6D,40,9C,00,00,04,FF,
2076426,00000141,false,Rx,0,8,AF,7D,40,9C,00,00,F4,FF,
2076634,00000199,false,Rx,0,6,FF,FF,86,7E,FF,3F,00,00,
2076832,0000019A,false,Rx,0,6,FF,FF,58,7F,FF,3F,00,00,
2077049,0000019F,false,Rx,0,6,FF,FF,FE,7F,FF,2F,00,00,
2077288,00000206,false,Rx,0,8,9A,2A,C1,FF,FF,FF,FF,FF,
2077537,00000254,false,Rx,0,8,FF,7F,FF,7F,FF,7F,FF,7F,
2077777,00000212,false,Rx,0,8,43,F4,F9,FF,FF,FF,FF,FF,
2077913,00000258,false,Rx,0,2,11,11,00,00,00,00,00,00,
2078150,0000029E,false,Rx,0,8,47,D0,11,C6,07,FF,FF,FF,
2078401,000002DB,false,Rx,0,8,FF,FF,FF,FF,BF,FF,FF,FF,
2078639,000005C0,false,Rx,0,8,08,04,00,FE,FF,FF,FF,FF,
2078877,000002F1,false,Rx,0,8,37,10,7D,98,01,7A,00,A0,
2079127,0000032B,false,Rx,0,8,FF,FF,FF,FF,FF,FF,00,FF,
2079376,00000331,false,Rx,0,8,FF,FF,FF,EF,7F,FE,F7,FF,
2079614,000003E9,false,Rx,0,8,5C,8F,21,A1,7C,7D,20,4B,
2081638,00000100,false,Rx,0,8,5F,F5,7F,C0,5D,05,87,70,
2081883,000000A5,false,Rx,0,8,E8,FE,FF,F7,7F,00,00,C1,
2082008,000000AC,false,Rx,0,2,00,F0,00,00,00,00,00,00,
2082257,000000D9,false,Rx,0,8,A4,FE,00,10,00,F0,7F,C0,
2082495,000000F3,false,Rx,0,8,8A,0E,00,FF,F0,C0,FF,FF,
2082713,000002C5,false,Rx,0,7,28,F8,00,60,06,70,C8,00,
2082891,0000036F,false,Rx,0,5,07,F9,FE,FF,14,00,00,00,
2083284,00000112,false,Rx,0,8,D5,24,03,0E,A0,71,A5,5A,
2084859,000000C3,false,Rx,0,8,72,79,00,40,00,7D,FF,FF,
2085108,0000015F,false,Rx,0,8,91,F6,00,7D,00,EE,00,7D,
2085348,00000201,false,Rx,0,8,8F,8B,08,2E,FF,FF,FF,FF,
2086967,0000013A,false,Rx,0,8,38,FE,00,00,00,0E,FF,FF,
2087340,000002B2,false,Rx,0,8,06,0E,E2,04,FF,0F,FF,FF,
2088329,0000012F,false,Rx,0,8,6C,29,86,1B,F1,35,30,00,
2088557,00000302,false,Rx,0,7,FF,FF,59,81,FE,FF,FF,00,
2089682,00000349,false,Rx,0,5,FE,FF,FE,FF,00,00,00,00,
2091632,00000100,false,Rx,0,8,B8,F6,7F,C0,5D,05,87,70,
2091917,000002BB,false,Rx,0,5,4C,F0,D1,7F,F2,00,00,00,
2092156,00000289,false,Rx,0,8,3C,FA,E0,FF,FD,00,EC,01,
2093353,00000112,false,Rx,0,8,D7,24,03,0E,A0,71,A5,5A,
2093603,0000038E,false,Rx,0,8,00,00,19,19,99,07,08,F6,
2094100,000002E8,false,Rx,0,8,C0,E8,C3,FF,FF,F4,F9,FC,
2094330,000002F5,false,Rx,0,8,BF,0F,E2,24,28,0A,06,10,
2094764,0000038E,false,Rx,0,8,00,00,19,19,99,07,09,F6,
2095002,000000C3,false,Rx,0,8,95,7A,00,40,00,7D,FF,FF,
2095232,000000EF,false,Rx,0,8,AB,F6,00,7D,21,00,7D,FF,
2095491,000001A1,false,Rx,0,5,5A,C0,00,00,8A,00,00,00,
2095983,00000140,false,Rx,0,8,25,60,40,9C,00,00,04,FF,
2096222,00000141,false,Rx,0,8,49,70,40,9C,00,00,F4,FF,
2096604,00000199,false,Rx,0,6,FF,FF,7C,7E,FF,3F,00,00,
2096812,0000019A,false,Rx,0,6,FF,FF,62,7F,FF,3F,00,00,
2097019,0000019F,false,Rx,0,6,FF,FF,FF,7F,FF,2F,00,00,
2097268,00000254,false,Rx,0,8,FF,7F,FF,7F,FF,7F,FF,7F,
2097395,00000258,false,Rx,0,2,11,11,00,00,00,00,00,00,
2097632,000002EF,false,Rx,0,8,F4,01,14,C0,12,00,C0,FC,
2097788,00000197,false,Rx,0,4,85,08,0E,C0,00,00,00,00,
2099748,000001AE,false,Rx,0,2,F7,FF,00,00,00,00,00,00,
2101506,000000A5,false,Rx,0,8,E9,F0,FF,F7,7F,00,00,C1,
2101744,00000100,false,Rx,0,8,E5,F7,7F,C0,5D,05,87,70,
2101880,000000AC,false,Rx,0,2,00,F0,00,00,00,00,00,00,
2102117,000000D9,false,Rx,0,8,A5,F0,00,10,00,F0,7F,C0,
2102357,000000F3,false,Rx,0,8,8B,00,00,FF,F0,C0,FF,FF,
2102533,000002A7,false,Rx,0,5,12,F1,FE,FF,14,00,00,00,
2103287,00000112,false,Rx,0,8,D4,24,03,0E,A0,71,A5,5A,
2104887,000000C3,false,Rx,0,8,C8,7B,00,40,00,7D,FF,FF,
2105117,0000015F,false,Rx,0,8,CC,F7,00,7D,00,EE,00,7D,
2105902,00000348,false,Rx,0,8,B1,08,62,FE,FE,E6,11,1B,
2106934,0000013A,false,Rx,0,8,64,F1,00,00,00,0E,FF,FF,
2111620,00000100,false,Rx,0,8,B9,F8,7F,C0,5D,05,87,70,
2113277,00000112,false,Rx,0,8,D6,24,03,0E,A0,71,A5,5A,
2114881,00000206,false,Rx,0,8,C7,2B,C1,FF,FF,FF,FF,FF,
2115121,000000EF,false,Rx,0,8,F6,F7,00,7D,21,00,7D,FF,
2115360,000000C3,false,Rx,0,8,46,7C,00,40,00,7D,FF,FF,
2115547,000001A1,false,Rx,0,5,7D,C2,00,00,8A,00,00,00,
2115983,00000140,false,Rx,0,8,9F,62,40,9C,00,00,04,FF,
2116223,00000141,false,Rx,0,8,F3,72,40,9C,00,00,F4,FF,
2116462,00000163,false,Rx,0,8,FF,FF,15,25,FF,FF,FF,FF,
2116701,00000173,false,Rx,0,8,3A,FE,00,0E,30,00,DE,10,
2116909,00000199,false,Rx,0,6,FF,FF,90,7E,FF,3F,00,00,
2117115,0000019A,false,Rx,0,6,FF,FF,58,7F,FF,3F,00,00,
2117324,0000019F,false,Rx,0,6,FF,FF,05,80,FF,2F,00,00,
2117563,00000254,false,Rx,0,8,FF,7F,FF,7F,FF,7F,FF,7F,
2117711,00000258,false,Rx,0,2,11,11,00,00,00,00,00,00,
2117938,000007BD,false,Rx,0,8,00,00,00,40,FF,C0,01,08,
2118209,000007BE,false,Rx,0,8,00,C0,FA,1C,02,00,00,00,
2121446,000002C4,false,Rx,0,8,00,00,FF,00,C8,64,FF,CF,
2121684,000000A5,false,Rx,0,8,B4,F1,FF,F7,7F,00,00,C1,
2121807,000000AC,false,Rx,0,2,00,F0,00,00,00,00,00,00,
2122056,000000D9,false,Rx,0,8,F8,F1,00,10,00,F0,7F,C0,
2122295,000000F3,false,Rx,0,8,D6,01,00,FF,F0,C0,FF,FF,
2122523,00000100,false,Rx,0,8,E4,F9,7F,C0,5D,05,87,70,
2123288,00000112,false,Rx,0,8,D5,24,03,0E,A0,71,A5,5A,
2124859,00000201,false,Rx,0,8,99,8B,11,2E,FF,FF,FF,FF,
2125098,0000015F,false,Rx,0,8,90,F8,00,7D,00,EE,00,7D,
2125338,000000C3,false,Rx,0,8,1B,7D,00,40,00,7D,FF,FF,
2125566,000000F5,false,Rx,0,7,DC,DC,00,82,00,82,00,00,
2125795,0000043D,false,Rx,0,8,62,15,E7,FF,21,56,08,F0,
2125963,000000FF,false,Rx,0,4,E2,24,F0,00,00,00,00,00,
2126912,0000013A,false,Rx,0,8,DE,F3,00,00,00,0E,FF,FF,
2127687,00000197,false,Rx,0,4,0A,09,0E,C0,00,00,00,00,
2128524,00000302,false,Rx,0,7,FF,FF,59,81,FE,FF,FF,00,
2131633,00000100,false,Rx,0,8,03,FA,7F,C0,5D,05,87,70,
2133311,00000112,false,Rx,0,8,D7,24,03,0E,A0,71,A5,5A,
2134864,000000C3,false,Rx,0,8,FC,7E,00,40,00,7D,FF,FF,
2135103,000000EF,false,Rx,0,8,AA,F8,00,7D,21,00,7D,FF,
2135343,00000201,false,Rx,0,8,9B,8B,14,2E,FF,FF,FF,FF,
2135519,000001A1,false,Rx,0,5,14,C4,00,00,8A,00,00,00,
2135986,00000140,false,Rx,0,8,4C,64,40,9C,00,00,04,FF,
2136215,00000141,false,Rx,0,8,20,74,40,9C,00,00,F4,FF,
2136608,00000199,false,Rx,0,6,FF,FF,90,7E,FF,3F,00,00,
2136815,0000019A,false,Rx,0,6,FF,FF,58,7F,FF,3F,00,00,
2137022,0000019F,false,Rx,0,6,FF,FF,05,80,FF,2F,00,00,
2137262,00000254,false,Rx,0,8,FF,7F,FF,7F,FF,7F,FF,7F,
2137398,00000258,false,Rx,0,2,11,11,00,00,00,00,00,00,
2139589,0000003C,false,Rx,0,8,FF,5F,00,00,00,00,FF,FF,
2141515,000000A5,false,Rx,0,8,53,F2,FF,F7,7F,00,00,C1,
2141753,00000100,false,Rx,0,8,5E,FB,7F,C0,5D,05,87,70,
2141878,000000AC,false,Rx,0,2,00,F0,00,00,00,00,00,00,
2142126,000000D9,false,Rx,0,8,1F,F2,00,10,00,F0,7F,C0,
2142365,000000F3,false,Rx,0,8,31,02,00,FF,F0,C0,FF,FF,
2143284,00000112,false,Rx,0,8,D8,24,03,0E,A0,71,A5,5A,
2144862,000000C3,false,Rx,0,8,FD,70,00,40,00,7D,FF,FF,
2145102,0000015F,false,Rx,0,8,CD,F9,00,7D,00,EE,00,7D,
2145721,0000043C,false,Rx,0,8,FE,FE,FF,FF,FF,FF,FF,FF,
2146909,0000013A,false,Rx,0,8,0D,F5,00,00,00,0E,FF,FF,
2150507,00000510,false,Rx,0,8,40,10,20,00,00,00,00,00,
2151627,00000100,false,Rx,0,8,D0,FC,7F,C0,5D,05,87,70,
2151855,000003CA,false,Rx,0,8,78,70,2A,11,11,70,FF,FF,
2152948,00000239,false,Rx,0,8,30,E1,35,15,05,FF,FF,FF,
2153393,00000112,false,Rx,0,8,D9,24,03,0E,A0,71,A5,5A,
2154886,00000206,false,Rx,0,8,49,2C,C1,FF,FF,FF,FF,FF,
2155126,000000EF,false,Rx,0,8,F7,F9,00,7D,21,00,7D,FF,
2155365,000000C3,false,Rx,0,8,A0,71,00,40,00,7D,FF,FF,
2155541,000001A1,false,Rx,0,5,33,C6,00,00,8A,00,00,00,
2155986,00000140,false,Rx,0,8,F6,66,40,9C,00,00,04,FF,
2156225,00000141,false,Rx,0,8,9A,76,40,9C,00,00,F4,FF,
2156422,00000199,false,Rx,0,6,FF,FF,9A,7E,FF,3F,00,00,
2156628,0000019A,false,Rx,0,6,FF,FF,58,7F,FF,3F,00,00,
2156835,0000019F,false,Rx,0,6,FF,FF,08,80,FF,2F,00,00,
2157083,00000254,false,Rx,0,8,FF,7F,FF,7F,FF,7F,FF,7F,
2157210,00000258,false,Rx,0,2,11,11,00,00,00,00,00,00,
2157684,00000197,false,Rx,0,4,86,0A,0E,C0,00,00,00,00,
2161516,000000A5,false,Rx,0,8,0E,F3,FF,F7,7F,00,00,C1,
2161751,00000100,false,Rx,0,8,8D,FD,7F,C0,5D,05,87,70,
2161886,000000AC,false,Rx,0,2,00,F0,00,00,00,00,00,00,
2162124,000000D9,false,Rx,0,8,42,F3,00,10,00,F0,7F,C0,
2162364,000000F3,false,Rx,0,8,6C,03,00,FF,F0,C0,FF,FF,
2163499,00000112,false,Rx,0,8,DC,24,03,0E,A0,71,A5,5A,
2164864,000000C3,false,Rx,0,8,47,72,00,40,00,7D,FF,FF,
2165103,0000015F,false,Rx,0,8,2A,FA,00,7D,00,EE,00,7D,
2166742,000007BE,false,Rx,0,8,0B,00,00,00,00,00,00,00,
2166980,0000013A,false,Rx,0,8,B7,F7,00,00,00,0E,FF,FF,
2168526,0000034A,false,Rx,0,8,97,EB,96,FB,F5,FB,82,25,
2168754,00000302,false,Rx,0,7,FF,FF,59,81,FE,FF,FF,00,
2171629,00000100,false,Rx,0,8,6A,FE,7F,C0,5D,05,87,70,
2173286,00000112,false,Rx,0,8,DC,24,03,0E,A0,71,A5,5A,
2174808,000003FD,false,Rx,0,5,93,02,00,00,FF,00,00,00,
2175046,000000EF,false,Rx,0,8,10,FA,00,7D,21,00,7D,FF,
2175296,00000108,false,Rx,0,8,00,7D,FF,FF,47,F1,FF,FF,
2175534,000000C3,false,Rx,0,8,1A,73,00,40,00,7D,FF,FF,
2175713,000001A1,false,Rx,0,5,C6,C8,00,00,8A,00,00,00,
2175962,00000212,false,Rx,0,8,1E,F5,F9,FF,FF,FF,FF,FF,
2176191,00000140,false,Rx,0,8,F7,68,40,9C,00,00,04,FF,
2176429,00000141,false,Rx,0,8,9B,78,40,9C,00,00,F4,FF,
2176638,00000199,false,Rx,0,6,FF,FF,9A,7E,FF,3F,00,00,
2176835,0000019A,false,Rx,0,6,FF,FF,58,7F,FF,3F,00,00,
2177042,0000019F,false,Rx,0,6,FF,FF,10,80,FF,2F,00,00,
2177293,00000254,false,Rx,0,8,FF,7F,FF,7F,FF,7F,FF,7F,
2177418,00000258,false,Rx,0,2,11,11,00,00,00,00,00,00,
2177665,0000029E,false,Rx,0,8,47,D0,11,C6,07,FF,FF,FF,
2177906,000002DB,false,Rx,0,8,FF,FF,FF,FF,BF,FF,FF,FF,
2178146,000002F1,false,Rx,0,8,37,10,7D,98,01,7A,00,A0,
2181515,000000A5,false,Rx,0,8,80,F4,FF,F7,7F,00,00,C1,
2181760,00000100,false,Rx,0,8,6B,F0,7F,C0,5D,05,87,70,
2181886,000000AC,false,Rx,0,2,00,F0,00,00,00,00,00,00,
2182133,000000D9,false,Rx,0,8,CC,F4,00,10,00,F0,7F,C0,
2182374,000000F3,false,Rx,0,8,E2,04,00,FF,F0,C0,FF,FF,
2182612,0000019D,false,Rx,0,8,C8,32,8E,01,FF,FF,FF,FF,
2182790,000002A7,false,Rx,0,5,A8,F2,FE,FF,14,00,00,00,
2182996,000002C5,false,Rx,0,7,6E,F9,00,60,06,70,C8,00,
2183287,00000112,false,Rx,0,8,DE,24,03,0E,A0,71,A5,5A,
2184864,000000C3,false,Rx,0,8,94,74,00,40,00,7D,FF,FF,
2185104,0000015F,false,Rx,0,8,77,FB,00,7D,00,EE,00,7D,
2185343,00000201,false,Rx,0,8,A7,8B,1F,2E,FF,FF,FF,FF,
2186962,0000013A,false,Rx,0,8,B6,F9,00,00,00,0E,FF,FF,
2187449,000002B2,false,Rx,0,8,06,0E,E2,04,FF,0F,FF,FF,
2187728,000003B4,false,Rx,0,8,00,00,0D,F4,BD,FF,09,B0,
2187885,00000197,false,Rx,0,4,09,0B,0E,C0,00,00,00,00,
2188330,0000012F,false,Rx,0,8,8B,2A,86,1B,F1,35,30,00,
2188640,0000034C,false,Rx,0,8,35,00,00,00,1B,13,F0,FF,
2189652,00000314,false,Rx,0,3,50,00,FF,00,00,00,00,00,
2191222,00000100,false,Rx,0,8,36,F1,7F,C0,5D,05,87,70,
2191909,000002BB,false,Rx,0,5,F7,FA,D1,7F,F2,00,00,00,
2192136,00000289,false,Rx,0,8,61,FB,E0,FF,FD,00,EC,01,
2193344,00000112,false,Rx,0,8,DE,24,03,0E,A0,71,A5,5A,
2193594,00000239,false,Rx,0,8,30,E1,35,15,05,FF,FF,FF,
2194319,000002E8,false,Rx,0,8,C0,E8,C3,FF,FF,F4,FA,DB,
2194557,000002F5,false,Rx,0,8,BF,0F,E2,24,28,0A,06,10,
2194888,00000206,false,Rx,0,8,14,2D,C1,FF,FF,FF,FF,FF,
2195127,000000EF,false,Rx,0,8,4D,FB,00,7D,21,00,7D,FF,
2195367,000000C3,false,Rx,0,8,C9,75,00,40,00,7D,FF,FF,
2195543,000001A1,false,Rx,0,5,E1,CA,00,00,8A,00,00,00,
2196004,00000140,false,Rx,0,8,4D,6A,40,9C,00,00,04,FF,
2196233,00000141,false,Rx,0,8,21,7A,40,9C,00,00,F4,FF,
2196441,00000199,false,Rx,0,6,FF,FF,AE,7E,FF,3F,00,00,
2196649,0000019A,false,Rx,0,6,FF,FF,58,7F,FF,3F,00,00,
2196856,0000019F,false,Rx,0,6,FF,FF,1F,80,FF,2F,00,00,
2197094,00000254,false,Rx,0,8,FF,7F,FF,7F,FF,7F,FF,7F,
2197230,00000258,false,Rx,0,2,11,11,00,00,00,00,00,00,
2197458,000002EF,false,Rx,0,8,F4,01,14,C0,12,00,C0,FC,
2199644,000001AE,false,Rx,0,2,F7,FF,00,00,00,00,00,00,
2201484,000000A5,false,Rx,0,8,DD,F5,FF,F7,7F,00,00,C1,
2201722,00000100,false,Rx,0,8,D1,F2,7F,C0,5D,05,87,70,
2201859,000000AC,false,Rx,0,2,00,F0,00,00,00,00,00,00,
2202095,000000D9,false,Rx,0,8,91,F5,00,10,00,F0,7F,C0,
2202335,000000F3,false,Rx,0,8,BF,05,00,FF,F0,C0,FF,FF,
2202913,0000031C,false,Rx,0,8,FF,FF,FF,FF,FF,FF,FF,FF,
2203110,0000033B,false,Rx,0,6,08,FC,DC,FF,FF,FF,00,00,
2203339,00000112,false,Rx,0,8,DF,24,03,0E,A0,71,A5,5A,
2204890,000000C3,false,Rx,0,8,2E,76,00,40,00,7D,FF,FF,
2205129,0000015F,false,Rx,0,8,F9,FC,00,7D,00,EE,00,7D,
2206901,0000013A,false,Rx,0,8,0C,FB,00,00,00,0E,FF,FF,
2209529,00000302,false,Rx,0,7,FF,FF,59,81,FE,FF,FF,00,
2211206,00000100,false,Rx,0,8,8C,F3,7F,C0,5D,05,87,70,
2212883,00000297,false,Rx,0,7,8A,E4,F0,E0,F2,92,EA,00,
2213287,00000112,false,Rx,0,8,DE,24,03,0E,A0,71,A5,5A,
2214862,000000C3,false,Rx,0,8,73,77,00,40,00,7D,FF,FF,
2215101,000000EF,false,Rx,0,8,C3,FC,00,7D,21,00,7D,FF,
2215474,000001A1,false,Rx,0,5,88,CC,00,00,8A,00,00,00,
2215960,00000140,false,Rx,0,8,9E,6C,40,9C,00,00,04,FF,
2216201,00000141,false,Rx,0,8,F2,7C,40,9C,00,00,F4,FF,
2216646,00000163,false,Rx,0,8,FF,FF,15,25,FF,FF,FF,FF,
2216884,00000173,false,Rx,0,8,B4,F9,00,0E,30,00,DE,10,
2217092,00000199,false,Rx,0,6,FF,FF,90,7E,FF,3F,00,00,
2217301,0000019A,false,Rx,0,6,FF,FF,58,7F,FF,3F,00,00,
2217508,0000019F,false,Rx,0,6,FF,FF,F6,7F,FF,2F,00,00,
2217756,00000254,false,Rx,0,8,FF,7F,FF,7F,FF,7F,FF,7F,
2217912,00000197,false,Rx,0,4,83,0C,0E,C0,00,00,00,00,
2218068,00000258,false,Rx,0,2,11,11,00,00,00,00,00,00,
2218286,000007BD,false,Rx,0,8,00,00,00,40,FF,C0,01,08,
2218493,000001E1,false,Rx,0,6,A4,FD,05,FF,FF,FF,00,00,
2218742,000007BE,false,Rx,0,8,05,00,00,00,00,00,00,E0,
2221631,00000100,false,Rx,0,8,02,F4,7F,C0,5D,05,87,70,
2221870,000000A5,false,Rx,0,8,3A,F6,FF,F7,7F,00,00,C1,
2222107,000002C4,false,Rx,0,8,00,00,FF,00,C8,64,FF,CF,
2222243,000000AC,false,Rx,0,2,00,F0,00,00,00,00,00,00,
2222480,000000D9,false,Rx,0,8,76,F6,00,10,00,F0,7F,C0,
2222719,000000F3,false,Rx,0,8,58,06,00,FF,F0,C0,FF,FF,
2222927,00000304,false,Rx,0,6,FF,FF,D7,38,FF,FF,00,00,
2223103,0000036E,false,Rx,0,5,C8,F9,FE,FF,14,00,00,00,
2223333,00000112,false,Rx,0,8,DE,24,03,0E,A0,71,A5,5A,
2224866,000000C3,false,Rx,0,8,2F,78,00,40,00,7D,FF,FF,
2225106,0000015F,false,Rx,0,8,A4,FD,00,7D,00,EE,00,7D,
2226929,0000013A,false,Rx,0,8,DF,FD,00,00,00,0E,FF,FF,
2227488,00000272,false,Rx,0,8,BC,F6,05,12,FF,FF,FF,FF,
2231629,00000100,false,Rx,0,8,5F,F5,7F,C0,5D,05,87,70,
2233338,00000112,false,Rx,0,8,DE,24,03,0E,A0,71,A5,5A,
2233576,00000431,false,Rx,0,8,C6,FD,44,00,0E,9F,F7,00,
2234875,00000206,false,Rx,0,8,F3,2E,C1,FF,FF,FF,FF,FF,
2235113,000000EF,false,Rx,0,8,9E,FD,00,7D,21,00,7D,FF,
2235353,000000C3,false,Rx,0,8,72,79,00,40,00,7D,FF,FF,
2235540,000001A1,false,Rx,0,5,AF,CE,00,00,8A,00,00,00,
2235770,00000201,false,Rx,0,8,B2,8B,2B,2E,FF,FF,FF,FF,
2236009,00000140,false,Rx,0,8,24,6E,40,9C,00,00,04,FF,
2236248,00000141,false,Rx,0,8,48,7E,40,9C,00,00,F4,FF,
2236457,00000199,false,Rx,0,6,FF,FF,90,7E,FF,3F,00,00,
2236664,0000019A,false,Rx,0,6,FF,FF,58,7F,FF,3F,00,00,
2236871,0000019F,false,Rx,0,6,FF,FF,20,80,FF,2F,00,00,
2237119,00000254,false,Rx,0,8,FF,7F,FF,7F,FF,7F,FF,7F,
2237246,00000258,false,Rx,0,2,11,11,00,00,00,00,00,00,
2239503,000000C0,false,Rx,0,2,F0,40,00,00,00,00,00,00,
2239745,0000003C,false,Rx,0,8,FF,5F,00,00,00,00,FF,FF,
2241509,000000A5,false,Rx,0,8,67,F7,FF,F7,7F,00,00,C1,
2241755,00000100,false,Rx,0,8,B8,F6,7F,C0,5D,05,87,70,
2241872,000000AC,false,Rx,0,2,00,F0,00,00,00,00,00,00,
2242119,000000D9,false,Rx,0,8,2B,F7,00,10,00,F0,7F,C0,
2242358,000000F3,false,Rx,0,8,05,07,00,FF,F0,C0,FF,FF,
2242854,0000036F,false,Rx,0,5,BD,FA,FE,FF,14,00,00,00,
2243309,00000112,false,Rx,0,8,DB,24,03,0E,A0,71,A5,5A,
2243559,00000432,false,Rx,0,8,3C,DA,15,BD,4D,7C,1B,BC,
2244887,000000C3,false,Rx,0,8,95,7A,00,40,00,7D,FF,FF,
2245125,0000015F,false,Rx,0,8,43,FE,00,7D,00,EE,00,7D,
2246908,0000013A,false,Rx,0,8,39,F0,00,00,00,0E,FF,FF,
2247683,00000197,false,Rx,0,4,0C,0D,0E,C0,00,00,00,00,
2249527,00000302,false,Rx,0,7,FF,FF,59,81,FE,FF,FF,00,
2251625,00000100,false,Rx,0,8,E5,F7,7F,C0,5D,05,87,70,
2251871,000005E0,false,Rx,0,8,11,03,00,06,08,00,D4,00,
2252944,00000239,false,Rx,0,8,70,E2,35,15,05,FF,FF,FF,
2253410,00000112,false,Rx,0,8,DC,24,03,0E,A0,71,A5,5A,
2254535,00000301,false,Rx,0,7,FF,FF,2C,81,FF,FF,CF,00,
2254866,000000C3,false,Rx,0,8,C8,7B,00,40,00,7D,FF,FF,
2255105,000000EF,false,Rx,0,8,79,FE,00,7D,21,00,7D,FF,
2255488,000001A1,false,Rx,0,5,C7,C1,00,00,8A,00,00,00,
2255965,00000140,false,Rx,0,8,78,61,40,9C,00,00,04,FF,
2256204,00000141,false,Rx,0,8,14,71,40,9C,00,00,F4,FF,
2256403,00000199,false,Rx,0,6,FF,FF,86,7E,FF,3F,00,00,
2256610,0000019A,false,Rx,0,6,FF,FF,58,7F,FF,3F,00,00,
2256827,0000019F,false,Rx,0,6,FF,FF,F8,7F,FF,2F,00,00,
2257065,00000254,false,Rx,0,8,FF,7F,FF,7F,FF,7F,FF,7F,
2257192,00000258,false,Rx,0,2,11,11,00,00,00,00,00,00,
2261516,000000A5,false,Rx,0,8,3B,F8,FF,F7,7F,00,00,C1,
2261751,00000100,false,Rx,0,8,B9,F8,7F,C0,5D,05,87,70,
2261886,000000AC,false,Rx,0,2,00,F0,00,00,00,00,00,00,
2262124,000000D9,false,Rx,0,8,77,F8,00,10,00,F0,7F,C0,
2262363,000000F3,false,Rx,0,8,59,08,00,FF,F0,C0,FF,FF,
2262541,000002A7,false,Rx,0,5,35,F3,FE,FF,14,00,00,00,
2263500,00000112,false,Rx,0,8,D9,24,03,0E,A0,71,B5,5A,
2264868,000000C3,false,Rx,0,8,46,7C,00,40,00,7D,FF,FF,
2265106,0000015F,false,Rx,0,8,42,F0,00,7D,00,EE,00,7D,
2266909,0000013A,false,Rx,0,8,83,F2,00,00,00,0E,FF,FF,
2272333,00000100,false,Rx,0,8,E4,F9,7F,C0,5D,05,87,70,
2273280,00000112,false,Rx,0,8,DA,24,03,0E,A0,71,B5,5A,
2274813,000003FD,false,Rx,0,5,0E,03,00,00,FF,00,00,00,
2275050,000000EF,false,Rx,0,8,78,F0,00,7D,21,00,7D,FF,
2275289,00000108,false,Rx,0,8,00,7D,FF,FF,47,F1,FF,FF,
2275538,000000C3,false,Rx,0,8,1B,7D,00,40,00,7D,FF,FF,
2275726,000001A1,false,Rx,0,5,E0,C3,00,00,8A,00,00,00,
2275953,000001B5,false,Rx,0,8,B3,4C,22,70,FF,FF,FF,FF,
2276193,00000140,false,Rx,0,8,C2,63,40,9C,00,00,04,FF,
2276430,00000141,false,Rx,0,8,AE,73,40,9C,00,00,F4,FF,
2276627,00000199,false,Rx,0,6,FF,FF,86,7E,FF,3F,00,00,
2276834,0000019A,false,Rx,0,6,FF,FF,58,7F,FF,3F,00,00,
2277041,0000019F,false,Rx,0,6,FF,FF,FC,7F,FF,2F,00,00,
2277292,00000206,false,Rx,0,8,F2,20,C1,FF,FF,FF,FF,FF,
2277540,00000254,false,Rx,0,8,FF,7F,FF,7F,FF,7F,FF,7F,
2277779,00000212,false,Rx,0,8,F9,F6,F9,FF,FF,FF,FF,FF,
2277946,00000197,false,Rx,0,4,80,0E,0E,C0,00,00,00,00,
2278081,00000258,false,Rx,0,2,11,11,00,00,00,00,00,00,
2278319,0000029E,false,Rx,0,8,47,D0,11,C6,07,FF,FF,FF,
2278560,000002DB,false,Rx,0,8,FF,FF,FF,FF,BF,FF,FF,FF,
2278810,000002F1,false,Rx,0,8,37,10,7D,98,01,7A,00,A0,
2279058,0000032B,false,Rx,0,8,FF,FF,FF,FF,FF,FF,00,FF,
2279297,00000331,false,Rx,0,8,FF,FF,FF,EF,7F,FE,F7,FF,
2279537,000003E9,false,Rx,0,8,5C,8F,21,A1,7C,7D,20,4B,
2281531,000000A5,false,Rx,0,8,66,F9,FF,F7,7F,00,00,C1,
2281771,00000100,false,Rx,0,8,03,FA,7F,C0,5D,05,87,70,
2281906,000000AC,false,Rx,0,2,00,F0,00,00,00,00,00,00,
2282153,000000D9,false,Rx,0,8,2A,F9,00,10,00,F0,7F,C0,
2282393,000000F3,false,Rx,0,8,04,09,00,FF,F0,C0,FF,FF,
2282605,000002C5,false,Rx,0,7,A4,FA,00,60,06,70,C8,00,
2282750,000002CA,false,Rx,0,2,7C,81,00,00,00,00,00,00,
2282956,000002F7,false,Rx,0,6,02,D8,49,0B,11,F1,00,00,
2283371,00000112,false,Rx,0,8,D7,24,03,0E,A0,71,B5,5A,
2284889,000000C3,false,Rx,0,8,FC,7E,00,40,00,7D,FF,FF,
2285127,0000015F,false,Rx,0,8,1F,F1,00,7D,00,EE,00,7D,
2285366,00000201,false,Rx,0,8,BE,8B,37,2E,FF,FF,FF,FF,
2286996,0000013A,false,Rx,0,8,50,F4,00,00,00,0E,FF,FF,
2287555,000002B2,false,Rx,0,8,06,0E,E2,04,FF,0F,FF,FF,
2288330,0000012F,false,Rx,0,8,D6,2B,86,1B,F1,35,30,00,
2289529,00000302,false,Rx,0,7,FF,FF,59,81,FE,FF,FF,00,
2289788,00000349,false,Rx,0,5,FE,FF,FE,FF,00,00,00,00,
2291630,00000100,false,Rx,0,8,5E,FB,7F,C0,5D,05,87,70,
2291921,000002BB,false,Rx,0,5,9F,F5,D1,7F,F2,00,00,00,
2292159,00000289,false,Rx,0,8,EF,FC,E0,FF,FD,00,EC,01,
2293349,00000112,false,Rx,0,8,D8,24,03,0E,A0,71,B5,5A,
2294092,000002E8,false,Rx,0,8,C0,E8,C3,FF,FF,F4,FB,C6,
2294321,000002F5,false,Rx,0,8,BF,0F,E2,24,28,0A,06,10,
2294868,000000C3,false,Rx,0,8,FD,70,00,40,00,7D,FF,FF,
2295107,000000EF,false,Rx,0,8,25,F1,00,7D,21,00,7D,FF,
2295490,000001A1,false,Rx,0,5,89,C5,00,00,8A,00,00,00,
2295985,00000140,false,Rx,0,8,11,65,40,9C,00,00,04,FF,
2296225,00000141,false,Rx,0,8,7D,75,40,9C,00,00,F4,FF,
2296602,00000199,false,Rx,0,6,FF,FF,90,7E,FF,3F,00,00,
2296809,0000019A,false,Rx,0,6,FF,FF,58,7F,FF,3F,00,00,
2297016,0000019F,false,Rx,0,6,FF,FF,0E,80,FF,2F,00,00,
2297266,00000254,false,Rx,0,8,FF,7F,FF,7F,FF,7F,FF,7F,
2297391,00000258,false,Rx,0,2,11,11,00,00,00,00,00,00,
2297618,000002EF,false,Rx,0,8,F4,01,14,C0,12,00,C0,FC,
2297899,000003C3,false,Rx,0,8,8A,14,08,82,20,08,82,20,
2299629,000001AE,false,Rx,0,2,F7,FF,00,00,00,00,00,00,
2301541,000000A5,false,Rx,0,8,81,FA,FF,F7,7F,00,00,C1,
2301842,000000D9,false,Rx,0,8,CD,FA,00,10,00,F0,7F,C0,
2301977,000000AC,false,Rx,0,2,00,F0,00,00,00,00,00,00,
2302216,000000F3,false,Rx,0,8,E3,0A,00,FF,F0,C0,FF,FF,
2302443,00000100,false,Rx,0,8,D0,FC,7F,C0,5D,05,87,70,
2303285,00000112,false,Rx,0,8,D7,24,03,0E,A0,71,B5,5A,
2304869,000000C3,false,Rx,0,8,A0,71,00,40,00,7D,FF,FF,
2305107,0000015F,false,Rx,0,8,F8,F2,00,7D,00,EE,00,7D,
2306910,0000013A,false,Rx,0,8,EA,F6,00,00,00,0E,FF,FF,
2307685,00000197,false,Rx,0,4,89,00,0E,C0,00,00,00,00,
2311625,00000100,false,Rx,0,8,8D,FD,7F,C0,5D,05,87,70,
2313293,00000112,false,Rx,0,8,D8,24,03,0E,A0,71,B5,5A,
2314866,00000206,false,Rx,0,8,AF,21,C1,FF,FF,FF,FF,FF,
2315105,000000EF,false,Rx,0,8,C2,F2,00,7D,21,00,7D,FF,
2315344,000000C3,false,Rx,0,8,47,72,00,40,00,7D,FF,FF,
2315532,000001A1,false,Rx,0,5,AE,C7,00,00,8A,00,00,00,
2315987,00000140,false,Rx,0,8,AB,67,40,9C,00,00,04,FF,
2316216,00000141,false,Rx,0,8,C7,77,40,9C,00,00,F4,FF,
2316456,00000163,false,Rx,0,8,FF,FF,15,25,FF,FF,FF,FF,
2316694,00000173,false,Rx,0,8,52,F4,00,0E,30,00,DE,10,
2316891,00000199,false,Rx,0,6,FF,FF,9A,7E,FF,3F,00,00,
2317099,0000019A,false,Rx,0,6,FF,FF,4E,7F,FF,3F,00,00,
2317307,0000019F,false,Rx,0,6,FF,FF,F4,7F,FF,2F,00,00,
2317556,00000254,false,Rx,0,8,FF,7F,FF,7F,FF,7F,FF,7F,
2317681,00000258,false,Rx,0,2,11,11,00,00,00,00,00,00,
2317931,000007BD,false,Rx,0,8,00,00,00,40,FF,C0,01,08,
2318201,000007BE,false,Rx,0,8,0C,41,04,69,00,00,00,00,
2321446,000002C4,false,Rx,0,8,00,00,FF,00,C8,64,FF,CF,
2321685,000000A5,false,Rx,0,8,DC,FB,FF,F7,7F,00,00,C1,
2321921,00000100,false,Rx,0,8,6A,FE,7F,C0,5D,05,87,70,
2322047,000000AC,false,Rx,0,2,00,F0,00,00,00,00,00,00,
2322295,000000D9,false,Rx,0,8,90,FB,00,10,00,F0,7F,C0,
2322534,000000F3,false,Rx,0,8,BE,0B,00,FF,F0,C0,FF,FF,
2323289,00000112,false,Rx,0,8,D9,24,03,0E,A0,71,B5,5A,
2324880,000000C3,false,Rx,0,8,1A,73,00,40,00,7D,FF,FF,
2325118,0000015F,false,Rx,0,8,A5,F3,00,7D,00,EE,00,7D,
2326911,0000013A,false,Rx,0,8,EB,F8,00,00,00,0E,FF,FF,
2329519,00000302,false,Rx,0,7,FF,FF,59,81,FE,FF,FF,00,
2331628,00000100,false,Rx,0,8,6B,F0,7F,C0,5D,05,87,70,
2333307,00000112,false,Rx,0,8,D9,24,03,0E,A0,71,B5,5A,
2334890,000000C3,false,Rx,0,8,94,74,00,40,00,7D,FF,FF,
2335118,000000EF,false,Rx,0,8,9F,F3,00,7D,21,00,7D,FF,
2335357,00000201,false,Rx,0,8,CA,8B,42,2E,FF,FF,FF,FF,
2335535,000001A1,false,Rx,0,5,5B,C9,00,00,8A,00,00,00,
2335980,00000140,false,Rx,0,8,AA,69,40,9C,00,00,04,FF,
2336220,00000141,false,Rx,0,8,C6,79,40,9C,00,00,F4,FF,
2336603,00000199,false,Rx,0,6,FF,FF,90,7E,FF,3F,00,00,
2336799,0000019A,false,Rx,0,6,FF,FF,58,7F,FF,3F,00,00,
2337006,0000019F,false,Rx,0,6,FF,FF,12,80,FF,2F,00,00,
2337257,00000254,false,Rx,0,8,FF,7F,FF,7F,FF,7F,FF,7F,
2337382,00000258,false,Rx,0,2,11,11,00,00,00,00,00,00,
2337691,00000197,false,Rx,0,4,06,01,0E,C0,00,00,00,00,
2339578,0000003C,false,Rx,0,8,FF,5F,00,00,00,00,FF,FF,
2341512,000000A5,false,Rx,0,8,52,FC,FF,F7,7F,00,00,C1,
2341741,00000100,false,Rx,0,8,36,F1,7F,C0,5D,05,87,70,
2341877,000000AC,false,Rx,0,2,00,F0,00,00,00,00,00,00,
2342123,000000D9,false,Rx,0,8,1E,FC,00,10,00,F0,7F,C0,
2342363,000000F3,false,Rx,0,8,30,0C,00,FF,F0,C0,FF,FF,
2342551,000002A7,false,Rx,0,5,C1,F4,FE,FF,14,00,00,00,
2343325,00000112,false,Rx,0,8,DA,24,03,0E,A0,71,B5,5A,
2344864,000000C3,false,Rx,0,8,C9,75,00,40,00,7D,FF,FF,
2345102,0000015F,false,Rx,0,8,2B,F4,00,7D,00,EE,00,7D,
2346905,0000013A,false,Rx,0,8,51,FA,00,00,00,0E,FF,FF,
2349788,00000314,false,Rx,0,3,50,00,FF,00,00,00,00,00,
2351629,00000100,false,Rx,0,8,D1,F2,7F,C0,5D,05,87,70,
2353327,00000112,false,Rx,0,8,DC,24,03,0E,A0,71,B5,5A,
2354870,00000206,false,Rx,0,8,48,22,C1,FF,FF,FF,FF,FF,
2355108,000000EF,false,Rx,0,8,11,F4,00,7D,21,00,7D,FF,
2355358,000000C3,false,Rx,0,8,2E,76,00,40,00,7D,FF,FF,
2355535,000001A1,false,Rx,0,5,7C,CB,00,00,8A,00,00,00,
2356001,00000140,false,Rx,0,8,10,6B,40,9C,00,00,04,FF,
2356221,00000141,false,Rx,0,8,7C,7B,40,9C,00,00,F4,FF,
2356428,00000199,false,Rx,0,6,FF,FF,86,7E,FF,3F,00,00,
2356635,0000019A,false,Rx,0,6,FF,FF,3A,7F,FF,3F,00,00,
2356842,0000019F,false,Rx,0,6,FF,FF,EF,7F,FF,2F,00,00,
2357092,00000254,false,Rx,0,8,FF,7F,FF,7F,FF,7F,FF,7F,
2357218,00000258,false,Rx,0,2,11,11,00,00,00,00,00,00,
2361530,000000A5,false,Rx,0,8,0F,FD,FF,F7,7F,00,00,C1,
2361827,000000D9,false,Rx,0,8,43,FD,00,10,00,F0,7F,C0,
2361952,000000AC,false,Rx,0,2,00,F0,00,00,00,00,00,00,
2362190,000000F3,false,Rx,0,8,6D,0D,00,FF,F0,C0,FF,FF,
2362430,00000100,false,Rx,0,8,8C,F3,7F,C0,5D,05,87,70,
2363503,00000112,false,Rx,0,8,DC,24,03,0E,A0,71,B5,5A,
2364858,000000C3,false,Rx,0,8,73,77,00,40,00,7D,FF,FF,
2365096,0000015F,false,Rx,0,8,76,F5,00,7D,00,EE,00,7D,
2366767,000007BD,false,Rx,0,8,10,00,00,00,00,00,00,00,
2367006,0000013A,false,Rx,0,8,82,FC,00,00,00,0E,FF,FF,
2367256,000007BE,false,Rx,0,8,00,C0,FA,1C,02,00,00,00,
2367690,00000197,false,Rx,0,4,8A,02,0E,C0,00,00,00,00,
2369516,00000302,false,Rx,0,7,FF,FF,59,81,FE,FF,FF,00,
2371628,00000100,false,Rx,0,8,02,F4,7F,C0,5D,05,87,70,
2372943,00000239,false,Rx,0,8,70,E3,35,15,05,FF,FF,FF,
2373286,00000112,false,Rx,0,8,DE,24,03,0E,A0,71,B5,5A,
2374832,000003FD,false,Rx,0,5,FA,04,00,00,FF,00,00,00,
2375069,000000EF,false,Rx,0,8,4C,F5,00,7D,21,00,7D,FF,
2375309,00000108,false,Rx,0,8,00,7D,FF,FF,47,F1,FF,FF,
2375548,000000C3,false,Rx,0,8,2F,78,00,40,00,7D,FF,FF,
2375737,000001A1,false,Rx,0,5,15,CD,00,00,8A,00,00,00,
2375954,000000F5,false,Rx,0,7,DC,DC,00,82,00,82,00,00,
2376194,00000140,false,Rx,0,8,C3,6D,40,9C,00,00,04,FF,
2376360,000000FF,false,Rx,0,4,E2,24,F0,00,00,00,00,00,
2376598,00000141,false,Rx,0,8,AF,7D,40,9C,00,00,F4,FF,
2376795,00000199,false,Rx,0,6,FF,FF,AE,7E,FF,3F,00,00,
2377003,0000019A,false,Rx,0,6,FF,FF,62,7F,FF,3F,00,00,
2377221,0000019F,false,Rx,0,6,FF,FF,F9,7F,FF,2F,00,00,
2377459,00000201,false,Rx,0,8,D3,8B,4C,2E,FF,FF,FF,FF,
2377720,00000254,false,Rx,0,8,FF,7F,FF,7F,FF,7F,FF,7F,
2377938,00000212,false,Rx,0,8,A4,F7,F9,FF,FF,FF,FF,FF,
2378073,00000258,false,Rx,0,2,11,11,00,00,00,00,00,00,
2378312,0000029E,false,Rx,0,8,47,D0,11,C6,07,FF,FF,FF,
2378551,000002DB,false,Rx,0,8,FF,FF,FF,FF,BF,FF,FF,FF,
2378800,000002F1,false,Rx,0,8,37,10,7D,98,01,7A,00,A0,
2381517,000000A5,false,Rx,0,8,E8,FE,FF,F7,7F,00,00,C1,
2381763,00000100,false,Rx,0,8,5F,F5,7F,C0,5D,05,87,70,
2381888,000000AC,false,Rx,0,2,00,F0,00,00,00,00,00,00,
2382125,000000D9,false,Rx,0,8,A4,FE,00,10,00,F0,7F,C0,
2382366,000000F3,false,Rx,0,8,8A,0E,00,FF,F0,C0,FF,FF,
2382583,000002C5,false,Rx,0,7,E2,FB,00,60,06,70,C8,00,
2382760,0000036E,false,Rx,0,5,72,FA,FE,FF,14,00,00,00,
2383277,00000112,false,Rx,0,8,DE,24,03,0E,A0,71,B5,5A,
2384862,000000C3,false,Rx,0,8,72,79,00,40,00,7D,FF,FF,
2385100,0000015F,false,Rx,0,8,91,F6,00,7D,00,EE,00,7D,
2385340,00000201,false,Rx,0,8,D5,8B,4E,2E,FF,FF,FF,FF,
2386971,0000013A,false,Rx,0,8,38,FE,00,00,00,0E,FF,FF,
2387652,000002B2,false,Rx,0,8,06,0E,E2,04,FF,0F,FF,FF,
2387930,000003B4,false,Rx,0,8,00,00,0D,F4,BD,FF,09,B0,
2388334,0000012F,false,Rx,0,8,58,2C,86,1B,F1,35,30,00,
2391899,000002BB,false,Rx,0,5,4C,F0,D1,7F,F2,00,00,00,
2392132,00000289,false,Rx,0,8,B2,FD,E0,FF,FD,00,EC,01,
2392373,00000100,false,Rx,0,8,B8,F6,7F,C0,5D,05,87,70,
2393343,00000112,false,Rx,0,8,E0,24,03,0E,A0,71,B5,5A,
2394086,000002E8,false,Rx,0,8,C0,E8,C3,FF,FF,F4,FC,95,
2394315,000002F5,false,Rx,0,8,BF,0F,E2,24,28,0A,06,10,
2394873,00000206,false,Rx,0,8,15,23,C1,FF,FF,FF,FF,FF,
2395111,000000EF,false,Rx,0,8,AB,F6,00,7D,21,00,7D,FF,
2395351,000000C3,false,Rx,0,8,95,7A,00,40,00,7D,FF,FF,
2395539,000001A1,false,Rx,0,5,5A,C0,00,00,8A,00,00,00,
2395999,00000140,false,Rx,0,8,25,60,40,9C,00,00,04,FF,
2396240,00000141,false,Rx,0,8,49,70,40,9C,00,00,F4,FF,
2396447,00000199,false,Rx,0,6,FF,FF,90,7E,FF,3F,00,00,
2396654,0000019A,false,Rx,0,6,FF,FF,58,7F,FF,3F,00,00,
2396851,0000019F,false,Rx,0,6,FF,FF,08,80,FF,2F,00,00,
2397100,00000254,false,Rx,0,8,FF,7F,FF,7F,FF,7F,FF,7F,
2397227,00000258,false,Rx,0,2,11,11,00,00,00,00,00,00,
2397669,000002EF,false,Rx,0,8,F4,01,14,C0,12,00,C0,FC,
2397826,00000197,false,Rx,0,4,05,03,0E,C0,00,00,00,00,
2399631,000001AE,false,Rx,0,2,F7,FF,00,00,00,00,00,00,
2401492,000000A5,false,Rx,0,8,E9,F0,FF,F7,7F,00,00,C1,
2401721,00000100,false,Rx,0,8,E5,F7,7F,C0,5D,05,87,70,
2401856,000000AC,false,Rx,0,2,00,F0,00,00,00,00,00,00,
2402103,000000D9,false,Rx,0,8,A5,F0,00,10,00,F0,7F,C0,
2402333,000000F3,false,Rx,0,8,8B,00,00,FF,F0,C0,FF,FF,
2402849,0000036F,false,Rx,0,5,20,FB,FE,FF,14,00,00,00,
2403098,0000031C,false,Rx,0,8,FF,FF,FF,FF,FF,FF,FF,FF,
2403327,00000112,false,Rx,0,8,DF,24,03,0E,A0,71,B5,5A,
2403535,0000033B,false,Rx,0,6,62,FD,DC,FF,FF,FF,00,00,
2404861,000000C3,false,Rx,0,8,C8,7B,00,40,00,7D,FF,FF,
2405099,0000015F,false,Rx,0,8,CC,F7,00,7D,00,EE,00,7D,
2406913,0000013A,false,Rx,0,8,64,F1,00,00,00,0E,FF,FF,
2409519,00000302,false,Rx,0,7,FF,FF,59,81,FE,FF,FF,00,
2409880,0000051A,false,Rx,0,8,00,00,00,00,50,00,00,1A,
2411622,00000100,false,Rx,0,8,B9,F8,7F,C0,5D,05,87,70,
2412897,00000297,false,Rx,0,7,CC,E5,F0,E0,F2,92,EA,00,
2413291,00000112,false,Rx,0,8,E1,24,03,0E,A0,71,B5,5A,
2413529,00000239,false,Rx,0,8,70,E3,35,15,05,FF,FF,FF,
2414891,000000C3,false,Rx,0,8,46,7C,00,40,00,7D,FF,FF,
2415119,000000EF,false,Rx,0,8,F6,F7,00,7D,21,00,7D,FF,
2415483,000001A1,false,Rx,0,5,7D,C2,00,00,8A,00,00,00,
2415967,00000140,false,Rx,0,8,9F,62,40,9C,00,00,04,FF,
2416199,00000141,false,Rx,0,8,F3,72,40,9C,00,00,F4,FF,
2416643,00000163,false,Rx,0,8,FF,FF,15,25,FF,FF,FF,FF,
2416882,00000173,false,Rx,0,8,3A,FE,00,0E,30,00,DE,10,
2417079,00000199,false,Rx,0,6,FF,FF,A4,7E,FF,3F,00,00,
2417288,0000019A,false,Rx,0,6,FF,FF,58,7F,FF,3F,00,00,
2417495,0000019F,false,Rx,0,6,FF,FF,FF,7F,FF,2F,00,00,
2417744,00000254,false,Rx,0,8,FF,7F,FF,7F,FF,7F,FF,7F,
2417869,00000258,false,Rx,0,2,11,11,00,00,00,00,00,00,
2418116,000007BD,false,Rx,0,8,00,00,00,40,FF,C0,01,08,
2418317,000001E1,false,Rx,0,6,1A,FE,05,FF,FF,FF,00,00,
2418566,000007BE,false,Rx,0,8,05,00,00,00,00,00,00,E0,
2421636,00000100,false,Rx,0,8,E4,F9,7F,C0,5D,05,87,70,
2421874,000000A5,false,Rx,0,8,B4,F1,FF,F7,7F,00,00,C1,
2422051,000002A7,false,Rx,0,5,5C,F5,FE,FF,14,00,00,00,
2422198,000000AC,false,Rx,0,2,00,F0,00,00,00,00,00,00,
2422426,000000D9,false,Rx,0,8,F8,F1,00,10,00,F0,7F,C0,
2422664,000000F3,false,Rx,0,8,D6,01,00,FF,F0,C0,FF,FF,
2422913,000002C4,false,Rx,0,8,00,00,FF,00,C8,64,FF,CF,
2423111,00000304,false,Rx,0,6,FF,FF,D6,38,FF,FF,00,00,
2423339,00000112,false,Rx,0,8,E1,24,03,0E,A0,71,B5,5A,
2424892,000000C3,false,Rx,0,8,1B,7D,00,40,00,7D,FF,FF,
2425130,0000015F,false,Rx,0,8,90,F8,00,7D,00,EE,00,7D,
2426904,0000013A,false,Rx,0,8,DE,F3,00,00,00,0E,FF,FF,
2427699,00000272,false,Rx,0,8,E1,F7,05,12,FF,FF,FF,FF,
2427855,00000197,false,Rx,0,4,8F,04,0E,C0,00,00,00,00,
2431635,00000100,false,Rx,0,8,03,FA,7F,C0,5D,05,87,70,
2433292,00000112,false,Rx,0,8,E2,24,03,0E,A0,71,B5,5A,
2433531,00000431,false,Rx,0,8,C6,FD,44,00,0E,9F,F7,00,
2434870,00000206,false,Rx,0,8,9B,24,C1,FF,FF,FF,FF,FF,
2435108,000000EF,false,Rx,0,8,AA,F8,00,7D,21,00,7D,FF,
2435349,000000C3,false,Rx,0,8,FC,7E,00,40,00,7D,FF,FF,
2435536,000001A1,false,Rx,0,5,14,C4,00,00,8A,00,00,00,
2435775,00000201,false,Rx,0,8,E1,8B,5A,2E,FF,FF,FF,FF,
2436014,00000140,false,Rx,0,8,4C,64,40,9C,00,00,04,FF,
2436255,00000141,false,Rx,0,8,20,74,40,9C,00,00,F4,FF,
2436452,00000199,false,Rx,0,6,FF,FF,90,7E,FF,3F,00,00,
2436659,0000019A,false,Rx,0,6,FF,FF,58,7F,FF,3F,00,00,
2436877,0000019F,false,Rx,0,6,FF,FF,F8,7F,FF,2F,00,00,
2437115,00000254,false,Rx,0,8,FF,7F,FF,7F,FF,7F,FF,7F,
2437252,00000258,false,Rx,0,2,11,11,00,00,00,00,00,00,
2439426,000000C0,false,Rx,0,2,F1,40,00,00,00,00,00,00,
2439673,0000003C,false,Rx,0,8,FF,5F,00,00,00,00,FF,FF,
2441507,000000A5,false,Rx,0,8,53,F2,FF,F7,7F,00,00,C1,
2441752,00000100,false,Rx,0,8,5E,FB,7F,C0,5D,05,87,70,
2441877,000000AC,false,Rx,0,2,00,F0,00,00,00,00,00,00,
2442124,000000D9,false,Rx,0,8,1F,F2,00,10,00,F0,7F,C0,
2442365,000000F3,false,Rx,0,8,31,02,00,FF,F0,C0,FF,FF,
2443293,00000112,false,Rx,0,8,E1,24,03,0E,A0,71,B5,5A,
2443532,00000432,false,Rx,0,8,3C,DA,15,BD,4D,7C,1B,BC,
2444868,000000C3,false,Rx,0,8,FD,70,00,40,00,7D,FF,FF,
2445107,0000015F,false,Rx,0,8,CD,F9,00,7D,00,EE,00,7D,
2446911,0000013A,false,Rx,0,8,0D,F5,00,00,00,0E,FF,FF,
2449515,00000302,false,Rx,0,7,FF,FF,59,81,FE,FF,FF,00,
2451667,000005E0,false,Rx,0,8,11,03,00,02,09,05,D5,04,
2452346,00000100,false,Rx,0,8,D0,FC,7F,C0,5D,05,87,70,
2452943,000002F5,false,Rx,0,8,BF,0F,E2,24,27,0A,06,10,
2453297,00000112,false,Rx,0,8,E0,24,03,0E,A0,71,B5,5A,
2454525,00000301,false,Rx,0,7,FF,FF,2C,81,FF,FF,CF,00,
2454866,000000C3,false,Rx,0,8,A0,71,00,40,00,7D,FF,FF,
2455104,000000EF,false,Rx,0,8,F7,F9,00,7D,21,00,7D,FF,
2455489,000001A1,false,Rx,0,5,33,C6,00,00,8A,00,00,00,
2455975,00000140,false,Rx,0,8,F6,66,40,9C,00,00,04,FF,
2456205,00000141,false,Rx,0,8,9A,76,40,9C,00,00,F4,FF,
2456413,00000199,false,Rx,0,6,FF,FF,90,7E,FF,3F,00,00,
2456620,0000019A,false,Rx,0,6,FF,FF,4E,7F,FF,3F,00,00,
2456838,0000019F,false,Rx,0,6,FF,FF,EC,7F,FF,2F,00,00,
2457076,00000254,false,Rx,0,8,FF,7F,FF,7F,FF,7F,FF,7F,
2457212,00000258,false,Rx,0,2,11,11,00,00,00,00,00,00,
2457697,00000197,false,Rx,0,4,00,05,0E,C0,00,00,00,00,
2461510,000000A5,false,Rx,0,8,0E,F3,FF,F7,7F,00,00,C1,
2461744,00000100,false,Rx,0,8,8D,FD,7F,C0,5D,05,87,70,
2461880,000000AC,false,Rx,0,2,00,F0,00,00,00,00,00,00,
2462117,000000D9,false,Rx,0,8,42,F3,00,10,00,F0,7F,C0,
2462357,000000F3,false,Rx,0,8,6C,03,00,FF,F0,C0,FF,FF,
2463502,00000112,false,Rx,0,8,DF,24,03,0E,A0,71,B5,5A,
2463745,00000239,false,Rx,0,8,70,E4,35,15,05,FF,FF,FF,
2464890,000000C3,false,Rx,0,8,47,72,00,40,00,7D,FF,FF,
2465128,0000015F,false,Rx,0,8,2A,FA,00,7D,00,EE,00,7D,
2466748,000007BD,false,Rx,0,8,01,2D,55,7F,49,58,58,00,
2466988,0000013A,false,Rx,0,8,B7,F7,00,00,00,0E,FF,FF,
2467227,000007BE,false,Rx,0,8,07,70,2D,00,06,67,00,00,
2471630,00000100,false,Rx,0,8,6A,FE,7F,C0,5D,05,87,70,
2472039,000002F9,false,Rx,0,7,00,00,00,08,76,C0,F3,00,
2473299,00000112,false,Rx,0,8,DD,24,03,0E,A0,71,B5,5A,
2474813,000003FD,false,Rx,0,5,67,05,00,00,FF,00,00,00,
2475050,000000EF,false,Rx,0,8,10,FA,00,7D,21,00,7D,FF,
2475291,00000108,false,Rx,0,8,00,7D,FF,FF,47,F1,FF,FF,
2475529,000000C3,false,Rx,0,8,1A,73,00,40,00,7D,FF,FF,
2475718,000001A1,false,Rx,0,5,C6,C8,00,00,8A,00,00,00,
2475945,000001B5,false,Rx,0,8,EE,4D,22,70,FF,FF,FF,FF,
2476186,00000140,false,Rx,0,8,F7,68,40,9C,00,00,04,FF,
2476424,00000141,false,Rx,0,8,9B,78,40,9C,00,00,F4,FF,
2476621,00000199,false,Rx,0,6,FF,FF,7C,7E,FF,3F,00,00,
2476829,0000019A,false,Rx,0,6,FF,FF,58,7F,FF,3F,00,00,
2477036,0000019F,false,Rx,0,6,FF,FF,F1,7F,FF,2F,00,00,
2477286,00000206,false,Rx,0,8,C6,25,C1,FF,FF,FF,FF,FF,
2477534,00000254,false,Rx,0,8,FF,7F,FF,7F,FF,7F,FF,7F,
2477776,00000212,false,Rx,0,8,F8,F8,F9,FF,FF,FF,FF,FF,
2477901,00000258,false,Rx,0,2,11,11,00,00,00,00,00,00,
2478148,0000029E,false,Rx,0,8,47,D0,11,C6,07,FF,FF,FF,
2478388,000002DB,false,Rx,0,8,FF,FF,FF,FF,BF,FF,FF,FF,
2478627,000002F1,false,Rx,0,8,37,10,7D,98,01,7A,00,A0,
2478885,0000032B,false,Rx,0,8,FF,FF,FF,FF,FF,FF,00,FF,
2479125,00000331,false,Rx,0,8,FF,FF,FF,EF,7F,FE,F7,FF,
2479364,000003E9,false,Rx,0,8,5C,8F,21,A1,7C,7D,20,4B,
2481643,0000019D,false,Rx,0,8,C8,32,8E,01,FF,FF,FF,FF,
2481877,000000A5,false,Rx,0,8,80,F4,FF,F7,7F,00,00,C1,
2482012,000000AC,false,Rx,0,2,00,F0,00,00,00,00,00,00,
2482252,000000D9,false,Rx,0,8,CC,F4,00,10,00,F0,7F,C0,
2482490,000000F3,false,Rx,0,8,E2,04,00,FF,F0,C0,FF,FF,
2482728,00000100,false,Rx,0,8,6B,F0,7F,C0,5D,05,87,70,
2482947,000002C5,false,Rx,0,7,2D,FC,00,60,06,70,C8,00,
2483278,00000112,false,Rx,0,8,DD,24,03,0E,A0,71,B5,5A,
2484864,000000C3,false,Rx,0,8,94,74,00,40,00,7D,FF,FF,
2485102,0000015F,false,Rx,0,8,77,FB,00,7D,00,EE,00,7D,
2485343,00000201,false,Rx,0,8,ED,8B,65,2E,FF,FF,FF,FF,
2486962,0000013A,false,Rx,0,8,B6,F9,00,00,00,0E,FF,FF,
2487685,00000197,false,Rx,0,4,8C,06,0E,C0,00,00,00,00,
2487931,000002B2,false,Rx,0,8,06,0E,E2,04,FF,0F,FF,FF,
2488336,0000012F,false,Rx,0,8,05,2D,86,1B,F1,35,30,00,
2489533,00000302,false,Rx,0,7,FF,FF,59,81,FE,FF,FF,00,
2489719,00000349,false,Rx,0,5,FE,FF,FE,FF,00,00,00,00,
2489970,000002FC,false,Rx,0,8,81,05,00,FF,FF,FF,FF,FF,
2491632,00000100,false,Rx,0,8,36,F1,7F,C0,5D,05,87,70,
2491919,000002BB,false,Rx,0,5,F7,FA,D1,7F,F2,00,00,00,
2492158,00000289,false,Rx,0,8,55,FE,E0,FF,FD,00,EC,01,
2493355,00000112,false,Rx,0,8,D9,24,03,0E,A0,71,B5,5A,
2494098,000002E8,false,Rx,0,8,C0,E8,C3,FF,FF,F4,FD,88,
2494327,000002F5,false,Rx,0,8,BF,0F,E2,24,27,0A,06,10,
2494864,000000C3,false,Rx,0,8,C9,75,00,40,00,7D,FF,FF,
2495103,000000EF,false,Rx,0,8,4D,FB,00,7D,21,00,7D,FF,
2495488,000001A1,false,Rx,0,5,E1,CA,00,00,8A,00,00,00,
2495976,00000140,false,Rx,0,8,4D,6A,40,9C,00,00,04,FF,
2496217,00000141,false,Rx,0,8,21,7A,40,9C,00,00,F4,FF,
2496599,00000199,false,Rx,0,6,FF,FF,90,7E,FF,3F,00,00,
2496797,0000019A,false,Rx,0,6,FF,FF,62,7F,FF,3F,00,00,
2497004,0000019F,false,Rx,0,6,FF,FF,11,80,FF,2F,00,00,
2497253,00000254,false,Rx,0,8,FF,7F,FF,7F,FF,7F,FF,7F,
2497378,00000258,false,Rx,0,2,11,11,00,00,00,00,00,00,
2497791,000002EF,false,Rx,0,8,F4,01,14,C0,12,00,C0,FC,
2499698,000001AE,false,Rx,0,2,F7,FF,00,00,00,00,00,00,
2501498,000000A5,false,Rx,0,8,DD,F5,FF,F7,7F,00,00,C1,
2501736,00000100,false,Rx,0,8,D1,F2,7F,C0,5D,05,87,70,
2501872,000000AC,false,Rx,0,2,00,F0,00,00,00,00,00,00,
2502119,000000D9,false,Rx,0,8,91,F5,00,10,00,F0,7F,C0,
2502349,000000F3,false,Rx,0,8,BF,05,00,FF,F0,C0,FF,FF,
2502536,000002A7,false,Rx,0,5,E6,F6,FE,FF,14,00,00,00,
2503289,00000112,false,Rx,0,8,DA,24,03,0E,A0,71,B5,5A,
2504889,000000C3,false,Rx,0,8,2E,76,00,40,00,7D,FF,FF,
2505128,0000015F,false,Rx,0,8,F9,FC,00,7D,00,EE,00,7D,
2506025,00000348,false,Rx,0,8,B1,08,62,FE,FE,E6,11,1B,
2506904,0000013A,false,Rx,0,8,0C,FB,00,00,00,0E,FF,FF,
2509706,00000314,false,Rx,0,3,50,00,FF,00,00,00,00,00,
2511619,00000100,false,Rx,0,8,8C,F3,7F,C0,5D,05,87,70,
2513286,00000112,false,Rx,0,8,D7,24,03,0E,A0,71,B5,5A,
2514891,00000206,false,Rx,0,8,21,26,C1,FF,FF,FF,FF,FF,
2515129,000000EF,false,Rx,0,8,C3,FC,00,7D,21,00,7D,FF,
2515369,000000C3,false,Rx,0,8,73,77,00,40,00,7D,FF,FF,
2515546,000001A1,false,Rx,0,5,88,CC,00,00,8A,00,00,00,
2515980,00000140,false,Rx,0,8,9E,6C,40,9C,00,00,04,FF,
2516214,00000141,false,Rx,0,8,F2,7C,40,9C,00,00,F4,FF,
2516463,00000163,false,Rx,0,8,FF,FF,15,25,FF,FF,FF,FF,
2516691,00000173,false,Rx,0,8,B4,F9,00,0E,30,00,DE,10,
2516899,00000199,false,Rx,0,6,FF,FF,9A,7E,FF,3F,00,00,
2517106,0000019A,false,Rx,0,6,FF,FF,58,7F,FF,3F,00,00,
2517314,0000019F,false,Rx,0,6,FF,FF,04,80,FF,2F,00,00,
2517553,00000254,false,Rx,0,8,FF,7F,FF,7F,FF,7F,FF,7F,
2517689,00000258,false,Rx,0,2,11,11,00,00,00,00,00,00,
2517854,00000197,false,Rx,0,4,03,07,0E,C0,00,00,00,00,
2518102,000007BD,false,Rx,0,8,00,00,00,40,FF,C0,01,08,
2518374,000007BE,false,Rx,0,8,0B,00,00,00,00,00,00,00,
2521444,000002C4,false,Rx,0,8,00,00,FF,00,C8,64,FF,CF,
2521682,000000A5,false,Rx,0,8,3A,F6,FF,F7,7F,00,00,C1,
2521920,00000100,false,Rx,0,8,02,F4,7F,C0,5D,05,87,70,
2522066,000000AC,false,Rx,0,2,00,F0,00,00,00,00,00,00,
2522285,000000D9,false,Rx,0,8,76,F6,00,10,00,F0,7F,C0,
2522533,000000F3,false,Rx,0,8,58,06,00,FF,F0,C0,FF,FF,
2523329,00000112,false,Rx,0,8,D8,24,03,0E,A0,71,B5,5A,
2524867,000000C3,false,Rx,0,8,2F,78,00,40,00,7D,FF,FF,
2525105,0000015F,false,Rx,0,8,A4,FD,00,7D,00,EE,00,7D,
2525633,0000043D,false,Rx,0,8,62,15,E7,FF,21,56,08,F0,
2526914,0000013A,false,Rx,0,8,DF,FD,00,00,00,0E,FF,FF,
2529519,00000302,false,Rx,0,7,FF,FF,59,81,FE,FF,FF,00,
2531629,00000100,false,Rx,0,8,5F,F5,7F,C0,5D,05,87,70,
2533337,00000112,false,Rx,0,8,D6,24,03,0E,A0,71,B5,5A,
2534859,000000C3,false,Rx,0,8,72,79,00,40,00,7D,FF,FF,
2535097,000000EF,false,Rx,0,8,9E,FD,00,7D,21,00,7D,FF,
2535338,00000201,false,Rx,0,8,F8,8B,71,2E,FF,FF,FF,FF,
2535525,000001A1,false,Rx,0,5,AF,CE,00,00,8A,00,00,00,
2535990,00000140,false,Rx,0,8,24,6E,40,9C,00,00,04,FF,
2536223,00000141,false,Rx,0,8,48,7E,40,9C,00,00,F4,FF,
2536595,00000199,false,Rx,0,6,FF,FF,86,7E,FF,3F,00,00,
2536793,0000019A,false,Rx,0,6,FF,FF,62,7F,FF,3F,00,00,
2537000,0000019F,false,Rx,0,6,FF,FF,0C,80,FF,2F,00,00,
2537249,00000254,false,Rx,0,8,FF,7F,FF,7F,FF,7F,FF,7F,
2537374,00000258,false,Rx,0,2,11,11,00,00,00,00,00,00,
2539575,0000003C,false,Rx,0,8,FF,5F,00,00,00,00,FF,FF,
2541510,000000A5,false,Rx,0,8,67,F7,FF,F7,7F,00,00,C1,
2541810,000000D9,false,Rx,0,8,2B,F7,00,10,00,F0,7F,C0,
2541945,000000AC,false,Rx,0,2,00,F0,00,00,00,00,00,00,
2542185,000000F3,false,Rx,0,8,05,07,00,FF,F0,C0,FF,FF,
2542414,00000100,false,Rx,0,8,B8,F6,7F,C0,5D,05,87,70,
2542601,0000036E,false,Rx,0,5,EF,FB,FE,FF,14,00,00,00,
2543303,00000112,false,Rx,0,8,D7,24,03,0E,A0,71,B5,5A,
2544881,000000C3,false,Rx,0,8,95,7A,00,40,00,7D,FF,FF,
2545119,0000015F,false,Rx,0,8,43,FE,00,7D,00,EE,00,7D,
2545658,0000043C,false,Rx,0,8,FE,FE,FF,FF,FF,FF,FF,FF,
2546917,0000013A,false,Rx,0,8,39,F0,00,00,00,0E,FF,FF,
2547692,00000197,false,Rx,0,4,85,08,0E,C0,00,00,00,00,
2549678,000001D6,false,Rx,0,2,F0,C0,00,00,00,00,00,00,
2551137,00000246,false,Rx,0,6,3F,FB,00,FF,FF,FF,00,00,
2551449,00000299,false,Rx,0,8,FF,00,30,00,00,00,F0,00,
2551688,00000100,false,Rx,0,8,E5,F7,7F,C0,5D,05,87,70,
2552947,00000239,false,Rx,0,8,70,E6,35,15,05,FF,FF,FF,
2553309,00000112,false,Rx,0,8,D7,24,03,0E,A0,71,B5,5A,
2554895,00000206,false,Rx,0,8,7C,27,C1,FF,FF,FF,FF,FF,
2555135,000000EF,false,Rx,0,8,79,FE,00,7D,21,00,7D,FF,
2555374,000000C3,false,Rx,0,8,C8,7B,00,40,00,7D,FF,FF,
2555550,000001A1,false,Rx,0,5,C7,C1,00,00,8A,00,00,00,
2555974,00000140,false,Rx,0,8,78,61,40,9C,00,00,04,FF,
2556214,00000141,false,Rx,0,8,14,71,40,9C,00,00,F4,FF,
2556417,00000199,false,Rx,0,6,FF,FF,9A,7E,FF,3F,00,00,
2556624,0000019A,false,Rx,0,6,FF,FF,58,7F,FF,3F,00,00,
2556832,0000019F,false,Rx,0,6,FF,FF,0D,80,FF,2F,00,00,
2557080,00000254,false,Rx,0,8,FF,7F,FF,7F,FF,7F,FF,7F,
2557330,00000200,false,Rx,0,8,0D,00,33,00,00,00,00,FF,
2557456,00000258,false,Rx,0,2,11,11,00,00,00,00,00,00,
2561509,000000A5,false,Rx,0,8,3B,F8,FF,F7,7F,00,00,C1,
2561743,00000100,false,Rx,0,8,B9,F8,7F,C0,5D,05,87,70,
2561878,000000AC,false,Rx,0,2,00,F0,00,00,00,00,00,00,
2562116,000000D9,false,Rx,0,8,77,F8,00,10,00,F0,7F,C0,
2562356,000000F3,false,Rx,0,8,59,08,00,FF,F0,C0,FF,FF,
2562852,0000036F,false,Rx,0,5,D4,FC,FE,FF,14,00,00,00,
2563512,00000112,false,Rx,0,8,D8,24,03,0E,A0,71,C5,5A,
2564870,000000C3,false,Rx,0,8,46,7C,00,40,00,7D,FF,FF,
2565109,0000015F,false,Rx,0,8,42,F0,00,7D,00,EE,00,7D,
2566727,000007BD,false,Rx,0,8,04,00,00,01,00,00,00,80,
2566975,0000013A,false,Rx,0,8,83,F2,00,00,00,0E,FF,FF,
2569510,00000302,false,Rx,0,7,FF,FF,59,81,FE,FF,FF,00,
2572346,00000100,false,Rx,0,8,E4,F9,7F,C0,5D,05,87,70,
2573291,00000112,false,Rx,0,8,DA,24,03,0E,A0,71,C5,5A,
2574814,000003FD,false,Rx,0,5,DD,06,00,00,FF,00,00,00,
2575051,000000EF,false,Rx,0,8,78,F0,00,7D,21,00,7D,FF,
2575292,00000108,false,Rx,0,8,00,7D,FF,FF,47,F1,FF,FF,
2575540,000000C3,false,Rx,0,8,1B,7D,00,40,00,7D,FF,FF,
2575727,000001A1,false,Rx,0,5,E0,C3,00,00,8A,00,00,00,
2575966,00000212,false,Rx,0,8,A5,F9,F9,FF,FF,FF,FF,FF,
2576205,00000140,false,Rx,0,8,C2,63,40,9C,00,00,04,FF,
2576441,00000141,false,Rx,0,8,AE,73,40,9C,00,00,F4,FF,
2576649,00000199,false,Rx,0,6,FF,FF,90,7E,FF,3F,00,00,
2576856,0000019A,false,Rx,0,6,FF,FF,62,7F,FF,3F,00,00,
2577063,0000019F,false,Rx,0,6,FF,FF,F6,7F,FF,2F,00,00,
2577302,00000254,false,Rx,0,8,FF,7F,FF,7F,FF,7F,FF,7F,
2577439,00000258,false,Rx,0,2,11,11,00,00,00,00,00,00,
2577676,000002DB,false,Rx,0,8,FF,FF,FF,FF,BF,FF,FF,FF,
2577842,00000197,false,Rx,0,4,0A,09,0E,C0,00,00,00,00,
2578090,0000029E,false,Rx,0,8,47,D0,11,C6,07,FF,FF,FF,
2578320,000002F1,false,Rx,0,8,37,10,7D,98,01,7A,00,A0,
2581515,000000A5,false,Rx,0,8,66,F9,FF,F7,7F,00,00,C1,
2581749,00000100,false,Rx,0,8,03,FA,7F,C0,5D,05,87,70,
2581884,000000AC,false,Rx,0,2,00,F0,00,00,00,00,00,00,
2582133,000000D9,false,Rx,0,8,2A,F9,00,10,00,F0,7F,C0,
2582372,000000F3,false,Rx,0,8,04,09,00,FF,F0,C0,FF,FF,
2582549,000002A7,false,Rx,0,5,7B,F7,FE,FF,14,00,00,00,
2582766,000002C5,false,Rx,0,7,6B,FD,00,60,06,70,C8,00,
2583284,00000112,false,Rx,0,8,DB,24,03,0E,A0,71,C5,5A,
2584869,000000C3,false,Rx,0,8,FC,7E,00,40,00,7D,FF,FF,
2585108,0000015F,false,Rx,0,8,1F,F1,00,7D,00,EE,00,7D,
2585358,00000201,false,Rx,0,8,04,8C,7D,2E,FF,FF,FF,FF,
2586967,0000013A,false,Rx,0,8,50,F4,00,00,00,0E,FF,FF,
2587809,000002ED,false,Rx,0,3,77,0A,02,00,00,00,00,00,
2588047,000002B2,false,Rx,0,8,06,0E,E2,04,FF,0F,FF,FF,
2588318,000003B4,false,Rx,0,8,00,00,0D,F4,BD,FF,09,B0,
2588546,0000012F,false,Rx,0,8,E2,2E,86,1B,F1,35,30,00,
2591631,00000100,false,Rx,0,8,5E,FB,7F,C0,5D,05,87,70,
2591926,000002BB,false,Rx,0,5,9F,F5,D1,7F,F2,00,00,00,
2592165,00000289,false,Rx,0,8,54,F0,E0,FF,FD,00,EC,01,
2592878,000003CB,false,Rx,0,4,DE,AD,C8,AB,00,00,00,00,
2593343,00000112,false,Rx,0,8,DE,24,03,0E,A0,71,C5,5A,
2593583,00000239,false,Rx,0,8,70,E6,35,15,05,FF,FF,FF,
2594330,000002E8,false,Rx,0,8,C0,E8,C3,FF,FF,F4,FE,AF,
2594558,000002F5,false,Rx,0,8,BF,0F,E2,24,27,0A,06,10,
2594899,00000206,false,Rx,0,8,20,28,C1,FF,FF,FF,FF,FF,
2595138,000000EF,false,Rx,0,8,25,F1,00,7D,21,00,7D,FF,
2595378,000000C3,false,Rx,0,8,FD,70,00,40,00,7D,FF,FF,
2595555,000001A1,false,Rx,0,5,89,C5,00,00,8A,00,00,00,
2596016,00000140,false,Rx,0,8,11,65,40,9C,00,00,04,FF,
2596255,00000141,false,Rx,0,8,7D,75,40,9C,00,00,F4,FF,
2596462,00000199,false,Rx,0,6,FF,FF,86,7E,FF,3F,00,00,
2596670,0000019A,false,Rx,0,6,FF,FF,58,7F,FF,3F,00,00,
2596877,0000019F,false,Rx,0,6,FF,FF,FB,7F,FF,2F,00,00,
2597125,00000254,false,Rx,0,8,FF,7F,FF,7F,FF,7F,FF,7F,
2597252,00000258,false,Rx,0,2,11,11,00,00,00,00,00,00,
2597919,000002EF,false,Rx,0,8,F4,01,14,C0,12,00,C0,FC,
2598116,00000369,false,Rx,0,5,FF,FD,FF,FF,FF,00,00,00,
2599622,000001AE,false,Rx,0,2,F7,FF,00,00,00,00,00,00,
2601519,000000A5,false,Rx,0,8,81,FA,FF,F7,7F,00,00,C1,
2601747,00000100,false,Rx,0,8,D0,FC,7F,C0,5D,05,87,70,
2601880,000000AC,false,Rx,0,2,00,F0,00,00,00,00,00,00,
2602129,000000D9,false,Rx,0,8,CD,FA,00,10,00,F0,7F,C0,
2602368,000000F3,false,Rx,0,8,E3,0A,00,FF,F0,C0,FF,FF,
2602905,0000031C,false,Rx,0,8,FF,FF,FF,FF,FF,FF,FF,FF,
2603113,0000033B,false,Rx,0,6,DC,FE,DC,FF,FF,FF,00,00,
2603341,00000112,false,Rx,0,8,DE,24,03,0E,A0,71,C5,5A,
2603560,000003A7,false,Rx,0,7,D0,F1,00,00,1F,11,F0,00,
2603696,000003E6,false,Rx,0,2,50,00,00,00,00,00,00,00,
2604869,000000C3,false,Rx,0,8,A0,71,00,40,00,7D,FF,FF,
2605108,0000015F,false,Rx,0,8,F8,F2,00,7D,00,EE,00,7D,
2606901,0000013A,false,Rx,0,8,EA,F6,00,00,00,0E,FF,FF,
2607696,00000197,false,Rx,0,4,86,0A,0E,C0,00,00,00,00,
2609508,00000302,false,Rx,0,7,FF,FF,59,81,FE,FF,FF,00,
2611618,00000100,false,Rx,0,8,8D,FD,7F,C0,5D,05,87,70,
2612955,00000297,false,Rx,0,7,06,E6,F0,E0,F2,92,EA,00,
2613297,00000112,false,Rx,0,8,E0,24,03,0E,A0,71,C5,5A,
2614863,000000C3,false,Rx,0,8,47,72,00,40,00,7D,FF,FF,
2615102,000000EF,false,Rx,0,8,C2,F2,00,7D,21,00,7D,FF,
2615506,000001A1,false,Rx,0,5,AE,C7,00,00,8A,00,00,00,
2615991,00000140,false,Rx,0,8,AB,67,40,9C,00,00,04,FF,
2616220,00000141,false,Rx,0,8,C7,77,40,9C,00,00,F4,FF,
2616470,000003D8,false,Rx,0,8,03,FF,FF,FF,FF,FF,FF,FF,
2616709,00000163,false,Rx,0,8,FF,FF,15,25,FF,FF,FF,FF,
2616947,00000173,false,Rx,0,8,52,F4,00,0E,30,00,DE,10,
2617144,00000199,false,Rx,0,6,FF,FF,A4,7E,FF,3F,00,00,
2617354,0000019A,false,Rx,0,6,FF,FF,62,7F,FF,3F,00,00,
2617561,0000019F,false,Rx,0,6,FF,FF,FB,7F,FF,2F,00,00,
2617809,00000254,false,Rx,0,8,FF,7F,FF,7F,FF,7F,FF,7F,
2618049,0000021F,false,Rx,0,8,00,00,00,00,00,EE,F0,FF,
2618187,00000258,false,Rx,0,2,11,11,00,00,00,00,00,00,
2618383,000001E1,false,Rx,0,6,0C,F0,05,FF,FF,FF,00,00,
2618631,000007BD,false,Rx,0,8,00,00,00,40,FF,C0,01,08,
2618901,000007BE,false,Rx,0,8,05,00,00,00,00,00,00,E0,
2621637,00000100,false,Rx,0,8,6A,FE,7F,C0,5D,05,87,70,
2621875,000000A5,false,Rx,0,8,DC,FB,FF,F7,7F,00,00,C1,
2622123,000002C4,false,Rx,0,8,00,00,FF,00,C8,64,FF,CF,
2622249,000000AC,false,Rx,0,2,00,F0,00,00,00,00,00,00,
2622496,000000D9,false,Rx,0,8,90,FB,00,10,00,F0,7F,C0,
2622736,000000F3,false,Rx,0,8,BE,0B,00,FF,F0,C0,FF,FF,
2622943,00000304,false,Rx,0,6,FF,FF,D5,38,FF,FF,00,00,
2623182,000003F9,false,Rx,0,8,F3,F7,80,E0,A6,30,C3,FF,
2623410,00000112,false,Rx,0,8,DF,24,03,0E,A0,71,C5,5A,
2624862,00000201,false,Rx,0,8,0D,8C,86,2E,FF,FF,FF,FF,
2625102,0000015F,false,Rx,0,8,A5,F3,00,7D,00,EE,00,7D,
2625341,000000C3,false,Rx,0,8,1A,73,00,40,00,7D,FF,FF,
2625569,000000F5,false,Rx,0,7,DC,DC,00,82,00,82,00,00,
2625735,000000FF,false,Rx,0,4,E2,24,F0,00,00,00,00,00,
2626905,0000013A,false,Rx,0,8,EB,F8,00,00,00,0E,FF,FF,
2627957,00000272,false,Rx,0,8,BD,F8,05,12,FF,FF,FF,FF,
2630537,000006F1,false,Rx,0,5,07,03,22,DD,BF,00,00,00,
2631636,00000100,false,Rx,0,8,6B,F0,7F,C0,5D,05,87,70,
2633314,00000112,false,Rx,0,8,DF,24,03,0E,A0,71,C5,5A,
2633553,00000431,false,Rx,0,8,C6,FD,44,00,0E,9F,F7,00,
2634891,00000206,false,Rx,0,8,7D,29,C1,FF,FF,FF,FF,FF,
2635120,000000EF,false,Rx,0,8,9F,F3,00,7D,21,00,7D,FF,
2635370,000000C3,false,Rx,0,8,94,74,00,40,00,7D,FF,FF,
2635547,000001A1,false,Rx,0,5,5B,C9,00,00,8A,00,00,00,
2635785,00000201,false,Rx,0,8,10,8C,88,2E,FF,FF,FF,FF,
2636024,00000140,false,Rx,0,8,AA,69,40,9C,00,00,04,FF,
2636263,00000141,false,Rx,0,8,C6,79,40,9C,00,00,F4,FF,
2636460,00000199,false,Rx,0,6,FF,FF,86,7E,FF,3F,00,00,
2636668,0000019A,false,Rx,0,6,FF,FF,58,7F,FF,3F,00,00,
2636875,0000019F,false,Rx,0,6,FF,FF,FB,7F,FF,2F,00,00,
2637123,00000254,false,Rx,0,8,FF,7F,FF,7F,FF,7F,FF,7F,
2637250,00000258,false,Rx,0,2,11,11,00,00,00,00,00,00,
2637694,00000197,false,Rx,0,4,09,0B,0E,C0,00,00,00,00,
2639409,000000C0,false,Rx,0,2,F2,40,00,00,00,00,00,00,
2639657,0000003C,false,Rx,0,8,FF,5F,00,00,00,00,FF,FF,
2641502,000000A5,false,Rx,0,8,52,FC,FF,F7,7F,00,00,C1,
2641740,00000100,false,Rx,0,8,36,F1,7F,C0,5D,05,87,70,
2641875,000000AC,false,Rx,0,2,00,F0,00,00,00,00,00,00,
2642113,000000D9,false,Rx,0,8,1E,FC,00,10,00,F0,7F,C0,
2642363,000000F3,false,Rx,0,8,30,0C,00,FF,F0,C0,FF,FF,
2643296,00000112,false,Rx,0,8,DE,24,03,0E,A0,71,C5,5A,
2643535,00000432,false,Rx,0,8,3C,DA,15,BD,4D,7C,1B,BC,
2644884,000000C3,false,Rx,0,8,C9,75,00,40,00,7D,FF,FF,
2645123,0000015F,false,Rx,0,8,2B,F4,00,7D,00,EE,00,7D,
2646917,0000013A,false,Rx,0,8,51,FA,00,00,00,0E,FF,FF,
2649512,00000302,false,Rx,0,7,FF,FF,59,81,FE,FF,FF,00,
2649803,000001EE,false,Rx,0,2,00,FC,00,00,00,00,00,00,
2651635,00000100,false,Rx,0,8,D1,F2,7F,C0,5D,05,87,70,
2651873,000005E0,false,Rx,0,8,11,04,00,03,17,27,D4,00,
2653316,00000112,false,Rx,0,8,DC,24,03,0E,A0,71,C5,5A,
2654267,00000607,false,Rx,0,8,F1,10,07,62,DD,BF,0E,8D,
2654526,00000301,false,Rx,0,7,FF,FF,2C,81,FF,FF,CF,00,
2654692,000006F1,false,Rx,0,4,07,30,00,02,00,00,00,00,
2654942,000000C3,false,Rx,0,8,2E,76,00,40,00,7D,FF,FF,
2655182,000000EF,false,Rx,0,8,11,F4,00,7D,21,00,7D,FF,
2655338,00000607,false,Rx,0,4,F1,21,0E,9C,00,00,00,00,
2655524,000001A1,false,Rx,0,5,7C,CB,00,00,8A,00,00,00,
2655989,00000140,false,Rx,0,8,10,6B,40,9C,00,00,04,FF,
2656228,00000141,false,Rx,0,8,7C,7B,40,9C,00,00,F4,FF,
2656436,00000199,false,Rx,0,6,FF,FF,86,7E,FF,3F,00,00,
