Time Stamp,ID,Extended,Dir,Bus,LEN,D1,D2,D3,D4,D5,D6,D7,D8
2118766,000002E8,false,Rx,0,8,C0,E8,C3,FF,FF,F4,FB,C6,
2119449,000000EF,false,Rx,0,8,25,F1,00,7D,21,00,7D,FF,
2119994,000001A1,false,Rx,0,5,89,C5,00,00,8A,00,00,00,
2120233,000000C3,false,Rx,0,8,FD,70,00,40,00,7D,FF,FF,
2120461,00000112,false,Rx,0,8,D7,24,12,0E,B3,71,35,5A,
2120699,00000140,false,Rx,0,8,11,65,40,9C,00,00,04,FF,
2120939,00000141,false,Rx,0,8,7D,75,40,9C,00,00,F4,FF,
2121166,000002F5,false,Rx,0,8,BF,0F,E2,24,28,0A,06,10,
2122711,000001AE,false,Rx,0,2,F7,FF,00,00,00,00,00,00,
2125096,00000272,false,Rx,0,8,BC,F6,05,12,FF,FF,FF,FF,
2125816,000000A5,false,Rx,0,8,81,FA,FF,F7,7F,00,00,C1,
2126117,000000D9,false,Rx,0,8,CD,FA,00,10,00,F0,7F,C0,
2126243,000000AC,false,Rx,0,2,00,F0,00,00,00,00,00,00,
2126480,000000F3,false,Rx,0,8,E3,0A,00,FF,F0,C0,FF,FF,
2126667,000002A7,false,Rx,0,5,A9,FB,FE,FF,14,00,00,00,
2127080,00000100,false,Rx,0,8,53,FC,7F,C0,5D,0C,87,70,
2129520,0000015F,false,Rx,0,8,F8,F2,00,7D,00,EE,00,7D,
2130199,000000C3,false,Rx,0,8,A0,71,00,40,00,7D,FF,FF,
2130427,00000112,false,Rx,0,8,D8,24,12,0E,B3,71,35,5A,
2130665,00000348,false,Rx,0,8,B1,08,62,FE,FE,64,23,1B,
2131440,0000013A,false,Rx,0,8,EA,F6,00,00,00,0E,FF,FF,
2132640,00000199,false,Rx,0,6,FF,FF,7C,7E,FF,3F,00,00,
2132846,0000019A,false,Rx,0,6,FF,FF,58,7F,FF,3F,00,00,
2133055,0000019F,false,Rx,0,6,FF,FF,01,80,FF,2F,00,00,
2133293,00000254,false,Rx,0,8,FF,7F,FF,7F,FF,7F,FF,7F,
2133429,00000258,false,Rx,0,2,11,11,00,00,00,00,00,00,
2134020,00000197,false,Rx,0,4,00,05,0E,C0,00,00,00,00,
2135206,00000314,false,Rx,0,3,50,00,FF,00,00,00,00,00,
2137099,00000100,false,Rx,0,8,0E,FD,7F,C0,5D,0C,87,70,
2137524,00000302,false,Rx,0,7,FF,FF,59,81,FE,FF,FF,00,
2139441,000000EF,false,Rx,0,8,C2,F2,00,7D,21,00,7D,FF,
2139995,000001A1,false,Rx,0,5,AE,C7,00,00,8A,00,00,00,
2140233,00000206,false,Rx,0,8,AF,21,C1,FF,FF,FF,FF,FF,
2140461,00000112,false,Rx,0,8,D8,24,12,0E,B3,71,35,5A,
2140711,000000C3,false,Rx,0,8,47,72,00,40,00,7D,FF,FF,
2140939,00000140,false,Rx,0,8,AB,67,40,9C,00,00,04,FF,
2141178,00000141,false,Rx,0,8,C7,77,40,9C,00,00,F4,FF,
2145740,000002C4,false,Rx,0,8,00,00,FF,00,C8,64,FF,CF,
2145985,000000A5,false,Rx,0,8,DC,FB,FF,F7,7F,00,00,C1,
2146111,000000AC,false,Rx,0,2,00,F0,00,00,00,00,00,00,
2146360,000000D9,false,Rx,0,8,90,FB,00,10,00,F0,7F,C0,
2146598,000000F3,false,Rx,0,8,BE,0B,00,FF,F0,C0,FF,FF,
2147001,000007BD,false,Rx,0,8,00,00,00,40,FF,C0,01,00,
2147272,000007BE,false,Rx,0,8,0C,41,04,69,00,00,00,00,
2147510,00000100,false,Rx,0,8,E9,FE,7F,C0,5D,0C,87,70,
2149457,0000015F,false,Rx,0,8,A5,F3,00,7D,00,EE,00,7D,
2150197,000000C3,false,Rx,0,8,1A,73,00,40,00,7D,FF,FF,
2150425,00000112,false,Rx,0,8,D9,24,12,0E,B3,71,35,5A,
2150653,0000043D,false,Rx,0,8,62,15,E7,FF,21,56,08,F0,
2151438,0000013A,false,Rx,0,8,EB,F8,00,00,00,0E,FF,FF,
2152638,00000199,false,Rx,0,6,FF,FF,86,7E,FF,3F,00,00,
2152845,0000019A,false,Rx,0,6,FF,FF,58,7F,FF,3F,00,00,
2153042,0000019F,false,Rx,0,6,FF,FF,16,80,FF,2F,00,00,
2153292,00000254,false,Rx,0,8,FF,7F,FF,7F,FF,7F,FF,7F,
2153417,00000258,false,Rx,0,2,11,11,00,00,00,00,00,00,
2154534,00000163,false,Rx,0,8,FF,FF,15,25,FF,FF,FF,FF,
2154772,00000173,false,Rx,0,8,0F,F5,00,0E,30,00,DE,10,
2157131,00000100,false,Rx,0,8,E8,F0,7F,C0,5D,0C,87,70,
2159438,000000EF,false,Rx,0,8,9F,F3,00,7D,21,00,7D,FF,
2159981,000001A1,false,Rx,0,5,5B,C9,00,00,8A,00,00,00,
2160220,000000C3,false,Rx,0,8,94,74,00,40,00,7D,FF,FF,
2160448,00000112,false,Rx,0,8,D8,24,12,0E,B3,71,35,5A,
2160687,00000140,false,Rx,0,8,AA,69,40,9C,00,00,04,FF,
2160925,00000141,false,Rx,0,8,C6,79,40,9C,00,00,F4,FF,
2161163,00000201,false,Rx,0,8,E6,C6,59,69,FF,FF,FF,FF,
2164017,00000197,false,Rx,0,4,8C,06,0E,C0,00,00,00,00,
2165786,000000A5,false,Rx,0,8,52,FC,FF,F7,7F,00,00,C1,
2166083,000000D9,false,Rx,0,8,1E,FC,00,10,00,F0,7F,C0,
2166220,000000AC,false,Rx,0,2,00,F0,00,00,00,00,00,00,
2166457,000000F3,false,Rx,0,8,30,0C,00,FF,F0,C0,FF,FF,
2166643,0000036E,false,Rx,0,5,A0,F6,FE,FF,14,00,00,00,
2167057,00000100,false,Rx,0,8,B5,F1,7F,C0,5D,0C,87,70,
2169463,0000015F,false,Rx,0,8,2B,F4,00,7D,00,EE,00,7D,
2170224,000000C3,false,Rx,0,8,C9,75,00,40,00,7D,FF,FF,
2170441,00000112,false,Rx,0,8,DA,24,12,0E,B3,71,35,5A,
2170691,0000043C,false,Rx,0,8,FE,FE,FF,FF,FF,FF,FF,FF,
2171446,0000013A,false,Rx,0,8,51,FA,00,00,00,0E,FF,FF,
2172552,00000199,false,Rx,0,6,FF,FF,86,7E,FF,3F,00,00,
2172759,0000019A,false,Rx,0,6,FF,FF,58,7F,FF,3F,00,00,
2172967,0000019F,false,Rx,0,6,FF,FF,05,80,FF,2F,00,00,
2173216,00000254,false,Rx,0,8,FF,7F,FF,7F,FF,7F,FF,7F,
2173341,00000258,false,Rx,0,2,11,11,00,00,00,00,00,00,
2175157,0000029E,false,Rx,0,8,47,D0,11,C6,07,FF,FF,FF,
2177176,00000100,false,Rx,0,8,52,F2,7F,C0,5D,0C,87,70,
2177506,00000302,false,Rx,0,7,FF,FF,59,81,FE,FF,FF,00,
2179444,000000EF,false,Rx,0,8,11,F4,00,7D,21,00,7D,FF,
2179981,000001A1,false,Rx,0,5,7C,CB,00,00,8A,00,00,00,
2180228,00000206,false,Rx,0,8,48,22,C1,FF,FF,FF,FF,FF,
2180446,00000112,false,Rx,0,8,DB,24,12,0E,B3,71,35,5A,
2180695,000000C3,false,Rx,0,8,2E,76,00,40,00,7D,FF,FF,
2180934,00000140,false,Rx,0,8,10,6B,40,9C,00,00,04,FF,
2181172,00000141,false,Rx,0,8,7C,7B,40,9C,00,00,F4,FF,
2185162,000002B2,false,Rx,0,8,1A,0E,E2,04,FF,0F,FF,FF,
2185984,000000A5,false,Rx,0,8,0F,FD,FF,F7,7F,00,00,C1,
2186120,000000AC,false,Rx,0,2,00,F0,00,00,00,00,00,00,
2186359,000000D9,false,Rx,0,8,43,FD,00,10,00,F0,7F,C0,
2186597,000000F3,false,Rx,0,8,6D,0D,00,FF,F0,C0,FF,FF,
2187073,00000100,false,Rx,0,8,0F,F3,7F,C0,5D,0C,87,70,
2187449,0000036F,false,Rx,0,5,F2,F7,FE,FF,14,00,00,00,
2189456,0000015F,false,Rx,0,8,76,F5,00,7D,00,EE,00,7D,
2190200,000000C3,false,Rx,0,8,73,77,00,40,00,7D,FF,FF,
2190428,00000112,false,Rx,0,8,DD,24,12,0E,B3,71,45,5A,
2191441,0000013A,false,Rx,0,8,82,FC,00,00,00,0E,FF,FF,
2192617,00000199,false,Rx,0,6,FF,FF,90,7E,FF,3F,00,00,
2192824,0000019A,false,Rx,0,6,FF,FF,58,7F,FF,3F,00,00,
2193032,0000019F,false,Rx,0,6,FF,FF,20,80,FF,2F,00,00,
2193273,00000254,false,Rx,0,8,FF,7F,FF,7F,FF,7F,FF,7F,
2193408,00000258,false,Rx,0,2,11,11,00,00,00,00,00,00,
2194016,00000197,false,Rx,0,4,03,07,0E,C0,00,00,00,00,
2195171,000002EF,false,Rx,0,8,F4,01,14,C0,12,00,C0,FC,
2196916,000007BE,false,Rx,0,8,00,C0,FA,1C,02,00,00,00,
2197145,00000100,false,Rx,0,8,81,F4,7F,C0,5D,0C,87,70,
2199155,00000239,false,Rx,0,8,70,22,39,EA,04,FF,FF,FF,
2199452,000000EF,false,Rx,0,8,4C,F5,00,7D,21,00,7D,FF,
2199989,000001A1,false,Rx,0,5,15,CD,00,00,8A,00,00,00,
2200238,00000108,false,Rx,0,8,00,7D,FF,FF,47,F1,FF,FF,
2200466,00000112,false,Rx,0,8,DD,24,12,0E,B3,71,45,5A,
2200705,00000140,false,Rx,0,8,C3,6D,40,9C,00,00,04,FF,
2200944,00000141,false,Rx,0,8,AF,7D,40,9C,00,00,F4,FF,
2201130,000003FD,false,Rx,0,5,FA,04,00,00,FF,00,00,00,
2201378,000000C3,false,Rx,0,8,2F,78,00,40,00,7D,FF,FF,
2201606,000000F5,false,Rx,0,7,DC,DC,00,82,00,82,00,00,
2201772,000000FF,false,Rx,0,4,E2,24,F0,00,00,00,00,00,
2202020,00000201,false,Rx,0,8,EF,C6,61,69,FF,FF,FF,FF,
2202271,00000212,false,Rx,0,8,A4,F7,F9,FF,FF,FF,FF,FF,
2202540,000002DB,false,Rx,0,8,FF,FF,FF,FF,BF,FF,FF,FF,
2202788,000002F1,false,Rx,0,8,37,10,7D,92,01,73,00,A0,
2206038,000000A5,false,Rx,0,8,E8,FE,FF,F7,7F,00,00,C1,
2206170,000000AC,false,Rx,0,2,00,F0,00,00,00,00,00,00,
2206408,000000D9,false,Rx,0,8,A4,FE,00,10,00,F0,7F,C0,
2206646,000000F3,false,Rx,0,8,8A,0E,00,FF,F0,C0,FF,FF,
2206824,000002A7,false,Rx,0,5,5D,FC,FE,FF,14,00,00,00,
2207134,00000100,false,Rx,0,8,DC,F5,7F,C0,5D,0C,87,70,
2209387,000000C0,false,Rx,0,2,F0,40,00,00,00,00,00,00,
2209634,0000003C,false,Rx,0,8,FF,5F,00,00,00,00,FF,FF,
2209884,0000015F,false,Rx,0,8,91,F6,00,7D,00,EE,00,7D,
2210215,000000C3,false,Rx,0,8,72,79,00,40,00,7D,FF,FF,
2210443,00000112,false,Rx,0,8,E0,24,12,0E,B3,71,45,5A,
2210682,00000201,false,Rx,0,8,F1,C6,64,69,FF,FF,FF,FF,
2211508,0000013A,false,Rx,0,8,38,FE,00,00,00,0E,FF,FF,
2211808,000002C5,false,Rx,0,7,E2,FB,00,60,06,70,C8,00,
2212639,00000199,false,Rx,0,6,FF,FF,90,7E,FF,3F,00,00,
2212846,0000019A,false,Rx,0,6,FF,FF,58,7F,FF,3F,00,00,
2213054,0000019F,false,Rx,0,6,FF,FF,00,80,FF,2F,00,00,
2213303,00000254,false,Rx,0,8,FF,7F,FF,7F,FF,7F,FF,7F,
2213428,00000258,false,Rx,0,2,11,11,00,00,00,00,00,00,
2213790,0000012F,false,Rx,0,8,58,2C,86,1B,F1,35,30,00,
2216438,000002BB,false,Rx,0,5,4C,F0,D1,7F,F2,00,00,00,
2216681,00000289,false,Rx,0,8,B2,FD,E0,FF,FD,00,EC,01,
2217250,00000100,false,Rx,0,8,3B,F6,7F,C0,5D,0C,87,70,
2217520,00000302,false,Rx,0,7,FF,FF,59,81,FE,FF,FF,00,
2218778,000002E8,false,Rx,0,8,C0,E8,C3,FF,FF,F4,FC,95,
2219450,000000EF,false,Rx,0,8,AB,F6,00,7D,21,00,7D,FF,
2219998,000001A1,false,Rx,0,5,5A,C0,00,00,8A,00,00,00,
2220237,00000206,false,Rx,0,8,15,23,C1,FF,FF,FF,FF,FF,
2220465,00000112,false,Rx,0,8,DF,24,12,0E,B3,71,45,5A,
2220708,000000C3,false,Rx,0,8,95,7A,00,40,00,7D,FF,FF,
2220947,00000140,false,Rx,0,8,25,60,40,9C,00,00,04,FF,
2221186,00000141,false,Rx,0,8,49,70,40,9C,00,00,F4,FF,
2221415,000002F5,false,Rx,0,8,BF,0F,E2,24,28,0A,06,10,
2222696,000001AE,false,Rx,0,2,F7,FF,00,00,00,00,00,00,
2224015,00000197,false,Rx,0,4,85,08,0E,C0,00,00,00,00,
2225786,000000A5,false,Rx,0,8,E9,F0,FF,F7,7F,00,00,C1,
2226087,000000D9,false,Rx,0,8,A5,F0,00,10,00,F0,7F,C0,
2226214,000000AC,false,Rx,0,2,00,F0,00,00,00,00,00,00,
2226451,000000F3,false,Rx,0,8,8B,00,00,FF,F0,C0,FF,FF,
2227052,00000100,false,Rx,0,8,66,F7,7F,C0,5D,0C,87,70,
2227570,0000031C,false,Rx,0,8,FF,FF,FF,FF,FF,FF,FF,FF,
2227777,0000033B,false,Rx,0,6,62,FD,DC,FF,FF,FF,00,00,
2229520,0000015F,false,Rx,0,8,CC,F7,00,7D,00,EE,00,7D,
2230203,000000C3,false,Rx,0,8,C8,7B,00,40,00,7D,FF,FF,
2230430,00000112,false,Rx,0,8,E1,24,12,0E,B3,71,45,5A,
2231433,0000013A,false,Rx,0,8,64,F1,00,00,00,0E,FF,FF,
2232615,00000199,false,Rx,0,6,FF,FF,72,7E,FF,3F,00,00,
2232811,0000019A,false,Rx,0,6,FF,FF,58,7F,FF,3F,00,00,
2233030,0000019F,false,Rx,0,6,FF,FF,07,80,FF,2F,00,00,
2233269,00000254,false,Rx,0,8,FF,7F,FF,7F,FF,7F,FF,7F,
2233404,00000258,false,Rx,0,2,11,11,00,00,00,00,00,00,
2236903,00000100,false,Rx,0,8,3A,F8,7F,C0,5D,0C,87,70,
2237426,00000297,false,Rx,0,7,CC,E5,F0,E0,F2,92,EA,00,
2239433,000000EF,false,Rx,0,8,F6,F7,00,7D,21,00,7D,FF,
2239981,000001A1,false,Rx,0,5,7D,C2,00,00,8A,00,00,00,
2240230,000000C3,false,Rx,0,8,46,7C,00,40,00,7D,FF,FF,
2240457,00000112,false,Rx,0,8,E0,24,12,0E,B3,71,45,5A,
2240697,00000140,false,Rx,0,8,9F,62,40,9C,00,00,04,FF,
2240935,00000141,false,Rx,0,8,F3,72,40,9C,00,00,F4,FF,
2241169,00000239,false,Rx,0,8,70,22,39,EA,04,FF,FF,FF,
2243765,000001E1,false,Rx,0,6,1A,FE,05,FF,FF,FF,00,00,
2246008,000002C4,false,Rx,0,8,00,00,FF,00,C8,64,FF,CF,
2246248,000000A5,false,Rx,0,8,B4,F1,FF,F7,7F,00,00,C1,
2246383,000000AC,false,Rx,0,2,00,F0,00,00,00,00,00,00,
2246620,000000D9,false,Rx,0,8,F8,F1,00,10,00,F0,7F,C0,
2246860,000000F3,false,Rx,0,8,D6,01,00,FF,F0,C0,FF,FF,
2247071,00000304,false,Rx,0,6,FF,FF,D7,38,FF,FF,00,00,
2247299,00000100,false,Rx,0,8,67,F9,7F,C0,5D,0C,87,70,
2247549,000007BD,false,Rx,0,8,00,00,00,40,FF,C0,01,00,
2247818,000007BE,false,Rx,0,8,05,00,00,00,00,00,00,E0,
2249461,0000015F,false,Rx,0,8,90,F8,00,7D,00,EE,00,7D,
2250225,000000C3,false,Rx,0,8,1B,7D,00,40,00,7D,FF,FF,
2250453,00000112,false,Rx,0,8,E2,24,12,0E,B3,71,45,5A,
2251435,0000013A,false,Rx,0,8,DE,F3,00,00,00,0E,FF,FF,
2252560,00000199,false,Rx,0,6,FF,FF,90,7E,FF,3F,00,00,
2252766,0000019A,false,Rx,0,6,FF,FF,58,7F,FF,3F,00,00,
2252975,0000019F,false,Rx,0,6,FF,FF,F6,7F,FF,2F,00,00,
2253226,00000254,false,Rx,0,8,FF,7F,FF,7F,FF,7F,FF,7F,
2253351,00000258,false,Rx,0,2,11,11,00,00,00,00,00,00,
2254021,00000197,false,Rx,0,4,0A,09,0E,C0,00,00,00,00,
2255495,00000163,false,Rx,0,8,FF,FF,15,25,FF,FF,FF,FF,
2255733,00000173,false,Rx,0,8,3B,F0,00,0E,30,00,DE,10,
2257103,00000100,false,Rx,0,8,80,FA,7F,C0,5D,0C,87,70,
2257518,00000302,false,Rx,0,7,FF,FF,59,81,FE,FF,FF,00,
2259506,000000EF,false,Rx,0,8,AA,F8,00,7D,21,00,7D,FF,
2260043,000001A1,false,Rx,0,5,14,C4,00,00,8A,00,00,00,
2260282,00000206,false,Rx,0,8,9B,24,C1,FF,FF,FF,FF,FF,
2260511,00000112,false,Rx,0,8,E1,24,12,0E,B3,71,45,5A,
2260749,000000C3,false,Rx,0,8,FC,7E,00,40,00,7D,FF,FF,
2260988,00000140,false,Rx,0,8,4C,64,40,9C,00,00,04,FF,
2261233,00000141,false,Rx,0,8,20,74,40,9C,00,00,F4,FF,
2261473,00000201,false,Rx,0,8,FB,C6,6E,69,FF,FF,FF,FF,
2261701,00000431,false,Rx,0,8,C6,FD,43,00,0E,9F,F7,00,
2263094,000002F0,false,Rx,0,3,35,DD,F0,00,00,00,00,00,
2263314,000002F9,false,Rx,0,7,00,00,00,08,77,C0,F3,00,
2265980,000000A5,false,Rx,0,8,53,F2,FF,F7,7F,00,00,C1,
2266115,000000AC,false,Rx,0,2,00,F0,00,00,00,00,00,00,
2266354,000000D9,false,Rx,0,8,1F,F2,00,10,00,F0,7F,C0,
2266592,000000F3,false,Rx,0,8,31,02,00,FF,F0,C0,FF,FF,
2267088,00000100,false,Rx,0,8,DD,FB,7F,C0,5D,0C,87,70,
2269466,0000015F,false,Rx,0,8,CD,F9,00,7D,00,EE,00,7D,
2270206,000000C3,false,Rx,0,8,FD,70,00,40,00,7D,FF,FF,
2270423,00000112,false,Rx,0,8,E2,24,12,0E,B3,71,45,5A,
2270653,00000432,false,Rx,0,8,AC,DA,15,BD,51,7C,2E,BC,
2271438,0000013A,false,Rx,0,8,0D,F5,00,00,00,0E,FF,FF,
2272606,00000199,false,Rx,0,6,FF,FF,90,7E,FF,3F,00,00,
2272814,0000019A,false,Rx,0,6,FF,FF,58,7F,FF,3F,00,00,
2273021,0000019F,false,Rx,0,6,FF,FF,19,80,FF,2F,00,00,
2273270,00000254,false,Rx,0,8,FF,7F,FF,7F,FF,7F,FF,7F,
2273395,00000258,false,Rx,0,2,11,11,00,00,00,00,00,00,
2275256,0000029E,false,Rx,0,8,47,D0,11,C6,07,FF,FF,FF,
2277148,00000100,false,Rx,0,8,53,FC,7F,C0,5D,0C,87,70,
2279436,000000EF,false,Rx,0,8,F7,F9,00,7D,21,00,7D,FF,
2279979,000001A1,false,Rx,0,5,33,C6,00,00,8A,00,00,00,
2280218,000000C3,false,Rx,0,8,A0,71,00,40,00,7D,FF,FF,
2280446,00000112,false,Rx,0,8,E1,24,12,0E,B3,71,45,5A,
2280685,00000140,false,Rx,0,8,F6,66,40,9C,00,00,04,FF,
2280923,00000141,false,Rx,0,8,9A,76,40,9C,00,00,F4,FF,
2284024,00000197,false,Rx,0,4,86,0A,0E,C0,00,00,00,00,
2285268,000002B2,false,Rx,0,8,1A,0E,E2,04,FF,0F,FF,FF,
2285496,00000301,false,Rx,0,7,FF,FF,2C,81,FF,FF,CF,00,
2285734,000003B4,false,Rx,0,8,00,00,0D,F4,BD,FF,09,B0,
2286004,000000A5,false,Rx,0,8,0E,F3,FF,F7,7F,00,00,C1,
2286132,000000AC,false,Rx,0,2,00,F0,00,00,00,00,00,00,
2286370,000000D9,false,Rx,0,8,42,F3,00,10,00,F0,7F,C0,
2286608,000000F3,false,Rx,0,8,6C,03,00,FF,F0,C0,FF,FF,
2286796,000002A7,false,Rx,0,5,C0,FD,FE,FF,14,00,00,00,
2287054,00000100,false,Rx,0,8,0E,FD,7F,C0,5D,0C,87,70,
2289451,0000015F,false,Rx,0,8,2A,FA,00,7D,00,EE,00,7D,
2290221,000000C3,false,Rx,0,8,47,72,00,40,00,7D,FF,FF,
2290450,00000112,false,Rx,0,8,DF,24,12,0E,B3,71,45,5A,
2291431,0000013A,false,Rx,0,8,B7,F7,00,00,00,0E,FF,FF,
2292638,00000199,false,Rx,0,6,FF,FF,86,7E,FF,3F,00,00,
2292846,0000019A,false,Rx,0,6,FF,FF,58,7F,FF,3F,00,00,
2293053,0000019F,false,Rx,0,6,FF,FF,F8,7F,FF,2F,00,00,
2293302,00000254,false,Rx,0,8,FF,7F,FF,7F,FF,7F,FF,7F,
2293427,00000258,false,Rx,0,2,11,11,00,00,00,00,00,00,
2295277,000002EF,false,Rx,0,8,F4,01,14,C0,12,00,C0,FC,
2295422,00000314,false,Rx,0,3,50,00,FF,00,00,00,00,00,
2296883,00000100,false,Rx,0,8,E9,FE,7F,C0,5D,0C,87,70,
2297122,000007BD,false,Rx,0,8,01,2D,55,7F,49,58,58,00,
2297383,000007BE,false,Rx,0,8,07,72,2E,E0,06,67,00,00,
2297611,00000302,false,Rx,0,7,FF,FF,59,81,FE,FF,FF,00,
2299129,00000239,false,Rx,0,8,70,23,39,EA,04,FF,FF,FF,
2299450,000000EF,false,Rx,0,8,10,FA,00,7D,21,00,7D,FF,
2299987,000001A1,false,Rx,0,5,C6,C8,00,00,8A,00,00,00,
2300226,00000108,false,Rx,0,8,00,7D,FF,FF,47,F1,FF,FF,
2300465,00000112,false,Rx,0,8,DF,24,12,0E,B3,71,45,5A,
2300693,00000140,false,Rx,0,8,F7,68,40,9C,00,00,04,FF,
2300932,00000141,false,Rx,0,8,9B,78,40,9C,00,00,F4,FF,
2301118,000003FD,false,Rx,0,5,67,05,00,00,FF,00,00,00,
2301369,000000C3,false,Rx,0,8,1A,73,00,40,00,7D,FF,FF,
2301618,000001B5,false,Rx,0,8,36,4D,C2,70,FF,FF,FF,FF,
2301866,00000206,false,Rx,0,8,C6,25,C1,FF,FF,FF,FF,FF,
2302116,00000212,false,Rx,0,8,F8,F8,F9,FF,FF,FF,FF,FF,
2302368,000002DB,false,Rx,0,8,FF,FF,FF,FF,BF,FF,FF,FF,
2302627,000002F1,false,Rx,0,8,37,10,7D,92,01,73,00,A0,
2302876,0000032B,false,Rx,0,8,FF,FF,FF,FF,FF,FF,00,FF,
2303125,00000331,false,Rx,0,8,FF,FF,FF,EF,7F,FE,F7,FF,
2303354,000003E9,false,Rx,0,8,5C,8F,21,A1,7C,7D,20,4A,
2306049,000000A5,false,Rx,0,8,80,F4,FF,F7,7F,00,00,C1,
2306186,000000AC,false,Rx,0,2,00,F0,00,00,00,00,00,00,
2306420,000000D9,false,Rx,0,8,CC,F4,00,10,00,F0,7F,C0,
2306660,000000F3,false,Rx,0,8,E2,04,00,FF,F0,C0,FF,FF,
2307165,00000100,false,Rx,0,8,E8,F0,7F,C0,5D,0C,87,70,
2309466,0000003C,false,Rx,0,8,FF,5F,00,00,00,00,FF,FF,
2309706,0000015F,false,Rx,0,8,77,FB,00,7D,00,EE,00,7D,
2310202,000000C3,false,Rx,0,8,94,74,00,40,00,7D,FF,FF,
2310431,00000112,false,Rx,0,8,DC,24,12,0E,B3,71,45,5A,
2310669,00000201,false,Rx,0,8,06,C7,79,69,FF,FF,FF,FF,
2311506,0000013A,false,Rx,0,8,B6,F9,00,00,00,0E,FF,FF,
2311826,0000019D,false,Rx,0,8,C8,32,8E,01,FF,FF,FF,FF,
2312065,000002C5,false,Rx,0,7,2D,FC,00,60,06,70,C8,00,
2312648,00000199,false,Rx,0,6,FF,FF,90,7E,FF,3F,00,00,
2312856,0000019A,false,Rx,0,6,FF,FF,4E,7F,FF,3F,00,00,
2313063,0000019F,false,Rx,0,6,FF,FF,10,80,FF,2F,00,00,
2313302,00000254,false,Rx,0,8,FF,7F,FF,7F,FF,7F,FF,7F,
2313437,00000258,false,Rx,0,2,11,11,00,00,00,00,00,00,
2313799,0000012F,false,Rx,0,8,05,2D,86,1B,F1,35,30,00,
2314037,00000197,false,Rx,0,4,09,0B,0E,C0,00,00,00,00,
2315169,00000349,false,Rx,0,5,FE,FF,FE,FF,00,00,00,00,
2315397,000003C3,false,Rx,0,8,87,1C,08,92,20,08,A2,28,
2316448,000002BB,false,Rx,0,5,F7,FA,D1,7F,F2,00,00,00,
2316687,00000289,false,Rx,0,8,55,FE,E0,FF,FD,00,EC,01,
2317245,00000100,false,Rx,0,8,B5,F1,7F,C0,5D,0C,87,70,
2318771,000002E8,false,Rx,0,8,C0,E8,C3,FF,FF,F4,FD,88,
2319525,000000EF,false,Rx,0,8,4D,FB,00,7D,21,00,7D,FF,
2320073,000001A1,false,Rx,0,5,E1,CA,00,00,8A,00,00,00,
2320312,000000C3,false,Rx,0,8,C9,75,00,40,00,7D,FF,FF,
2320532,00000112,false,Rx,0,8,DC,24,12,0E,B3,71,45,5A,
2320771,00000140,false,Rx,0,8,4D,6A,40,9C,00,00,04,FF,
2321009,00000141,false,Rx,0,8,21,7A,40,9C,00,00,F4,FF,
2321239,000002F5,false,Rx,0,8,BF,0F,E2,24,28,0A,06,10,
2322684,000001AE,false,Rx,0,2,F7,FF,00,00,00,00,00,00,
2325309,00000272,false,Rx,0,8,E1,F7,05,12,FF,FF,FF,FF,
2325990,000000A5,false,Rx,0,8,DD,F5,FF,F7,7F,00,00,C1,
2326126,000000AC,false,Rx,0,2,00,F0,00,00,00,00,00,00,
2326374,000000D9,false,Rx,0,8,91,F5,00,10,00,F0,7F,C0,
2326615,000000F3,false,Rx,0,8,BF,05,00,FF,F0,C0,FF,FF,
2326792,0000036E,false,Rx,0,5,3D,F7,FE,FF,14,00,00,00,
2327101,00000100,false,Rx,0,8,52,F2,7F,C0,5D,0C,87,70,
2329545,0000015F,false,Rx,0,8,F9,FC,00,7D,00,EE,00,7D,
2330207,000000C3,false,Rx,0,8,2E,76,00,40,00,7D,FF,FF,
2330426,00000112,false,Rx,0,8,D7,24,12,0E,B3,71,45,5A,
2331437,0000013A,false,Rx,0,8,0C,FB,00,00,00,0E,FF,FF,
2332609,00000199,false,Rx,0,6,FF,FF,90,7E,FF,3F,00,00,
2332817,0000019A,false,Rx,0,6,FF,FF,58,7F,FF,3F,00,00,
2333014,0000019F,false,Rx,0,6,FF,FF,08,80,FF,2F,00,00,
2333263,00000254,false,Rx,0,8,FF,7F,FF,7F,FF,7F,FF,7F,
2333388,00000258,false,Rx,0,2,11,11,00,00,00,00,00,00,
2337105,00000100,false,Rx,0,8,0F,F3,7F,C0,5D,0C,87,70,
2337568,00000302,false,Rx,0,7,FF,FF,59,81,FE,FF,FF,00,
2339523,000000EF,false,Rx,0,8,C3,FC,00,7D,21,00,7D,FF,
2340060,000001A1,false,Rx,0,5,88,CC,00,00,8A,00,00,00,
2340299,00000206,false,Rx,0,8,21,26,C1,FF,FF,FF,FF,FF,
2340528,00000112,false,Rx,0,8,D8,24,12,0E,B3,71,45,5A,
2340766,000000C3,false,Rx,0,8,73,77,00,40,00,7D,FF,FF,
2341004,00000140,false,Rx,0,8,9E,6C,40,9C,00,00,04,FF,
2341241,00000141,false,Rx,0,8,F2,7C,40,9C,00,00,F4,FF,
2341933,00000246,false,Rx,0,6,3F,FB,00,FF,FF,FF,00,00,
2342244,00000299,false,Rx,0,8,FF,00,30,00,00,00,F0,00,
2344016,00000197,false,Rx,0,4,83,0C,0E,C0,00,00,00,00,
2345776,000002C4,false,Rx,0,8,00,00,FF,00,C8,64,FF,CF,
2346014,000000A5,false,Rx,0,8,3A,F6,FF,F7,7F,00,00,C1,
2346150,000000AC,false,Rx,0,2,00,F0,00,00,00,00,00,00,
2346389,000000D9,false,Rx,0,8,76,F6,00,10,00,F0,7F,C0,
2346628,000000F3,false,Rx,0,8,58,06,00,FF,F0,C0,FF,FF,
2346877,00000200,false,Rx,0,8,0D,00,33,00,00,00,00,FF,
2347105,00000100,false,Rx,0,8,81,F4,7F,C0,5D,0C,87,70,
2347353,000007BD,false,Rx,0,8,00,00,00,40,FF,C0,01,00,
2347540,0000036F,false,Rx,0,5,9A,F8,FE,FF,14,00,00,00,
2347788,000007BE,false,Rx,0,8,0B,00,00,00,00,00,00,00,
2349521,0000015F,false,Rx,0,8,A4,FD,00,7D,00,EE,00,7D,
2350203,000000C3,false,Rx,0,8,2F,78,00,40,00,7D,FF,FF,
2350432,00000112,false,Rx,0,8,D6,24,12,0E,B3,71,45,5A,
2351433,0000013A,false,Rx,0,8,DF,FD,00,00,00,0E,FF,FF,
2352579,00000199,false,Rx,0,6,FF,FF,90,7E,FF,3F,00,00,
2352787,0000019A,false,Rx,0,6,FF,FF,62,7F,FF,3F,00,00,
2352994,0000019F,false,Rx,0,6,FF,FF,FB,7F,FF,2F,00,00,
2353243,00000254,false,Rx,0,8,FF,7F,FF,7F,FF,7F,FF,7F,
2353372,00000258,false,Rx,0,2,11,11,00,00,00,00,00,00,
2355228,0000051A,false,Rx,0,8,00,00,00,00,50,00,00,1A,
2355505,00000163,false,Rx,0,8,FF,FF,15,25,FF,FF,FF,FF,
2355744,00000173,false,Rx,0,8,53,FA,00,0E,30,00,DE,10,
2356900,00000100,false,Rx,0,8,DC,F5,7F,C0,5D,0C,87,70,
2359541,000000EF,false,Rx,0,8,9E,FD,00,7D,21,00,7D,FF,
2360084,000001A1,false,Rx,0,5,AF,CE,00,00,8A,00,00,00,
2360323,000000C3,false,Rx,0,8,72,79,00,40,00,7D,FF,FF,
2360552,00000112,false,Rx,0,8,D8,24,12,0E,B3,71,45,5A,
2360790,00000140,false,Rx,0,8,24,6E,40,9C,00,00,04,FF,
2361028,00000141,false,Rx,0,8,48,7E,40,9C,00,00,F4,FF,
2361269,00000201,false,Rx,0,8,11,C7,84,69,FF,FF,FF,FF,
2365782,000000A5,false,Rx,0,8,67,F7,FF,F7,7F,00,00,C1,
2366078,000000D9,false,Rx,0,8,2B,F7,00,10,00,F0,7F,C0,
2366215,000000AC,false,Rx,0,2,00,F0,00,00,00,00,00,00,
2366452,000000F3,false,Rx,0,8,05,07,00,FF,F0,C0,FF,FF,
2366640,000002A7,false,Rx,0,5,7A,FE,FE,FF,14,00,00,00,
2367052,00000100,false,Rx,0,8,3B,F6,7F,C0,5D,0C,87,70,
2369458,0000015F,false,Rx,0,8,43,FE,00,7D,00,EE,00,7D,
2370199,000000C3,false,Rx,0,8,95,7A,00,40,00,7D,FF,FF,
2370428,00000112,false,Rx,0,8,D7,24,12,0E,B3,71,45,5A,
2371440,0000013A,false,Rx,0,8,39,F0,00,00,00,0E,FF,FF,
2372606,00000199,false,Rx,0,6,FF,FF,9A,7E,FF,3F,00,00,
2372814,0000019A,false,Rx,0,6,FF,FF,44,7F,FF,3F,00,00,
2373021,0000019F,false,Rx,0,6,FF,FF,09,80,FF,2F,00,00,
2373271,00000254,false,Rx,0,8,FF,7F,FF,7F,FF,7F,FF,7F,
2373396,00000258,false,Rx,0,2,11,11,00,00,00,00,00,00,
2374018,00000197,false,Rx,0,4,0C,0D,0E,C0,00,00,00,00,
2375040,000001D6,false,Rx,0,2,F0,C0,00,00,00,00,00,00,
2375360,0000029E,false,Rx,0,8,47,D0,11,C6,07,FF,FF,FF,
2376598,00000100,false,Rx,0,8,66,F7,7F,C0,5D,0C,87,70,
2377496,00000302,false,Rx,0,7,FF,FF,59,81,FE,FF,FF,00,
2379442,000000EF,false,Rx,0,8,79,FE,00,7D,21,00,7D,FF,
2379975,000001A1,false,Rx,0,5,C7,C1,00,00,8A,00,00,00,
2380224,00000206,false,Rx,0,8,7C,27,C1,FF,FF,FF,FF,FF,
2380453,00000112,false,Rx,0,8,D8,24,12,0E,B3,71,45,5A,
2380692,000000C3,false,Rx,0,8,C8,7B,00,40,00,7D,FF,FF,
2380930,00000140,false,Rx,0,8,78,61,40,9C,00,00,04,FF,
2381169,00000141,false,Rx,0,8,14,71,40,9C,00,00,F4,FF,
2385370,000002B2,false,Rx,0,8,1A,0E,E2,04,FF,0F,FF,FF,
2385985,000000A5,false,Rx,0,8,3B,F8,FF,F7,7F,00,00,C1,
2386111,000000AC,false,Rx,0,2,00,F0,00,00,00,00,00,00,
2386359,000000D9,false,Rx,0,8,77,F8,00,10,00,F0,7F,C0,
2386598,000000F3,false,Rx,0,8,59,08,00,FF,F0,C0,FF,FF,
2387073,00000100,false,Rx,0,8,3A,F8,7F,C0,5D,0C,87,70,
2389449,0000015F,false,Rx,0,8,42,F0,00,7D,00,EE,00,7D,
2390230,000000C3,false,Rx,0,8,46,7C,00,40,00,7D,FF,FF,
2390449,00000112,false,Rx,0,8,D9,24,12,0E,B3,71,45,5A,
2391440,0000013A,false,Rx,0,8,83,F2,00,00,00,0E,FF,FF,
2392606,00000199,false,Rx,0,6,FF,FF,A4,7E,FF,3F,00,00,
2392813,0000019A,false,Rx,0,6,FF,FF,58,7F,FF,3F,00,00,
2393020,0000019F,false,Rx,0,6,FF,FF,06,80,FF,2F,00,00,
2393270,00000254,false,Rx,0,8,FF,7F,FF,7F,FF,7F,FF,7F,
2393396,00000258,false,Rx,0,2,11,11,00,00,00,00,00,00,
2395379,000002EF,false,Rx,0,8,F4,01,14,C0,12,00,C0,FC,
2396901,000007BD,false,Rx,0,8,04,00,00,01,00,00,00,80,
2397139,00000100,false,Rx,0,8,67,F9,7F,C0,5D,0C,87,70,
2399138,00000239,false,Rx,0,8,70,25,39,EA,04,FF,FF,FF,
2399450,000000EF,false,Rx,0,8,78,F0,00,7D,21,00,7D,FF,
2399985,000001A1,false,Rx,0,5,E0,C3,00,00,8A,00,00,00,
2400235,00000108,false,Rx,0,8,00,7D,FF,FF,47,F1,FF,FF,
2400463,00000112,false,Rx,0,8,DA,24,12,0E,B3,71,45,5A,
2400702,00000140,false,Rx,0,8,C2,63,40,9C,00,00,04,FF,
2400929,00000141,false,Rx,0,8,AE,73,40,9C,00,00,F4,FF,
2401117,000003FD,false,Rx,0,5,DD,06,00,00,FF,00,00,00,
2401366,000000C3,false,Rx,0,8,1B,7D,00,40,00,7D,FF,FF,
2401623,00000212,false,Rx,0,8,A5,F9,F9,FF,FF,FF,FF,FF,
2401873,000002DB,false,Rx,0,8,FF,FF,FF,FF,BF,FF,FF,FF,
2402121,000002F1,false,Rx,0,8,37,10,7D,92,01,73,00,A0,
2404029,00000197,false,Rx,0,4,80,0E,0E,C0,00,00,00,00,
2406035,000000A5,false,Rx,0,8,66,F9,FF,F7,7F,00,00,C1,
2406160,000000AC,false,Rx,0,2,00,F0,00,00,00,00,00,00,
2406409,000000D9,false,Rx,0,8,2A,F9,00,10,00,F0,7F,C0,
2406648,000000F3,false,Rx,0,8,04,09,00,FF,F0,C0,FF,FF,
2407144,00000100,false,Rx,0,8,80,FA,7F,C0,5D,0C,87,70,
2409316,000000C0,false,Rx,0,2,F1,40,00,00,00,00,00,00,
2409564,0000003C,false,Rx,0,8,FF,5F,00,00,00,00,FF,FF,
2409810,0000015F,false,Rx,0,8,1F,F1,00,7D,00,EE,00,7D,
2410203,000000C3,false,Rx,0,8,FC,7E,00,40,00,7D,FF,FF,
2410432,00000112,false,Rx,0,8,DD,24,12,0E,B3,71,45,5A,
2410671,00000201,false,Rx,0,8,1C,C7,8F,69,FF,FF,FF,FF,
2411507,0000013A,false,Rx,0,8,50,F4,00,00,00,0E,FF,FF,
2411813,000002C5,false,Rx,0,7,6B,FD,00,60,06,70,C8,00,
2412340,000002ED,false,Rx,0,3,98,04,02,00,00,00,00,00,
2412732,00000199,false,Rx,0,6,FF,FF,A4,7E,FF,3F,00,00,
2412939,0000019A,false,Rx,0,6,FF,FF,58,7F,FF,3F,00,00,
2413146,0000019F,false,Rx,0,6,FF,FF,11,80,FF,2F,00,00,
2413386,00000254,false,Rx,0,8,FF,7F,FF,7F,FF,7F,FF,7F,
2413522,00000258,false,Rx,0,2,11,11,00,00,00,00,00,00,
2413807,0000012F,false,Rx,0,8,E2,2E,86,1B,F1,35,30,00,
2416444,000002BB,false,Rx,0,5,9F,F5,D1,7F,F2,00,00,00,
2416681,00000289,false,Rx,0,8,54,F0,E0,FF,FD,00,EC,01,
2417240,00000100,false,Rx,0,8,DD,FB,7F,C0,5D,0C,87,70,
2417571,00000302,false,Rx,0,7,FF,FF,59,81,FE,FF,FF,00,
2418770,000002E8,false,Rx,0,8,C0,E8,C3,FF,FF,F4,FE,AF,
2419451,000000EF,false,Rx,0,8,25,F1,00,7D,21,00,7D,FF,
2419997,000001A1,false,Rx,0,5,89,C5,00,00,8A,00,00,00,
2420246,00000206,false,Rx,0,8,20,28,C1,FF,FF,FF,FF,FF,
2420475,00000112,false,Rx,0,8,DA,24,12,0E,B3,71,45,5A,
2420713,000000C3,false,Rx,0,8,FD,70,00,40,00,7D,FF,FF,
2420951,00000140,false,Rx,0,8,11,65,40,9C,00,00,04,FF,
2421192,00000141,false,Rx,0,8,7D,75,40,9C,00,00,F4,FF,
2421420,000002F5,false,Rx,0,8,BF,0F,E2,24,28,0A,06,10,
2422770,000001AE,false,Rx,0,2,F7,FF,00,00,00,00,00,00,
2425807,000000A5,false,Rx,0,8,81,FA,FF,F7,7F,00,00,C1,
2426102,000000D9,false,Rx,0,8,CD,FA,00,10,00,F0,7F,C0,
2426230,000000AC,false,Rx,0,2,00,F0,00,00,00,00,00,00,
2426468,000000F3,false,Rx,0,8,E3,0A,00,FF,F0,C0,FF,FF,
2427076,00000100,false,Rx,0,8,53,FC,7F,C0,5D,0C,87,70,
2427594,0000031C,false,Rx,0,8,FF,FF,FF,FF,FF,FF,FF,FF,
2427791,0000033B,false,Rx,0,6,DC,FE,DC,FF,FF,FF,00,00,
2428015,000003A7,false,Rx,0,7,10,FA,00,00,1F,11,F0,00,
2428151,000003E6,false,Rx,0,2,50,00,00,00,00,00,00,00,
2429523,0000015F,false,Rx,0,8,F8,F2,00,7D,00,EE,00,7D,
2430225,000000C3,false,Rx,0,8,A0,71,00,40,00,7D,FF,FF,
2430454,00000112,false,Rx,0,8,DD,24,12,0E,B3,71,45,5A,
2431434,0000013A,false,Rx,0,8,EA,F6,00,00,00,0E,FF,FF,
2432611,00000199,false,Rx,0,6,FF,FF,90,7E,FF,3F,00,00,
2432818,0000019A,false,Rx,0,6,FF,FF,58,7F,FF,3F,00,00,
2433035,0000019F,false,Rx,0,6,FF,FF,FA,7F,FF,2F,00,00,
2433274,00000254,false,Rx,0,8,FF,7F,FF,7F,FF,7F,FF,7F,
2433401,00000258,false,Rx,0,2,11,11,00,00,00,00,00,00,
2434021,00000197,false,Rx,0,4,89,00,0E,C0,00,00,00,00,
2437139,00000100,false,Rx,0,8,0E,FD,7F,C0,5D,0C,87,70,
2437493,00000297,false,Rx,0,7,06,E6,F0,E0,F2,92,EA,00,
2439440,000000EF,false,Rx,0,8,C2,F2,00,7D,21,00,7D,FF,
2439983,000001A1,false,Rx,0,5,AE,C7,00,00,8A,00,00,00,
2440223,000000C3,false,Rx,0,8,47,72,00,40,00,7D,FF,FF,
2440451,00000112,false,Rx,0,8,DD,24,12,0E,B3,71,45,5A,
2440689,00000140,false,Rx,0,8,AB,67,40,9C,00,00,04,FF,
2440917,00000141,false,Rx,0,8,C7,77,40,9C,00,00,F4,FF,
2441156,00000239,false,Rx,0,8,70,25,39,EA,04,FF,FF,FF,
2441406,000003D8,false,Rx,0,8,03,FF,FF,FF,FF,FF,FF,FF,
2442477,0000021F,false,Rx,0,8,00,00,00,00,00,EE,F9,FF,
2443767,000001E1,false,Rx,0,6,0C,F0,05,FF,FF,FF,00,00,
2446012,000002C4,false,Rx,0,8,00,00,FF,00,C8,64,FF,CF,
2446248,000000A5,false,Rx,0,8,DC,FB,FF,F7,7F,00,00,C1,
2446384,000000AC,false,Rx,0,2,00,F0,00,00,00,00,00,00,
2446623,000000D9,false,Rx,0,8,90,FB,00,10,00,F0,7F,C0,
2446861,000000F3,false,Rx,0,8,BE,0B,00,FF,F0,C0,FF,FF,
2447037,000002A7,false,Rx,0,5,8F,F0,FE,FF,14,00,00,00,
2447247,00000304,false,Rx,0,6,FF,FF,D6,38,FF,FF,00,00,
2447484,00000100,false,Rx,0,8,E9,FE,7F,C0,5D,0C,87,70,
2447723,000003F9,false,Rx,0,8,20,F1,80,E0,A6,30,C3,FF,
2447972,000007BD,false,Rx,0,8,00,00,00,40,FF,C0,01,00,
2448245,000007BE,false,Rx,0,8,05,00,00,00,00,00,00,E0,
2449453,0000015F,false,Rx,0,8,A5,F3,00,7D,00,EE,00,7D,
2450193,00000201,false,Rx,0,8,25,C7,98,69,FF,FF,FF,FF,
2450433,00000112,false,Rx,0,8,DF,24,12,0E,B3,71,45,5A,
2450671,000000C3,false,Rx,0,8,1A,73,00,40,00,7D,FF,FF,
2450899,000000F5,false,Rx,0,7,DC,DC,00,82,00,82,00,00,
2451066,000000FF,false,Rx,0,4,E2,24,F0,00,00,00,00,00,
2451438,0000013A,false,Rx,0,8,EB,F8,00,00,00,0E,FF,FF,
2452549,00000199,false,Rx,0,6,FF,FF,86,7E,FF,3F,00,00,
2452756,0000019A,false,Rx,0,6,FF,FF,58,7F,FF,3F,00,00,
2452953,0000019F,false,Rx,0,6,FF,FF,0A,80,FF,2F,00,00,
2453203,00000254,false,Rx,0,8,FF,7F,FF,7F,FF,7F,FF,7F,
2453329,00000258,false,Rx,0,2,11,11,00,00,00,00,00,00,
2455104,00000314,false,Rx,0,3,50,00,FF,00,00,00,00,00,
2455497,00000163,false,Rx,0,8,FF,FF,15,25,FF,FF,FF,FF,
2455736,00000173,false,Rx,0,8,0F,F5,00,0E,30,00,DE,10,
2457107,00000100,false,Rx,0,8,E8,F0,7F,C0,5D,0C,87,70,
2457502,00000302,false,Rx,0,7,FF,FF,59,81,FE,FF,FF,00,
2459439,000000EF,false,Rx,0,8,9F,F3,00,7D,21,00,7D,FF,
2459975,000001A1,false,Rx,0,5,5B,C9,00,00,8A,00,00,00,
2460213,00000206,false,Rx,0,8,7D,29,C1,FF,FF,FF,FF,FF,
2460441,00000112,false,Rx,0,8,DE,24,12,0E,B3,71,45,5A,
2460689,000000C3,false,Rx,0,8,94,74,00,40,00,7D,FF,FF,
2460927,00000140,false,Rx,0,8,AA,69,40,9C,00,00,04,FF,
2461156,00000141,false,Rx,0,8,C6,79,40,9C,00,00,F4,FF,
2461396,00000201,false,Rx,0,8,27,C7,9A,69,FF,FF,FF,FF,
2461634,00000431,false,Rx,0,8,C6,FD,43,00,0E,9F,F7,00,
2464026,00000197,false,Rx,0,4,06,01,0E,C0,00,00,00,00,
2465794,000000A5,false,Rx,0,8,52,FC,FF,F7,7F,00,00,C1,
2466094,000000D9,false,Rx,0,8,1E,FC,00,10,00,F0,7F,C0,
2466229,000000AC,false,Rx,0,2,00,F0,00,00,00,00,00,00,
2466467,000000F3,false,Rx,0,8,30,0C,00,FF,F0,C0,FF,FF,
2467065,00000100,false,Rx,0,8,B5,F1,7F,C0,5D,0C,87,70,
2469458,0000015F,false,Rx,0,8,2B,F4,00,7D,00,EE,00,7D,
2470223,000000C3,false,Rx,0,8,C9,75,00,40,00,7D,FF,FF,
2470449,00000112,false,Rx,0,8,DD,24,12,0E,B3,71,45,5A,
2470677,00000432,false,Rx,0,8,AC,DA,15,BD,51,7C,2E,BC,
2471432,0000013A,false,Rx,0,8,51,FA,00,00,00,0E,FF,FF,
2473525,00000199,false,Rx,0,6,FF,FF,90,7E,FF,3F,00,00,
2473732,0000019A,false,Rx,0,6,FF,FF,58,7F,FF,3F,00,00,
2473950,0000019F,false,Rx,0,6,FF,FF,06,80,FF,2F,00,00,
2474190,00000254,false,Rx,0,8,FF,7F,FF,7F,FF,7F,FF,7F,
2474317,00000258,false,Rx,0,2,11,11,00,00,00,00,00,00,
2475193,000001EE,false,Rx,0,2,00,FC,00,00,00,00,00,00,
2475471,0000029E,false,Rx,0,8,47,D0,11,C6,07,FF,FF,FF,
2477235,00000100,false,Rx,0,8,52,F2,7F,C0,5D,0C,87,70,
2479438,000000EF,false,Rx,0,8,11,F4,00,7D,21,00,7D,FF,
2479974,000001A1,false,Rx,0,5,7C,CB,00,00,8A,00,00,00,
2480224,000000C3,false,Rx,0,8,2E,76,00,40,00,7D,FF,FF,
2480452,00000112,false,Rx,0,8,DD,24,12,0E,B3,71,45,5A,
2480690,00000140,false,Rx,0,8,10,6B,40,9C,00,00,04,FF,
2480930,00000141,false,Rx,0,8,7C,7B,40,9C,00,00,F4,FF,
2481179,000001D0,false,Rx,0,8,59,FB,DF,FF,FF,FF,FF,FF,
2481356,000001B9,false,Rx,0,5,FF,FF,FF,14,FF,00,00,00,
2485478,000002B2,false,Rx,0,8,1A,0E,E2,04,FF,0F,FF,FF,
2485755,000003B4,false,Rx,0,8,00,00,0D,F4,BD,FF,09,B0,
2486003,000000A5,false,Rx,0,8,0F,FD,FF,F7,7F,00,00,C1,
2486139,000000AC,false,Rx,0,2,00,F0,00,00,00,00,00,00,
2486378,000000D9,false,Rx,0,8,43,FD,00,10,00,F0,7F,C0,
2486616,000000F3,false,Rx,0,8,6D,0D,00,FF,F0,C0,FF,FF,
2486834,00000301,false,Rx,0,7,FF,FF,2C,81,FF,FF,CF,00,
2487073,00000100,false,Rx,0,8,0F,F3,7F,C0,5D,0C,87,70,
2487261,0000036E,false,Rx,0,5,55,F8,FE,FF,14,00,00,00,
2489447,0000015F,false,Rx,0,8,76,F5,00,7D,00,EE,00,7D,
2490197,000000C3,false,Rx,0,8,73,77,00,40,00,7D,FF,FF,
2490425,00000112,false,Rx,0,8,DB,24,12,0E,B3,71,55,5A,
2491436,0000013A,false,Rx,0,8,82,FC,00,00,00,0E,FF,FF,
2492644,00000199,false,Rx,0,6,FF,FF,90,7E,FF,3F,00,00,
2492851,0000019A,false,Rx,0,6,FF,FF,62,7F,FF,3F,00,00,
2493058,0000019F,false,Rx,0,6,FF,FF,E7,7F,FF,2F,00,00,
2493309,00000254,false,Rx,0,8,FF,7F,FF,7F,FF,7F,FF,7F,
2493434,00000258,false,Rx,0,2,11,11,00,00,00,00,00,00,
2494024,00000197,false,Rx,0,4,8A,02,0E,C0,00,00,00,00,
2495488,000002EF,false,Rx,0,8,F4,01,14,C0,12,00,C0,FC,
2496909,000007BE,false,Rx,0,8,0C,41,04,69,00,00,00,00,
2497138,00000100,false,Rx,0,8,81,F4,7F,C0,5D,0C,87,70,
2497512,00000302,false,Rx,0,7,FF,FF,59,81,FE,FF,FF,00,
2499161,00000239,false,Rx,0,8,70,26,39,EA,04,FF,FF,FF,
2499453,000000EF,false,Rx,0,8,4C,F5,00,7D,21,00,7D,FF,
2499988,000001A1,false,Rx,0,5,15,CD,00,00,8A,00,00,00,
2500228,00000108,false,Rx,0,8,00,7D,FF,FF,47,F1,FF,FF,
2500456,00000112,false,Rx,0,8,DC,24,12,0E,B3,71,55,5A,
2500694,00000140,false,Rx,0,8,C3,6D,40,9C,00,00,04,FF,
2500933,00000141,false,Rx,0,8,AF,7D,40,9C,00,00,F4,FF,
2501120,000003FD,false,Rx,0,5,40,07,00,00,FF,00,00,00,
2501369,000000C3,false,Rx,0,8,2F,78,00,40,00,7D,FF,FF,
2501636,000001B5,false,Rx,0,8,D1,4E,C2,70,FF,FF,FF,FF,
2501865,00000206,false,Rx,0,8,9A,2A,C1,FF,FF,FF,FF,FF,
2502124,00000212,false,Rx,0,8,42,FA,F9,FF,FF,FF,FF,FF,
2502373,000002DB,false,Rx,0,8,FF,FF,FF,FF,BF,FF,FF,FF,
2502623,000002F1,false,Rx,0,8,37,10,7D,92,01,73,00,A0,
2502871,0000032B,false,Rx,0,8,FF,FF,FF,FF,FF,FF,00,FF,
2503120,00000331,false,Rx,0,8,FF,FF,FF,EF,7F,FE,F7,FF,
2503350,000003E9,false,Rx,0,8,5C,8F,21,A1,7C,7D,20,4A,
2506043,000000A5,false,Rx,0,8,E8,FE,FF,F7,7F,00,00,C1,
2506185,000000AC,false,Rx,0,2,00,F0,00,00,00,00,00,00,
2506424,000000D9,false,Rx,0,8,A4,FE,00,10,00,F0,7F,C0,
2506662,000000F3,false,Rx,0,8,8A,0E,00,FF,F0,C0,FF,FF,
2507148,00000100,false,Rx,0,8,DC,F5,7F,C0,5D,0C,87,70,
2507397,0000036F,false,Rx,0,5,07,F9,FE,FF,14,00,00,00,
2509463,0000003C,false,Rx,0,8,FF,5F,00,00,00,00,FF,FF,
2509702,0000015F,false,Rx,0,8,91,F6,00,7D,00,EE,00,7D,
2510207,000000C3,false,Rx,0,8,72,79,00,40,00,7D,FF,FF,
2510435,00000112,false,Rx,0,8,D9,24,12,0E,B3,71,55,5A,
2510673,00000201,false,Rx,0,8,32,C7,A5,69,FF,FF,FF,FF,
2511500,0000013A,false,Rx,0,8,38,FE,00,00,00,0E,FF,FF,
2511811,000002C5,false,Rx,0,7,A1,FE,00,60,06,70,C8,00,
2512632,00000199,false,Rx,0,6,FF,FF,9A,7E,FF,3F,00,00,
2512839,0000019A,false,Rx,0,6,FF,FF,58,7F,FF,3F,00,00,
2513046,0000019F,false,Rx,0,6,FF,FF,F7,7F,FF,2F,00,00,
2513296,00000254,false,Rx,0,8,FF,7F,FF,7F,FF,7F,FF,7F,
2513421,00000258,false,Rx,0,2,11,11,00,00,00,00,00,00,
2513802,0000012F,false,Rx,0,8,E3,20,86,1B,F1,35,30,00,
2515138,00000349,false,Rx,0,5,FE,FF,FE,FF,00,00,00,00,
2516435,000002BB,false,Rx,0,5,4C,F0,D1,7F,F2,00,00,00,
2516672,00000289,false,Rx,0,8,09,F1,E0,FF,FD,00,EC,01,
2517252,00000100,false,Rx,0,8,3B,F6,7F,C0,5D,0C,87,70,
2518768,000002E8,false,Rx,0,8,C0,E8,C3,FF,FF,F4,F0,09,
2519441,000000EF,false,Rx,0,8,AB,F6,00,7D,21,00,7D,FF,
2519988,000001A1,false,Rx,0,5,5A,C0,00,00,8A,00,00,00,
2520228,000000C3,false,Rx,0,8,95,7A,00,40,00,7D,FF,FF,
2520456,00000112,false,Rx,0,8,DA,24,12,0E,B3,71,55,5A,
2520694,00000140,false,Rx,0,8,25,60,40,9C,00,00,04,FF,
2520933,00000141,false,Rx,0,8,49,70,40,9C,00,00,F4,FF,
2521161,000002F5,false,Rx,0,8,BF,0F,E2,24,28,0A,06,10,
2522611,000001AE,false,Rx,0,2,F7,FF,00,00,00,00,00,00,
2524023,00000197,false,Rx,0,4,05,03,0E,C0,00,00,00,00,
2525516,00000272,false,Rx,0,8,BD,F8,05,12,FF,FF,FF,FF,
2525805,000000A5,false,Rx,0,8,E9,F0,FF,F7,7F,00,00,C1,
2526105,000000D9,false,Rx,0,8,A5,F0,00,10,00,F0,7F,C0,
2526253,000000AC,false,Rx,0,2,00,F0,00,00,00,00,00,00,
2526480,000000F3,false,Rx,0,8,8B,00,00,FF,F0,C0,FF,FF,
2526656,000002A7,false,Rx,0,5,12,F1,FE,FF,14,00,00,00,
2527060,00000100,false,Rx,0,8,66,F7,7F,C0,5D,0C,87,70,
2529505,0000015F,false,Rx,0,8,CC,F7,00,7D,00,EE,00,7D,
2530199,000000C3,false,Rx,0,8,C8,7B,00,40,00,7D,FF,FF,
2530425,00000112,false,Rx,0,8,D7,24,12,0E,B3,71,55,5A,
2531426,0000013A,false,Rx,0,8,64,F1,00,00,00,0E,FF,FF,
2531850,00000348,false,Rx,0,8,B1,08,62,FE,FE,64,23,1B,
2532235,00000459,false,Rx,0,8,46,4D,AB,7E,B8,AF,51,8B,
2532548,00000199,false,Rx,0,6,FF,FF,9A,7E,FF,3F,00,00,
2532745,0000019A,false,Rx,0,6,FF,FF,58,7F,FF,3F,00,00,
2532962,0000019F,false,Rx,0,6,FF,FF,F4,7F,FF,2F,00,00,
2533203,00000254,false,Rx,0,8,FF,7F,FF,7F,FF,7F,FF,7F,
2533328,00000258,false,Rx,0,2,11,11,00,00,00,00,00,00,
2537106,00000100,false,Rx,0,8,3A,F8,7F,C0,5D,0C,87,70,
2537559,00000302,false,Rx,0,7,FF,FF,59,81,FE,FF,FF,00,
2539432,000000EF,false,Rx,0,8,F6,F7,00,7D,21,00,7D,FF,
2539978,000001A1,false,Rx,0,5,7D,C2,00,00,8A,00,00,00,
2540229,00000206,false,Rx,0,8,C7,2B,C1,FF,FF,FF,FF,FF,
2540457,00000112,false,Rx,0,8,D9,24,12,0E,B3,71,55,5A,
2540705,000000C3,false,Rx,0,8,46,7C,00,40,00,7D,FF,FF,
2540944,00000140,false,Rx,0,8,9F,62,40,9C,00,00,04,FF,
2541191,00000141,false,Rx,0,8,F3,72,40,9C,00,00,F4,FF,
2545747,000002C4,false,Rx,0,8,00,00,FF,00,C8,64,FF,CF,
2545981,000000A5,false,Rx,0,8,B4,F1,FF,F7,7F,00,00,C1,
2546116,000000AC,false,Rx,0,2,00,F0,00,00,00,00,00,00,
2546356,000000D9,false,Rx,0,8,F8,F1,00,10,00,F0,7F,C0,
2546594,000000F3,false,Rx,0,8,D6,01,00,FF,F0,C0,FF,FF,
2546987,000007BD,false,Rx,0,8,00,00,00,40,FF,C0,01,00,
2547216,00000100,false,Rx,0,8,67,F9,7F,C0,5D,0C,87,70,
2547465,000007BE,false,Rx,0,8,00,C0,FA,1C,02,00,00,00,
2549443,0000015F,false,Rx,0,8,90,F8,00,7D,00,EE,00,7D,
2550204,000000C3,false,Rx,0,8,1B,7D,00,40,00,7D,FF,FF,
2550432,00000112,false,Rx,0,8,D8,24,12,0E,B3,71,55,5A,
2551433,0000013A,false,Rx,0,8,DE,F3,00,00,00,0E,FF,FF,
2551785,0000043D,false,Rx,0,8,62,15,E7,FF,21,56,08,F0,
2552645,00000199,false,Rx,0,6,FF,FF,7C,7E,FF,3F,00,00,
2552842,0000019A,false,Rx,0,6,FF,FF,58,7F,FF,3F,00,00,
2553059,0000019F,false,Rx,0,6,FF,FF,05,80,FF,2F,00,00,
2553299,00000254,false,Rx,0,8,FF,7F,FF,7F,FF,7F,FF,7F,
2553424,00000258,false,Rx,0,2,11,11,00,00,00,00,00,00,
2554025,00000197,false,Rx,0,4,8F,04,0E,C0,00,00,00,00,
2556454,00000163,false,Rx,0,8,FF,FF,15,25,FF,FF,FF,FF,
2556692,00000173,false,Rx,0,8,3B,F0,00,0E,30,00,DE,10,
2557116,00000100,false,Rx,0,8,80,FA,7F,C0,5D,0C,87,70,
2559437,000000EF,false,Rx,0,8,AA,F8,00,7D,21,00,7D,FF,
2559969,000001A1,false,Rx,0,5,14,C4,00,00,8A,00,00,00,
2560230,000000C3,false,Rx,0,8,FC,7E,00,40,00,7D,FF,FF,
2560458,00000112,false,Rx,0,8,D9,24,12,0E,B3,71,55,5A,
2560696,00000140,false,Rx,0,8,4C,64,40,9C,00,00,04,FF,
2560935,00000141,false,Rx,0,8,20,74,40,9C,00,00,F4,FF,
2561185,00000201,false,Rx,0,8,3D,C7,B0,69,FF,FF,FF,FF,
2565779,000000A5,false,Rx,0,8,53,F2,FF,F7,7F,00,00,C1,
2566075,000000D9,false,Rx,0,8,1F,F2,00,10,00,F0,7F,C0,
2566213,000000AC,false,Rx,0,2,00,F0,00,00,00,00,00,00,
2566450,000000F3,false,Rx,0,8,31,02,00,FF,F0,C0,FF,FF,
2567049,00000100,false,Rx,0,8,DD,FB,7F,C0,5D,0C,87,70,
2569454,0000015F,false,Rx,0,8,CD,F9,00,7D,00,EE,00,7D,
2570204,000000C3,false,Rx,0,8,FD,70,00,40,00,7D,FF,FF,
2570432,00000112,false,Rx,0,8,DA,24,12,0E,B3,71,55,5A,
2571433,0000013A,false,Rx,0,8,0D,F5,00,00,00,0E,FF,FF,
2571816,0000043C,false,Rx,0,8,FE,FE,FF,FF,FF,FF,FF,FF,
2572552,00000199,false,Rx,0,6,FF,FF,90,7E,FF,3F,00,00,
2572759,0000019A,false,Rx,0,6,FF,FF,62,7F,FF,3F,00,00,
2572976,0000019F,false,Rx,0,6,FF,FF,F3,7F,FF,2F,00,00,
2573217,00000254,false,Rx,0,8,FF,7F,FF,7F,FF,7F,FF,7F,
2573352,00000258,false,Rx,0,2,11,11,00,00,00,00,00,00,
2575571,0000029E,false,Rx,0,8,47,D0,11,C6,07,FF,FF,FF,
2577177,00000100,false,Rx,0,8,53,FC,7F,C0,5D,0C,87,70,
2578421,00000302,false,Rx,0,7,FF,FF,59,81,FE,FF,FF,00,
2579433,000000EF,false,Rx,0,8,F7,F9,00,7D,21,00,7D,FF,
2579977,000001A1,false,Rx,0,5,33,C6,00,00,8A,00,00,00,
2580217,00000206,false,Rx,0,8,49,2C,C1,FF,FF,FF,FF,FF,
2580445,00000112,false,Rx,0,8,DB,24,12,0E,B3,71,55,5A,
2580684,000000C3,false,Rx,0,8,A0,71,00,40,00,7D,FF,FF,
2580923,00000140,false,Rx,0,8,F6,66,40,9C,00,00,04,FF,
2581161,00000141,false,Rx,0,8,9A,76,40,9C,00,00,F4,FF,
2584024,00000197,false,Rx,0,4,00,05,0E,C0,00,00,00,00,
2585577,000002B2,false,Rx,0,8,1A,0E,E2,04,FF,0F,FF,FF,
2585980,000000A5,false,Rx,0,8,0E,F3,FF,F7,7F,00,00,C1,
2586113,000000AC,false,Rx,0,2,00,F0,00,00,00,00,00,00,
2586343,000000D9,false,Rx,0,8,42,F3,00,10,00,F0,7F,C0,
2586591,000000F3,false,Rx,0,8,6C,03,00,FF,F0,C0,FF,FF,
2587046,00000100,false,Rx,0,8,0E,FD,7F,C0,5D,0C,87,70,
2589451,0000015F,false,Rx,0,8,2A,FA,00,7D,00,EE,00,7D,
2590201,000000C3,false,Rx,0,8,47,72,00,40,00,7D,FF,FF,
2590429,00000112,false,Rx,0,8,DC,24,12,0E,B3,71,55,5A,
2591430,0000013A,false,Rx,0,8,B7,F7,00,00,00,0E,FF,FF,
2593524,00000199,false,Rx,0,6,FF,FF,90,7E,FF,3F,00,00,
2593731,0000019A,false,Rx,0,6,FF,FF,58,7F,FF,3F,00,00,
2593939,0000019F,false,Rx,0,6,FF,FF,00,80,FF,2F,00,00,
2594188,00000254,false,Rx,0,8,FF,7F,FF,7F,FF,7F,FF,7F,
2594313,00000258,false,Rx,0,2,11,11,00,00,00,00,00,00,
2595592,000002EF,false,Rx,0,8,F4,01,14,C0,12,00,C0,FC,
2596912,000007BE,false,Rx,0,8,0B,00,00,00,00,00,00,00,
2597140,00000100,false,Rx,0,8,E9,FE,7F,C0,5D,0C,87,70,
2599192,00000239,false,Rx,0,8,70,27,39,EA,04,FF,FF,FF,
2599420,00000300,false,Rx,0,8,3E,36,59,86,61,59,96,65,
2599658,000000EF,false,Rx,0,8,10,FA,00,7D,21,00,7D,FF,
2599979,000001A1,false,Rx,0,5,C6,C8,00,00,8A,00,00,00,
2600168,000003FD,false,Rx,0,5,28,08,00,00,FF,00,00,00,
2600417,00000108,false,Rx,0,8,00,7D,FF,FF,47,F1,FF,FF,
2600655,000000C3,false,Rx,0,8,1A,73,00,40,00,7D,FF,FF,
2600884,00000112,false,Rx,0,8,DE,24,12,0E,B3,71,55,5A,
2601122,00000140,false,Rx,0,8,F7,68,40,9C,00,00,04,FF,
2601351,00000141,false,Rx,0,8,9B,78,40,9C,00,00,F4,FF,
2601601,00000212,false,Rx,0,8,1F,FB,F9,FF,FF,FF,FF,FF,
2601870,000002DB,false,Rx,0,8,FF,FF,FF,FF,BF,FF,FF,FF,
2602108,000002F1,false,Rx,0,8,37,10,7D,92,01,73,00,A0,
2606027,000000A5,false,Rx,0,8,80,F4,FF,F7,7F,00,00,C1,
2606160,000000AC,false,Rx,0,2,00,F0,00,00,00,00,00,00,
2606399,000000D9,false,Rx,0,8,CC,F4,00,10,00,F0,7F,C0,
2606637,000000F3,false,Rx,0,8,E2,04,00,FF,F0,C0,FF,FF,
2606824,000002A7,false,Rx,0,5,A8,F2,FE,FF,14,00,00,00,
2607145,00000100,false,Rx,0,8,E8,F0,7F,C0,5D,0C,87,70,
2609315,000000C0,false,Rx,0,2,F2,40,00,00,00,00,00,00,
2609563,0000003C,false,Rx,0,8,FF,5F,00,00,00,00,FF,FF,
2609801,0000015F,false,Rx,0,8,77,FB,00,7D,00,EE,00,7D,
2610226,000000C3,false,Rx,0,8,94,74,00,40,00,7D,FF,FF,
2610454,00000112,false,Rx,0,8,DE,24,12,0E,B3,71,55,5A,
2610692,00000201,false,Rx,0,8,48,C7,BB,69,FF,FF,FF,FF,
2611499,0000013A,false,Rx,0,8,B6,F9,00,00,00,0E,FF,FF,
2611819,0000019D,false,Rx,0,8,C8,32,8E,01,FF,FF,FF,FF,
2612057,000002C5,false,Rx,0,7,22,F0,00,60,06,70,C8,00,
2612633,00000199,false,Rx,0,6,FF,FF,90,7E,FF,3F,00,00,
2612840,0000019A,false,Rx,0,6,FF,FF,58,7F,FF,3F,00,00,
2613048,0000019F,false,Rx,0,6,FF,FF,FC,7F,FF,2F,00,00,
2613298,00000254,false,Rx,0,8,FF,7F,FF,7F,FF,7F,FF,7F,
2613423,00000258,false,Rx,0,2,11,11,00,00,00,00,00,00,
2613794,0000012F,false,Rx,0,8,BE,21,86,1B,F1,35,30,00,
2614053,00000197,false,Rx,0,4,8C,06,0E,C0,00,00,00,00,
2615122,00000314,false,Rx,0,3,50,00,FF,00,00,00,00,00,
2616531,000002BB,false,Rx,0,5,F7,FA,D1,7F,F2,00,00,00,
2616758,00000289,false,Rx,0,8,EE,F2,E0,FF,FD,00,EC,01,
2617245,00000100,false,Rx,0,8,B5,F1,7F,C0,5D,0C,87,70,
2618422,00000302,false,Rx,0,7,FF,FF,59,81,FE,FF,FF,00,
2619443,000000EF,false,Rx,0,8,4D,FB,00,7D,21,00,7D,FF,
2619681,000002E8,false,Rx,0,8,C0,E8,C3,FF,FF,F4,F1,14,
2620003,000001A1,false,Rx,0,5,E1,CA,00,00,8A,00,00,00,
2620244,00000206,false,Rx,0,8,14,2D,C1,FF,FF,FF,FF,FF,
2620492,000000C3,false,Rx,0,8,C9,75,00,40,00,7D,FF,FF,
2620721,00000112,false,Rx,0,8,E0,24,12,0E,B3,71,55,5A,
2620959,00000140,false,Rx,0,8,4D,6A,40,9C,00,00,04,FF,
2621188,00000141,false,Rx,0,8,21,7A,40,9C,00,00,F4,FF,
2621426,000002F5,false,Rx,0,8,BF,0F,E2,24,28,0A,06,10,
2621666,000003C0,false,Rx,0,8,DD,DD,DD,FD,FF,FF,FF,FF,
2622614,000001AE,false,Rx,0,2,F7,FF,00,00,00,00,00,00,
2625796,00000458,false,Rx,0,8,09,4F,AB,7E,8D,AF,51,8B,
2626044,000000A5,false,Rx,0,8,DD,F5,FF,F7,7F,00,00,C1,
2626171,000000AC,false,Rx,0,2,00,F0,00,00,00,00,00,00,
2626419,000000D9,false,Rx,0,8,91,F5,00,10,00,F0,7F,C0,
2626657,000000F3,false,Rx,0,8,BF,05,00,FF,F0,C0,FF,FF,
2627133,00000100,false,Rx,0,8,52,F2,7F,C0,5D,0C,87,70,
2627516,0000031C,false,Rx,0,8,FF,FF,FF,FF,FF,FF,FF,FF,
2627714,0000033B,false,Rx,0,6,CA,F0,DC,FF,FF,FF,00,00,
2629513,0000015F,false,Rx,0,8,F9,FC,00,7D,00,EE,00,7D,
2630205,000000C3,false,Rx,0,8,2E,76,00,40,00,7D,FF,FF,
2630431,00000112,false,Rx,0,8,DF,24,12,0E,B3,71,55,5A,
2631432,0000013A,false,Rx,0,8,0C,FB,00,00,00,0E,FF,FF,
2633524,00000199,false,Rx,0,6,FF,FF,86,7E,FF,3F,00,00,
2633731,0000019A,false,Rx,0,6,FF,FF,58,7F,FF,3F,00,00,
2633929,0000019F,false,Rx,0,6,FF,FF,23,80,FF,2F,00,00,
2634178,00000254,false,Rx,0,8,FF,7F,FF,7F,FF,7F,FF,7F,
2634305,00000258,false,Rx,0,2,11,11,00,00,00,00,00,00,
2637113,00000100,false,Rx,0,8,0F,F3,7F,C0,5D,0C,87,70,
2637528,00000297,false,Rx,0,7,40,E7,F0,E0,F2,92,EA,00,
2639444,000000EF,false,Rx,0,8,0D,FC,00,7D,21,FC,7C,FF,
2639982,000001A1,false,Rx,0,5,88,CC,00,00,8A,00,00,00,
2640221,000000C3,false,Rx,0,8,73,77,00,40,00,7D,FF,FF,
2640449,00000112,false,Rx,0,8,E2,24,12,0E,B3,71,55,5A,
2640678,00000140,false,Rx,0,8,9E,6C,40,9C,00,00,04,FF,
2640916,00000141,false,Rx,0,8,F2,7C,40,9C,00,00,F4,FF,
2641154,00000239,false,Rx,0,8,70,27,39,EA,04,FF,FF,FF,
2643767,000001E1,false,Rx,0,6,66,F1,05,FF,FF,FF,00,00,
2644025,00000197,false,Rx,0,4,03,07,0E,C0,00,00,00,00,
2646022,000002C4,false,Rx,0,8,00,00,FF,00,C8,64,FF,CF,
2646262,000000A5,false,Rx,0,8,3A,F6,FF,F7,7F,00,00,C1,
2646386,000000AC,false,Rx,0,2,00,F0,00,00,00,00,00,00,
2646633,000000D9,false,Rx,0,8,76,F6,00,10,00,F0,7F,C0,
2646872,000000F3,false,Rx,0,8,58,06,00,FF,F0,C0,FF,FF,
2647079,00000304,false,Rx,0,6,FF,FF,D6,38,FF,FF,00,00,
2647308,00000100,false,Rx,0,8,81,F4,7F,C0,5D,0C,87,70,
2647495,0000036E,false,Rx,0,5,C8,F9,FE,FF,14,00,00,00,
2647734,000007BD,false,Rx,0,8,00,00,00,40,FF,C0,01,00,
2648013,000007BE,false,Rx,0,8,05,00,00,00,00,00,00,E0,
2649447,0000015F,false,Rx,0,8,A4,FD,00,7D,00,EE,00,7D,
2650222,000000C3,false,Rx,0,8,2F,78,00,40,00,7D,FF,FF,
2650448,00000112,false,Rx,0,8,E1,24,12,0E,B3,71,55,5A,
2651430,0000013A,false,Rx,0,8,DF,FD,00,00,00,0E,FF,FF,
2653520,00000199,false,Rx,0,6,FF,FF,86,7E,FF,3F,00,00,
2653729,0000019A,false,Rx,0,6,FF,FF,58,7F,FF,3F,00,00,
2653936,0000019F,false,Rx,0,6,FF,FF,CE,7F,FF,2F,00,00,
2654185,00000254,false,Rx,0,8,FF,7F,FF,7F,FF,7F,FF,7F,
2654310,00000258,false,Rx,0,2,11,11,00,00,00,00,00,00,
2656437,00000163,false,Rx,0,8,FF,FF,15,25,FF,FF,FF,FF,
2656671,00000173,false,Rx,0,8,53,FA,00,0E,30,00,DE,10,
2657085,00000100,false,Rx,0,8,DC,F5,7F,C0,5D,0C,87,70,
2657540,00000302,false,Rx,0,7,FF,FF,59,81,FE,FF,FF,00,
2659438,000000EF,false,Rx,0,8,9E,FD,00,7D,21,00,7D,FF,
2659976,000001A1,false,Rx,0,5,AF,CE,00,00,8A,00,00,00,
2660225,00000206,false,Rx,0,8,F3,2E,C1,FF,FF,FF,FF,FF,
2660453,00000112,false,Rx,0,8,E3,24,12,0E,B3,71,55,5A,
2660684,000000C3,false,Rx,0,8,72,79,00,40,00,7D,FF,FF,
2660922,00000140,false,Rx,0,8,24,6E,40,9C,00,00,04,FF,
2661160,00000141,false,Rx,0,8,48,7E,40,9C,00,00,F4,FF,
2661401,00000201,false,Rx,0,8,53,C7,C6,69,FF,FF,FF,FF,
2661639,00000431,false,Rx,0,8,C6,FD,43,00,0E,9F,F7,00,
2665786,000000A5,false,Rx,0,8,67,F7,FF,F7,7F,00,00,C1,
2666094,000000D9,false,Rx,0,8,2B,F7,00,10,00,F0,7F,C0,
2666220,000000AC,false,Rx,0,2,00,F0,00,00,00,00,00,00,
2666467,000000F3,false,Rx,0,8,05,07,00,FF,F0,C0,FF,FF,
2667066,00000100,false,Rx,0,8,3B,F6,7F,C0,5D,0C,87,70,
2667522,0000036F,false,Rx,0,5,BD,FA,FE,FF,14,00,00,00,
2669454,0000015F,false,Rx,0,8,43,FE,00,7D,00,EE,00,7D,
2670205,000000C3,false,Rx,0,8,95,7A,00,40,00,7D,FF,FF,
2670432,00000112,false,Rx,0,8,E1,24,12,0E,B3,71,55,5A,
2670651,00000432,false,Rx,0,8,AC,DA,15,BD,51,7C,2E,BC,
2671437,0000013A,false,Rx,0,8,39,F0,00,00,00,0E,FF,FF,
2673533,00000199,false,Rx,0,6,FF,FF,90,7E,FF,3F,00,00,
2673741,0000019A,false,Rx,0,6,FF,FF,58,7F,FF,3F,00,00,
2673945,0000019F,false,Rx,0,6,FF,FF,F8,7F,FF,2F,00,00,
2674111,00000197,false,Rx,0,4,85,08,0E,C0,00,00,00,00,
2674360,00000254,false,Rx,0,8,FF,7F,FF,7F,FF,7F,FF,7F,
2674486,00000258,false,Rx,0,2,11,11,00,00,00,00,00,00,
2675682,0000029E,false,Rx,0,8,47,D0,11,C6,07,FF,FF,FF,
2677130,00000100,false,Rx,0,8,66,F7,7F,C0,5D,0C,87,70,
2679436,000000EF,false,Rx,0,8,79,FE,00,7D,21,00,7D,FF,
2679980,000001A1,false,Rx,0,5,C7,C1,00,00,8A,00,00,00,
2680220,000000C3,false,Rx,0,8,C8,7B,00,40,00,7D,FF,FF,
2680447,00000112,false,Rx,0,8,E2,24,12,0E,B3,71,55,5A,
2680676,00000140,false,Rx,0,8,78,61,40,9C,00,00,04,FF,
2680915,00000141,false,Rx,0,8,14,71,40,9C,00,00,F4,FF,
2685629,000001B6,false,Rx,0,7,51,81,02,04,77,C1,F0,00,
2685873,000000A5,false,Rx,0,8,3B,F8,FF,F7,7F,00,00,C1,
2686113,000000D9,false,Rx,0,8,77,F8,00,10,00,F0,7F,C0,
2686250,000000AC,false,Rx,0,2,00,F0,00,00,00,00,00,00,
2686487,000000F3,false,Rx,0,8,59,08,00,FF,F0,C0,FF,FF,
2686664,000002A7,false,Rx,0,5,35,F3,FE,FF,14,00,00,00,
2686903,000002B2,false,Rx,0,8,1A,0E,E2,04,FF,0F,FF,FF,
2687141,00000100,false,Rx,0,8,3A,F8,7F,C0,5D,0C,87,70,
2687277,00000337,false,Rx,0,2,FF,FF,00,00,00,00,00,00,
2687504,00000301,false,Rx,0,7,FF,FF,2C,81,FF,FF,CF,00,
2687744,000003B4,false,Rx,0,8,00,00,0D,F4,BD,FF,09,B0,
2689446,0000015F,false,Rx,0,8,42,F0,00,7D,00,EE,00,7D,
2690229,000000C3,false,Rx,0,8,46,7C,00,40,00,7D,FF,FF,
2690457,00000112,false,Rx,0,8,E1,24,12,0E,B3,71,55,5A,
2690687,000001FA,false,Rx,0,8,41,65,45,70,4E,4D,4D,4E,
2691431,0000013A,false,Rx,0,8,83,F2,00,00,00,0E,FF,FF,
2692547,00000199,false,Rx,0,6,FF,FF,AE,7E,FF,3F,00,00,
2692754,0000019A,false,Rx,0,6,FF,FF,62,7F,FF,3F,00,00,
2692962,0000019F,false,Rx,0,6,FF,FF,EF,7F,FF,2F,00,00,
2693211,00000254,false,Rx,0,8,FF,7F,FF,7F,FF,7F,FF,7F,
2693336,00000258,false,Rx,0,2,11,11,00,00,00,00,00,00,
2695689,000002EF,false,Rx,0,8,F4,01,14,C0,12,00,C0,FC,
2696893,00000100,false,Rx,0,8,67,F9,7F,C0,5D,0C,87,70,
2698438,00000302,false,Rx,0,7,FF,FF,59,81,FE,FF,FF,00,
2699150,00000239,false,Rx,0,8,70,28,39,EA,04,FF,FF,FF,
2699451,000000EF,false,Rx,0,8,78,F0,00,7D,21,00,7D,FF,
2699988,000001A1,false,Rx,0,5,E0,C3,00,00,8A,00,00,00,
2700176,000003FD,false,Rx,0,5,B5,09,00,00,FF,00,00,00,
2700413,00000108,false,Rx,0,8,00,7D,FF,FF,47,F1,FF,FF,
2700663,000000C3,false,Rx,0,8,1B,7D,00,40,00,7D,FF,FF,
2700891,00000112,false,Rx,0,8,E0,24,12,0E,B3,71,55,5A,
2701108,000000F5,false,Rx,0,7,DC,DC,00,82,00,82,00,00,
2701349,00000140,false,Rx,0,8,C2,63,40,9C,00,00,04,FF,
2701515,000000FF,false,Rx,0,4,E2,24,F0,00,00,00,00,00,
2701752,00000141,false,Rx,0,8,AE,73,40,9C,00,00,F4,FF,
2701982,000001B5,false,Rx,0,8,D0,40,C2,70,FF,FF,FF,FF,
2702222,00000363,false,Rx,0,8,DA,76,EE,0A,FF,FF,FF,FF,
2702461,00000201,false,Rx,0,8,5C,C7,CF,69,FF,FF,FF,FF,
2702709,00000206,false,Rx,0,8,F2,20,C1,FF,FF,FF,FF,FF,
2702959,00000212,false,Rx,0,8,91,FC,F9,FF,FF,FF,FF,FF,
2703220,000002DB,false,Rx,0,8,FF,FF,FF,FF,BF,FF,FF,FF,
2703458,000002F1,false,Rx,0,8,37,10,7D,92,01,73,00,A0,
2703707,000002FA,false,Rx,0,8,43,00,30,FF,FF,FF,FF,FF,
2703957,0000032B,false,Rx,0,8,FF,FF,FF,FF,FF,FF,00,FF,
2704123,00000197,false,Rx,0,4,0A,09,0E,C0,00,00,00,00,
2704361,00000331,false,Rx,0,8,FF,FF,FF,EF,7F,FE,F7,FF,
2704611,000003AD,false,Rx,0,8,00,F0,FF,FF,FF,FF,FF,FA,
2704757,000003E8,false,Rx,0,2,F1,FF,00,00,00,00,00,00,
2704994,000003E9,false,Rx,0,8,5C,8F,21,A1,7C,7D,20,4A,
2705255,0000041E,false,Rx,0,8,00,03,CF,FF,FF,FF,FF,FF,
2706067,000000A5,false,Rx,0,8,66,F9,FF,F7,7F,00,00,C1,
2706204,000000AC,false,Rx,0,2,00,F0,00,00,00,00,00,00,
2706441,000000D9,false,Rx,0,8,2A,F9,00,10,00,F0,7F,C0,
2706689,000000F3,false,Rx,0,8,04,09,00,FF,F0,C0,FF,FF,
2707259,00000100,false,Rx,0,8,80,FA,7F,C0,5D,0C,87,70,
2709459,0000003C,false,Rx,0,8,FF,5F,00,00,00,00,FF,FF,
2709697,0000015F,false,Rx,0,8,1F,F1,00,7D,00,EE,00,7D,
2710214,000000C3,false,Rx,0,8,FC,7E,00,40,00,7D,FF,FF,
2710442,00000112,false,Rx,0,8,DF,24,12,0E,B3,71,55,5A,
2710681,00000201,false,Rx,0,8,5E,C7,D1,69,FF,FF,FF,FF,
2711488,0000013A,false,Rx,0,8,50,F4,00,00,00,0E,FF,FF,
2711788,000002C5,false,Rx,0,7,64,F1,00,60,06,70,C8,00,
2712567,00000199,false,Rx,0,6,FF,FF,90,7E,FF,3F,00,00,
2712774,0000019A,false,Rx,0,6,FF,FF,4E,7F,FF,3F,00,00,
2712982,0000019F,false,Rx,0,6,FF,FF,F3,7F,FF,2F,00,00,
2713231,00000254,false,Rx,0,8,FF,7F,FF,7F,FF,7F,FF,7F,
2713356,00000258,false,Rx,0,2,11,11,00,00,00,00,00,00,
2713790,0000012F,false,Rx,0,8,59,22,86,1B,F1,35,30,00,
2715220,00000349,false,Rx,0,5,FE,FF,FE,FF,00,00,00,00,
2716431,000002BB,false,Rx,0,5,9F,F5,D1,7F,F2,00,00,00,
2716669,00000289,false,Rx,0,8,B3,F3,E0,FF,FD,00,EC,01,
2717248,00000100,false,Rx,0,8,DD,FB,7F,C0,5D,0C,87,70,
2718785,000002E8,false,Rx,0,8,C0,E8,C3,FF,FF,F4,F2,33,
2719447,000000EF,false,Rx,0,8,25,F1,00,7D,21,00,7D,FF,
2719982,000001A1,false,Rx,0,5,89,C5,00,00,8A,00,00,00,
2720231,000000C3,false,Rx,0,8,FD,70,00,40,00,7D,FF,FF,
2720459,00000112,false,Rx,0,8,DC,24,12,0E,B3,71,55,5A,
2720688,00000140,false,Rx,0,8,11,65,40,9C,00,00,04,FF,
2720926,00000141,false,Rx,0,8,7D,75,40,9C,00,00,F4,FF,
2721165,000002F5,false,Rx,0,8,BF,0F,E2,24,28,0A,06,10,
2722606,000001AE,false,Rx,0,2,F7,FF,00,00,00,00,00,00,
2725724,00000272,false,Rx,0,8,E0,F9,05,12,FF,FF,FF,FF,
2725994,000000A5,false,Rx,0,8,81,FA,FF,F7,7F,00,00,C1,
2726128,000000AC,false,Rx,0,2,00,F0,00,00,00,00,00,00,
2726366,000000D9,false,Rx,0,8,CD,FA,00,10,00,F0,7F,C0,
2726604,000000F3,false,Rx,0,8,E3,0A,00,FF,F0,C0,FF,FF,
2727100,00000100,false,Rx,0,8,53,FC,7F,C0,5D,0C,87,70,
2729526,0000015F,false,Rx,0,8,F8,F2,00,7D,00,EE,00,7D,
2730204,000000C3,false,Rx,0,8,A0,71,00,40,00,7D,FF,FF,
2730432,00000112,false,Rx,0,8,DC,24,12,0E,B3,71,55,5A,
2731424,0000013A,false,Rx,0,8,EA,F6,00,00,00,0E,FF,FF,
2733527,00000199,false,Rx,0,6,FF,FF,7C,7E,FF,3F,00,00,
2733735,0000019A,false,Rx,0,6,FF,FF,58,7F,FF,3F,00,00,
2733942,0000019F,false,Rx,0,6,FF,FF,0B,80,FF,2F,00,00,
2734107,00000197,false,Rx,0,4,86,0A,0E,C0,00,00,00,00,
2734356,00000254,false,Rx,0,8,FF,7F,FF,7F,FF,7F,FF,7F,
2734482,00000258,false,Rx,0,2,11,11,00,00,00,00,00,00,
2734730,00000510,false,Rx,0,8,40,10,20,00,00,00,00,00,
2737113,00000100,false,Rx,0,8,0E,FD,7F,C0,5D,0C,87,70,
2738410,00000302,false,Rx,0,7,FF,FF,59,81,FE,FF,FF,00,
2739504,000000EF,false,Rx,0,8,C2,F2,00,7D,21,00,7D,FF,
2740051,000001A1,false,Rx,0,5,AE,C7,00,00,8A,00,00,00,
2740290,00000206,false,Rx,0,8,AF,21,C1,FF,FF,FF,FF,FF,
2740519,00000112,false,Rx,0,8,D9,24,12,0E,B3,71,55,5A,
2740767,000000C3,false,Rx,0,8,47,72,00,40,00,7D,FF,FF,
2741005,00000140,false,Rx,0,8,AB,67,40,9C,00,00,04,FF,
2741235,00000141,false,Rx,0,8,C7,77,40,9C,00,00,F4,FF,
2745732,000002C4,false,Rx,0,8,00,00,FF,00,C8,64,FF,CF,
2745978,000000A5,false,Rx,0,8,DC,FB,FF,F7,7F,00,00,C1,
2746103,000000AC,false,Rx,0,2,00,F0,00,00,00,00,00,00,
2746351,000000D9,false,Rx,0,8,90,FB,00,10,00,F0,7F,C0,
2746590,000000F3,false,Rx,0,8,BE,0B,00,FF,F0,C0,FF,FF,
2746993,000007BD,false,Rx,0,8,00,00,00,40,FF,C0,01,00,
2747222,00000100,false,Rx,0,8,E9,FE,7F,C0,5D,0C,87,70,
2747472,000007BE,false,Rx,0,8,0C,41,04,69,00,00,00,00,
2749512,0000015F,false,Rx,0,8,A5,F3,00,7D,00,EE,00,7D,
2750201,000000C3,false,Rx,0,8,1A,73,00,40,00,7D,FF,FF,
2750428,00000112,false,Rx,0,8,DA,24,12,0E,B3,71,55,5A,
2751431,0000013A,false,Rx,0,8,EB,F8,00,00,00,0E,FF,FF,
2753523,00000199,false,Rx,0,6,FF,FF,A4,7E,FF,3F,00,00,
2753721,0000019A,false,Rx,0,6,FF,FF,58,7F,FF,3F,00,00,
2753936,0000019F,false,Rx,0,6,FF,FF,E4,7F,FF,2F,00,00,
2754185,00000254,false,Rx,0,8,FF,7F,FF,7F,FF,7F,FF,7F,
2754310,00000258,false,Rx,0,2,11,11,00,00,00,00,00,00,
2756434,00000163,false,Rx,0,8,FF,FF,15,25,FF,FF,FF,FF,
2756673,00000173,false,Rx,0,8,0F,F5,00,0E,30,00,DE,10,
2757117,00000100,false,Rx,0,8,E8,F0,7F,C0,5D,0C,87,70,
2759510,000000EF,false,Rx,0,8,9F,F3,00,7D,21,00,7D,FF,
2760043,000001A1,false,Rx,0,5,5B,C9,00,00,8A,00,00,00,
2760282,000000C3,false,Rx,0,8,94,74,00,40,00,7D,FF,FF,
2760511,00000112,false,Rx,0,8,D5,24,12,0E,B3,71,55,5A,
2760749,00000140,false,Rx,0,8,AA,69,40,9C,00,00,04,FF,
2760987,00000141,false,Rx,0,8,C6,79,40,9C,00,00,F4,FF,
2761216,00000201,false,Rx,0,8,69,C7,DC,69,FF,FF,FF,FF,
2764027,00000197,false,Rx,0,4,09,0B,0E,C0,00,00,00,00,
2765775,000000A5,false,Rx,0,8,52,FC,FF,F7,7F,00,00,C1,
2766083,000000D9,false,Rx,0,8,1E,FC,00,10,00,F0,7F,C0,
2766209,000000AC,false,Rx,0,2,00,F0,00,00,00,00,00,00,
2766456,000000F3,false,Rx,0,8,30,0C,00,FF,F0,C0,FF,FF,
2766634,000002A7,false,Rx,0,5,C1,F4,FE,FF,14,00,00,00,
2767046,00000100,false,Rx,0,8,B5,F1,7F,C0,5D,0C,87,70,
2769545,0000015F,false,Rx,0,8,2B,F4,00,7D,00,EE,00,7D,
2770203,000000C3,false,Rx,0,8,C9,75,00,40,00,7D,FF,FF,
2770431,00000112,false,Rx,0,8,D7,24,12,0E,B3,71,55,5A,
2771434,0000013A,false,Rx,0,8,51,FA,00,00,00,0E,FF,FF,
2772558,00000199,false,Rx,0,6,FF,FF,90,7E,FF,3F,00,00,
2772766,0000019A,false,Rx,0,6,FF,FF,58,7F,FF,3F,00,00,
2772973,0000019F,false,Rx,0,6,FF,FF,FC,7F,FF,2F,00,00,
2773223,00000254,false,Rx,0,8,FF,7F,FF,7F,FF,7F,FF,7F,
2773348,00000258,false,Rx,0,2,11,11,00,00,00,00,00,00,
2775279,00000314,false,Rx,0,3,50,00,FF,00,00,00,00,00,
2775783,0000029E,false,Rx,0,8,47,D0,11,C6,07,FF,FF,FF,
2776917,00000100,false,Rx,0,8,52,F2,7F,C0,5D,0C,87,70,
2778409,00000302,false,Rx,0,7,FF,FF,59,81,FE,FF,FF,00,
2779441,000000EF,false,Rx,0,8,11,F4,00,7D,21,00,7D,FF,
2779968,000001A1,false,Rx,0,5,7C,CB,00,00,8A,00,00,00,
2780227,00000206,false,Rx,0,8,48,22,C1,FF,FF,FF,FF,FF,
2780456,00000112,false,Rx,0,8,D6,24,12,0E,B3,71,55,5A,
2780694,000000C3,false,Rx,0,8,2E,76,00,40,00,7D,FF,FF,
2780943,00000140,false,Rx,0,8,10,6B,40,9C,00,00,04,FF,
2781182,00000141,false,Rx,0,8,7C,7B,40,9C,00,00,F4,FF,
2785793,000002B2,false,Rx,0,8,1A,0E,E2,04,FF,0F,FF,FF,
2786038,000000A5,false,Rx,0,8,0F,FD,FF,F7,7F,00,00,C1,
2786163,000000AC,false,Rx,0,2,00,F0,00,00,00,00,00,00,
2786412,000000D9,false,Rx,0,8,43,FD,00,10,00,F0,7F,C0,
2786641,000000F3,false,Rx,0,8,6D,0D,00,FF,F0,C0,FF,FF,
2787054,00000100,false,Rx,0,8,0F,F3,7F,C0,5D,0C,87,70,
2789461,0000015F,false,Rx,0,8,76,F5,00,7D,00,EE,00,7D,
2790221,000000C3,false,Rx,0,8,73,77,00,40,00,7D,FF,FF,
2790451,00000112,false,Rx,0,8,D7,24,12,0E,B3,71,65,5A,
2791431,0000013A,false,Rx,0,8,82,FC,00,00,00,0E,FF,FF,
2793525,00000199,false,Rx,0,6,FF,FF,9A,7E,FF,3F,00,00,
2793732,0000019A,false,Rx,0,6,FF,FF,58,7F,FF,3F,00,00,
2793937,0000019F,false,Rx,0,6,FF,FF,03,80,FF,2F,00,00,
2794102,00000197,false,Rx,0,4,83,0C,0E,C0,00,00,00,00,
2794342,00000254,false,Rx,0,8,FF,7F,FF,7F,FF,7F,FF,7F,
2794478,00000258,false,Rx,0,2,11,11,00,00,00,00,00,00,
2795796,000002EF,false,Rx,0,8,F4,01,14,C0,12,00,C0,FC,
2796894,000007BE,false,Rx,0,8,07,72,2E,E0,06,67,00,00,
2797132,00000100,false,Rx,0,8,81,F4,7F,C0,5D,0C,87,70,
2799204,00000239,false,Rx,0,8,70,29,39,EA,04,FF,FF,FF,
2799453,000000EF,false,Rx,0,8,4C,F5,00,7D,21,00,7D,FF,
2799988,000001A1,false,Rx,0,5,15,CD,00,00,8A,00,00,00,
2800227,00000108,false,Rx,0,8,00,7D,FF,FF,47,F1,FF,FF,
2800456,00000112,false,Rx,0,8,D8,24,12,0E,B3,71,65,5A,
2800694,00000140,false,Rx,0,8,C3,6D,40,9C,00,00,04,FF,
2800932,00000141,false,Rx,0,8,AF,7D,40,9C,00,00,F4,FF,
2801119,000003FD,false,Rx,0,5,0F,0A,00,00,FF,00,00,00,
2801370,000000C3,false,Rx,0,8,2F,78,00,40,00,7D,FF,FF,
2801628,00000212,false,Rx,0,8,CC,FD,F9,FF,FF,FF,FF,FF,
2801877,000002DB,false,Rx,0,8,FF,FF,FF,FF,BF,FF,FF,FF,
2802118,000002F1,false,Rx,0,8,37,10,7D,92,01,73,00,A0,
2806033,000000A5,false,Rx,0,8,E8,FE,FF,F7,7F,00,00,C1,
2806164,000000AC,false,Rx,0,2,00,F0,00,00,00,00,00,00,
2806402,000000D9,false,Rx,0,8,A4,FE,00,10,00,F0,7F,C0,
2806642,000000F3,false,Rx,0,8,8A,0E,00,FF,F0,C0,FF,FF,
2806818,0000036E,false,Rx,0,5,72,FA,FE,FF,14,00,00,00,
2807128,00000100,false,Rx,0,8,DC,F5,7F,C0,5D,0C,87,70,
2809298,000000C0,false,Rx,0,2,F3,40,00,00,00,00,00,00,
2809556,0000003C,false,Rx,0,8,FF,5F,00,00,00,00,FF,FF,
2809795,0000015F,false,Rx,0,8,91,F6,00,7D,00,EE,00,7D,
2810199,000000C3,false,Rx,0,8,72,79,00,40,00,7D,FF,FF,
2810428,00000112,false,Rx,0,8,D9,24,12,0E,B3,71,65,5A,
2810666,00000201,false,Rx,0,8,74,C7,E7,69,FF,FF,FF,FF,
2811523,0000013A,false,Rx,0,8,38,FE,00,00,00,0E,FF,FF,
2811813,000002C5,false,Rx,0,7,AE,F2,00,60,06,70,C8,00,
2812540,00000199,false,Rx,0,6,FF,FF,A4,7E,FF,3F,00,00,
2812749,0000019A,false,Rx,0,6,FF,FF,58,7F,FF,3F,00,00,
2812955,0000019F,false,Rx,0,6,FF,FF,F7,7F,FF,2F,00,00,
2813205,00000254,false,Rx,0,8,FF,7F,FF,7F,FF,7F,FF,7F,
2813330,00000258,false,Rx,0,2,11,11,00,00,00,00,00,00,
2813794,0000012F,false,Rx,0,8,04,23,86,1B,F1,35,30,00,
2816431,000002BB,false,Rx,0,5,4C,F0,D1,7F,F2,00,00,00,
2816665,00000289,false,Rx,0,8,3D,F4,E0,FF,FD,00,EC,01,
2817245,00000100,false,Rx,0,8,3B,F6,7F,C0,5D,0C,87,70,
2818411,00000302,false,Rx,0,7,FF,FF,59,81,FE,FF,FF,00,
2818773,000002E8,false,Rx,0,8,C0,E8,C3,FF,FF,F4,F3,2E,
2819446,000000EF,false,Rx,0,8,AB,F6,00,7D,21,00,7D,FF,
2819993,000001A1,false,Rx,0,5,5A,C0,00,00,8A,00,00,00,
2820232,00000206,false,Rx,0,8,15,23,C1,FF,FF,FF,FF,FF,
2820461,00000112,false,Rx,0,8,DC,24,12,0E,B3,71,65,5A,
2820703,000000C3,false,Rx,0,8,95,7A,00,40,00,7D,FF,FF,
2820941,00000140,false,Rx,0,8,25,60,40,9C,00,00,04,FF,
2821182,00000141,false,Rx,0,8,49,70,40,9C,00,00,F4,FF,
2821410,000002F5,false,Rx,0,8,BF,0F,E2,24,28,0A,06,10,
2821771,00000328,false,Rx,0,6,F6,2B,C9,04,AB,1E,00,00,
2822601,000001AE,false,Rx,0,2,F7,FF,00,00,00,00,00,00,
2824034,00000197,false,Rx,0,4,0C,0D,0E,C0,00,00,00,00,
2825795,000000A5,false,Rx,0,8,E9,F0,FF,F7,7F,00,00,C1,
2826095,000000D9,false,Rx,0,8,A5,F0,00,10,00,F0,7F,C0,
2826221,000000AC,false,Rx,0,2,00,F0,00,00,00,00,00,00,
2826468,000000F3,false,Rx,0,8,8B,00,00,FF,F0,C0,FF,FF,
2827059,00000100,false,Rx,0,8,66,F7,7F,C0,5D,0C,87,70,
2827525,0000036F,false,Rx,0,5,20,FB,FE,FF,14,00,00,00,
2827773,0000031C,false,Rx,0,8,FF,FF,FF,FF,FF,FF,FF,FF,
2827981,0000033B,false,Rx,0,6,A0,F1,DC,FF,FF,FF,00,00,
2829499,0000015F,false,Rx,0,8,CC,F7,00,7D,00,EE,00,7D,
2830223,000000C3,false,Rx,0,8,C8,7B,00,40,00,7D,FF,FF,
2830452,00000112,false,Rx,0,8,DC,24,12,0E,B3,71,65,5A,
2831515,0000013A,false,Rx,0,8,64,F1,00,00,00,0E,FF,FF,
2832811,00000350,false,Rx,0,6,F7,FF,FF,FF,FF,FF,00,00,
2833524,00000199,false,Rx,0,6,FF,FF,90,7E,FF,3F,00,00,
2833720,0000019A,false,Rx,0,6,FF,FF,58,7F,FF,3F,00,00,
2833938,0000019F,false,Rx,0,6,FF,FF,FD,7F,FF,2F,00,00,
2834177,00000254,false,Rx,0,8,FF,7F,FF,7F,FF,7F,FF,7F,
2834313,00000258,false,Rx,0,2,11,11,00,00,00,00,00,00,
2836895,00000100,false,Rx,0,8,3A,F8,7F,C0,5D,0C,87,70,
2837409,00000297,false,Rx,0,7,85,E8,F0,E0,F2,92,EA,00,
2839426,000000EF,false,Rx,0,8,F6,F7,00,7D,21,00,7D,FF,
2839983,000001A1,false,Rx,0,5,7D,C2,00,00,8A,00,00,00,
2840222,000000C3,false,Rx,0,8,46,7C,00,40,00,7D,FF,FF,
2840451,00000112,false,Rx,0,8,DE,24,12,0E,B3,71,65,5A,
2840690,00000140,false,Rx,0,8,9F,62,40,9C,00,00,04,FF,
2840928,00000141,false,Rx,0,8,F3,72,40,9C,00,00,F4,FF,
2841163,00000239,false,Rx,0,8,70,29,39,EA,04,FF,FF,FF,
2843778,000001E1,false,Rx,0,6,D8,F2,05,FF,FF,FF,00,00,
2846002,000002C4,false,Rx,0,8,00,00,FF,00,C8,64,FF,CF,
2846241,000000A5,false,Rx,0,8,B4,F1,FF,F7,7F,00,00,C1,
2846377,000000AC,false,Rx,0,2,00,F0,00,00,00,00,00,00,
2846615,000000D9,false,Rx,0,8,F8,F1,00,10,00,F0,7F,C0,
2846853,000000F3,false,Rx,0,8,D6,01,00,FF,F0,C0,FF,FF,
2847033,000002A7,false,Rx,0,5,5C,F5,FE,FF,14,00,00,00,
2847241,00000304,false,Rx,0,6,FF,FF,D5,38,FF,FF,00,00,
2847470,00000100,false,Rx,0,8,67,F9,7F,C0,5D,0C,87,70,
2847718,000007BD,false,Rx,0,8,00,00,00,40,FF,C0,01,00,
2847997,000007BE,false,Rx,0,8,05,00,00,00,00,00,00,E0,
2849457,0000015F,false,Rx,0,8,90,F8,00,7D,00,EE,00,7D,
2850211,000000C3,false,Rx,0,8,1B,7D,00,40,00,7D,FF,FF,
2850430,00000112,false,Rx,0,8,DE,24,12,0E,B3,71,65,5A,
2851534,0000013A,false,Rx,0,8,DE,F3,00,00,00,0E,FF,FF,
2852576,00000199,false,Rx,0,6,FF,FF,9A,7E,FF,3F,00,00,
2852774,0000019A,false,Rx,0,6,FF,FF,58,7F,FF,3F,00,00,
2852981,0000019F,false,Rx,0,6,FF,FF,E6,7F,FF,2F,00,00,
2853232,00000254,false,Rx,0,8,FF,7F,FF,7F,FF,7F,FF,7F,
2853357,00000258,false,Rx,0,2,11,11,00,00,00,00,00,00,
2854027,00000197,false,Rx,0,4,80,0E,0E,C0,00,00,00,00,
2856439,00000163,false,Rx,0,8,FF,FF,15,25,FF,FF,FF,FF,
2856678,00000173,false,Rx,0,8,3B,F0,00,0E,30,00,DE,10,
2857099,00000100,false,Rx,0,8,80,FA,7F,C0,5D,0C,87,70,
2857494,00000302,false,Rx,0,7,FF,FF,59,81,FE,FF,FF,00,
2859440,000000EF,false,Rx,0,8,AA,F8,00,7D,21,00,7D,FF,
2859968,000001A1,false,Rx,0,5,14,C4,00,00,8A,00,00,00,
2860217,00000206,false,Rx,0,8,9B,24,C1,FF,FF,FF,FF,FF,
2860435,00000112,false,Rx,0,8,DF,24,12,0E,B3,71,65,5A,
2860684,000000C3,false,Rx,0,8,FC,7E,00,40,00,7D,FF,FF,
2860922,00000140,false,Rx,0,8,4C,64,40,9C,00,00,04,FF,
2861168,00000141,false,Rx,0,8,20,74,40,9C,00,00,F4,FF,
2861407,00000201,false,Rx,0,8,7F,C7,F2,69,FF,FF,FF,FF,
2861645,000003B4,false,Rx,0,8,00,00,0D,F4,BD,FF,09,B2,
2861874,00000431,false,Rx,0,8,C6,FD,43,00,0E,9F,F7,00,
2864969,000002A6,false,Rx,0,2,00,DA,00,00,00,00,00,00,
2865801,000000A5,false,Rx,0,8,53,F2,FF,F7,7F,00,00,C1,
2866090,000000D9,false,Rx,0,8,1F,F2,00,10,00,F0,7F,C0,
2866227,000000AC,false,Rx,0,2,00,F0,00,00,00,00,00,00,
2866465,000000F3,false,Rx,0,8,31,02,00,FF,F0,C0,FF,FF,
2867303,00000100,false,Rx,0,8,DD,FB,7F,C0,5D,0C,87,70,
2869464,0000015F,false,Rx,0,8,CD,F9,00,7D,00,EE,00,7D,
2870228,000000C3,false,Rx,0,8,FD,70,00,40,00,7D,FF,FF,
2870457,00000112,false,Rx,0,8,DF,24,12,0E,B3,71,65,5A,
2870685,00000432,false,Rx,0,8,AC,DA,15,BD,51,7C,2E,BC,
2871258,000003B4,false,Rx,0,8,00,00,0D,F4,BD,FF,09,B0,
2871496,0000013A,false,Rx,0,8,0D,F5,00,00,00,0E,FF,FF,
2873517,00000199,false,Rx,0,6,FF,FF,9A,7E,FF,3F,00,00,
2873724,0000019A,false,Rx,0,6,FF,FF,58,7F,FF,3F,00,00,
2873931,0000019F,false,Rx,0,6,FF,FF,01,80,FF,2F,00,00,
2874170,00000254,false,Rx,0,8,FF,7F,FF,7F,FF,7F,FF,7F,
2874306,00000258,false,Rx,0,2,11,11,00,00,00,00,00,00,
2875886,0000029E,false,Rx,0,8,47,D0,11,C6,07,FF,FF,FF,
2877245,00000100,false,Rx,0,8,53,FC,7F,C0,5D,0C,87,70,
2879436,000000EF,false,Rx,0,8,F7,F9,00,7D,21,00,7D,FF,
2879973,000001A1,false,Rx,0,5,33,C6,00,00,8A,00,00,00,
2880212,000000C3,false,Rx,0,8,A0,71,00,40,00,7D,FF,FF,
2880441,00000112,false,Rx,0,8,DE,24,12,0E,B3,71,65,5A,
2880679,00000140,false,Rx,0,8,F6,66,40,9C,00,00,04,FF,
2880918,00000141,false,Rx,0,8,9A,76,40,9C,00,00,F4,FF,
2884031,00000197,false,Rx,0,4,89,00,0E,C0,00,00,00,00,
2885893,000002B2,false,Rx,0,8,1A,0E,E2,04,FF,0F,FF,FF,
2886138,000000A5,false,Rx,0,8,0E,F3,FF,F7,7F,00,00,C1,
2886264,000000AC,false,Rx,0,2,00,F0,00,00,00,00,00,00,
2886502,000000D9,false,Rx,0,8,42,F3,00,10,00,F0,7F,C0,
2886740,000000F3,false,Rx,0,8,6C,03,00,FF,F0,C0,FF,FF,
2886979,000003B4,false,Rx,0,8,00,00,0D,F4,BD,FF,09,B2,
2887219,00000100,false,Rx,0,8,0E,FD,7F,C0,5D,0C,87,70,
2888411,00000301,false,Rx,0,7,FF,FF,2C,81,FF,FF,CF,00,
2889463,0000015F,false,Rx,0,8,2A,FA,00,7D,00,EE,00,7D,
2890205,000000C3,false,Rx,0,8,47,72,00,40,00,7D,FF,FF,
2890434,00000112,false,Rx,0,8,DE,24,12,0E,B3,71,65,5A,
2891425,0000013A,false,Rx,0,8,B7,F7,00,00,00,0E,FF,FF,
2892602,00000199,false,Rx,0,6,FF,FF,A4,7E,FF,3F,00,00,
2892809,0000019A,false,Rx,0,6,FF,FF,58,7F,FF,3F,00,00,
2893016,0000019F,false,Rx,0,6,FF,FF,FD,7F,FF,2F,00,00,
2893265,00000254,false,Rx,0,8,FF,7F,FF,7F,FF,7F,FF,7F,
2893392,00000258,false,Rx,0,2,11,11,00,00,00,00,00,00,
2893577,000003A5,false,Rx,0,5,E1,D5,FF,FF,FF,00,00,00,
2895901,000002EF,false,Rx,0,8,F4,01,14,C0,12,00,C0,FC,
2896899,000007BE,false,Rx,0,8,00,C0,FA,1C,02,00,00,00,
2897137,00000100,false,Rx,0,8,E9,FE,7F,C0,5D,0C,87,70,
2898406,00000302,false,Rx,0,7,FF,FF,59,81,FE,FF,FF,00,
2899138,00000239,false,Rx,0,8,70,2B,39,EA,04,FF,FF,FF,
2899451,000000EF,false,Rx,0,8,10,FA,00,7D,21,00,7D,FF,
2899988,000001A1,false,Rx,0,5,C6,C8,00,00,8A,00,00,00,
2900230,00000108,false,Rx,0,8,00,7D,FF,FF,47,F1,FF,FF,
2900449,00000112,false,Rx,0,8,DB,24,12,0E,B3,71,65,5A,
2900687,00000140,false,Rx,0,8,F7,68,40,9C,00,00,04,FF,
2900925,00000141,false,Rx,0,8,9B,78,40,9C,00,00,F4,FF,
2901113,000003FD,false,Rx,0,5,92,0B,00,00,FF,00,00,00,
2901362,000000C3,false,Rx,0,8,1A,73,00,40,00,7D,FF,FF,
2901610,000005C0,false,Rx,0,8,08,04,00,FE,FF,FF,FF,FF,
2901850,000001B5,false,Rx,0,8,8D,41,C2,70,FF,FF,FF,FF,
2902099,00000206,false,Rx,0,8,C6,25,C1,FF,FF,FF,FF,FF,
2902351,00000212,false,Rx,0,8,2B,FE,F9,FF,FF,FF,FF,FF,
2902611,000002DB,false,Rx,0,8,FF,FF,FF,FF,BF,FF,FF,FF,
2902849,000002F1,false,Rx,0,8,37,10,7D,92,01,73,00,A0,
2903097,0000032B,false,Rx,0,8,FF,FF,FF,FF,FF,FF,00,FF,
2903349,00000331,false,Rx,0,8,FF,FF,FF,EF,7F,FE,F7,FF,
2903587,000003E9,false,Rx,0,8,5C,8F,21,A1,7C,7D,20,4A,
2906058,000000A5,false,Rx,0,8,80,F4,FF,F7,7F,00,00,C1,
2906194,000000AC,false,Rx,0,2,00,F0,00,00,00,00,00,00,
2906430,000000D9,false,Rx,0,8,CC,F4,00,10,00,F0,7F,C0,
2906668,000000F3,false,Rx,0,8,E2,04,00,FF,F0,C0,FF,FF,
2907176,00000100,false,Rx,0,8,E8,F0,7F,C0,5D,0C,87,70,
2909453,0000003C,false,Rx,0,8,FF,5F,00,00,00,00,FF,FF,
2909693,0000015F,false,Rx,0,8,77,FB,00,7D,00,EE,00,7D,
2910230,000000C3,false,Rx,0,8,94,74,00,40,00,7D,FF,FF,
2910449,00000112,false,Rx,0,8,DB,24,12,0E,B3,71,65,5A,
2910688,00000201,false,Rx,0,8,89,C7,FC,69,FF,FF,FF,FF,
2911143,000003B4,false,Rx,0,8,00,00,0D,F4,BD,FF,09,B0,
2911505,0000013A,false,Rx,0,8,B6,F9,00,00,00,0E,FF,FF,
2911827,0000019D,false,Rx,0,8,C8,32,8E,01,FF,FF,FF,FF,
2912055,000002C5,false,Rx,0,7,E8,F3,00,60,06,70,C8,00,
2912630,00000199,false,Rx,0,6,FF,FF,9A,7E,FF,3F,00,00,
2912837,0000019A,false,Rx,0,6,FF,FF,58,7F,FF,3F,00,00,
2913044,0000019F,false,Rx,0,6,FF,FF,03,80,FF,2F,00,00,
2913294,00000254,false,Rx,0,8,FF,7F,FF,7F,FF,7F,FF,7F,
2913420,00000258,false,Rx,0,2,11,11,00,00,00,00,00,00,
2913801,0000012F,false,Rx,0,8,8A,24,86,1B,F1,35,30,00,
2914060,00000197,false,Rx,0,4,06,01,0E,C0,00,00,00,00,
2915140,00000349,false,Rx,0,5,FE,FF,FE,FF,00,00,00,00,
2916436,000002BB,false,Rx,0,5,F7,FA,D1,7F,F2,00,00,00,
2916684,00000289,false,Rx,0,8,60,F5,E0,FF,FD,00,EC,01,
2917243,00000100,false,Rx,0,8,B5,F1,7F,C0,5D,0C,87,70,
2917862,0000038E,false,Rx,0,8,00,00,19,19,99,08,4E,F6,
2918784,000002E8,false,Rx,0,8,C0,E8,C3,FF,FF,F4,F4,7D,
2919022,0000038E,false,Rx,0,8,00,00,19,19,99,08,4F,F6,
2919436,000000EF,false,Rx,0,8,4D,FB,00,7D,21,00,7D,FF,
2919973,000001A1,false,Rx,0,5,E1,CA,00,00,8A,00,00,00,
2920223,000000C3,false,Rx,0,8,C9,75,00,40,00,7D,FF,FF,
2920456,00000112,false,Rx,0,8,D8,24,12,0E,B3,71,65,5A,
2920694,00000140,false,Rx,0,8,4D,6A,40,9C,00,00,04,FF,
2920922,00000141,false,Rx,0,8,21,7A,40,9C,00,00,F4,FF,
2921161,000002F5,false,Rx,0,8,BF,0F,E2,24,28,0A,06,10,
2922608,000001AE,false,Rx,0,2,F7,FF,00,00,00,00,00,00,
2925788,000000A5,false,Rx,0,8,DD,F5,FF,F7,7F,00,00,C1,
2926036,00000272,false,Rx,0,8,07,FA,05,12,FF,FF,FF,FF,
2926161,000000AC,false,Rx,0,2,00,F0,00,00,00,00,00,00,
2926411,000000D9,false,Rx,0,8,91,F5,00,10,00,F0,7F,C0,
2926651,000000F3,false,Rx,0,8,BF,05,00,FF,F0,C0,FF,FF,
2926827,000002A7,false,Rx,0,5,E6,F6,FE,FF,14,00,00,00,
2927065,00000100,false,Rx,0,8,52,F2,7F,C0,5D,0C,87,70,
2927306,000003B4,false,Rx,0,8,00,00,0D,F4,BD,FF,09,B2,
2929505,0000015F,false,Rx,0,8,F9,FC,00,7D,00,EE,00,7D,
2930208,000000C3,false,Rx,0,8,2E,76,00,40,00,7D,FF,FF,
2930436,00000112,false,Rx,0,8,D8,24,12,0E,B3,71,65,5A,
2930664,00000348,false,Rx,0,8,B1,08,62,FE,FE,64,23,1B,
2931140,000003B4,false,Rx,0,8,00,00,0D,F4,BD,FF,09,B0,
2931441,0000013A,false,Rx,0,8,0C,FB,00,00,00,0E,FF,FF,
2933566,00000199,false,Rx,0,6,FF,FF,A4,7E,FF,3F,00,00,
2933772,0000019A,false,Rx,0,6,FF,FF,62,7F,FF,3F,00,00,
2933979,0000019F,false,Rx,0,6,FF,FF,E0,7F,FF,2F,00,00,
2934230,00000254,false,Rx,0,8,FF,7F,FF,7F,FF,7F,FF,7F,
2934355,00000258,false,Rx,0,2,11,11,00,00,00,00,00,00,
2935255,00000314,false,Rx,0,3,50,00,FF,00,00,00,00,00,
2937105,00000100,false,Rx,0,8,0F,F3,7F,C0,5D,0C,87,70,
2937551,00000302,false,Rx,0,7,FF,FF,59,81,FE,FF,FF,00,
2939437,000000EF,false,Rx,0,8,C3,FC,00,7D,21,00,7D,FF,
2939983,000001A1,false,Rx,0,5,88,CC,00,00,8A,00,00,00,
2940223,00000206,false,Rx,0,8,21,26,C1,FF,FF,FF,FF,FF,
2940451,00000112,false,Rx,0,8,D6,24,12,0E,B3,71,65,5A,
2940691,000000C3,false,Rx,0,8,73,77,00,40,00,7D,FF,FF,
2940930,00000140,false,Rx,0,8,9E,6C,40,9C,00,00,04,FF,
2941159,00000141,false,Rx,0,8,F2,7C,40,9C,00,00,F4,FF,
2941471,000003B4,false,Rx,0,8,00,00,0D,F4,BD,FF,09,B2,
2944031,00000197,false,Rx,0,4,8A,02,0E,C0,00,00,00,00,
2945738,000002C4,false,Rx,0,8,00,00,FF,00,C8,64,FF,CF,
2945976,000000A5,false,Rx,0,8,3A,F6,FF,F7,7F,00,00,C1,
2946111,000000AC,false,Rx,0,2,00,F0,00,00,00,00,00,00,
2946351,000000D9,false,Rx,0,8,76,F6,00,10,00,F0,7F,C0,
2946589,000000F3,false,Rx,0,8,58,06,00,FF,F0,C0,FF,FF,
2946985,000007BD,false,Rx,0,8,00,00,00,40,FF,C0,01,00,
2947217,00000100,false,Rx,0,8,81,F4,7F,C0,5D,0C,87,70,
2947465,000007BE,false,Rx,0,8,0B,00,00,00,00,00,00,00,
2949457,0000015F,false,Rx,0,8,A4,FD,00,7D,00,EE,00,7D,
2950201,00000201,false,Rx,0,8,92,C7,05,6A,FF,FF,FF,FF,
2950429,00000112,false,Rx,0,8,D8,24,12,0E,B3,71,65,5A,
2950677,000000C3,false,Rx,0,8,2F,78,00,40,00,7D,FF,FF,
2950905,0000043D,false,Rx,0,8,62,15,E7,FF,21,56,08,F0,
2951124,000000F5,false,Rx,0,7,DC,DC,00,82,00,82,00,00,
2951291,000000FF,false,Rx,0,4,E2,24,F0,00,00,00,00,00,
2951539,0000013A,false,Rx,0,8,DF,FD,00,00,00,0E,FF,FF,
2954512,00000199,false,Rx,0,6,FF,FF,A4,7E,FF,3F,00,00,
2954715,0000019A,false,Rx,0,6,FF,FF,58,7F,FF,3F,00,00,
2954933,0000019F,false,Rx,0,6,FF,FF,FE,7F,FF,2F,00,00,
2955183,00000254,false,Rx,0,8,FF,7F,FF,7F,FF,7F,FF,7F,
2955308,00000258,false,Rx,0,2,11,11,00,00,00,00,00,00,
2956432,00000163,false,Rx,0,8,FF,FF,15,25,FF,FF,FF,FF,
2956670,00000173,false,Rx,0,8,53,FA,00,0E,30,00,DE,10,
2956894,00000100,false,Rx,0,8,DC,F5,7F,C0,5D,0C,87,70,
2959438,000000EF,false,Rx,0,8,9E,FD,00,7D,21,00,7D,FF,
2959974,000001A1,false,Rx,0,5,AF,CE,00,00,8A,00,00,00,
2960224,000000C3,false,Rx,0,8,72,79,00,40,00,7D,FF,FF,
2960452,00000112,false,Rx,0,8,D7,24,12,0E,B3,71,65,5A,
2960690,00000140,false,Rx,0,8,24,6E,40,9C,00,00,04,FF,
2960923,00000141,false,Rx,0,8,48,7E,40,9C,00,00,F4,FF,
2961162,00000201,false,Rx,0,8,94,C7,07,6A,FF,FF,FF,FF,
2965774,000000A5,false,Rx,0,8,67,F7,FF,F7,7F,00,00,C1,
2966069,000000D9,false,Rx,0,8,2B,F7,00,10,00,F0,7F,C0,
2966206,000000AC,false,Rx,0,2,00,F0,00,00,00,00,00,00,
2966444,000000F3,false,Rx,0,8,05,07,00,FF,F0,C0,FF,FF,
2966631,0000036E,false,Rx,0,5,EF,FB,FE,FF,14,00,00,00,
2967053,00000100,false,Rx,0,8,3B,F6,7F,C0,5D,0C,87,70,
2967725,000006F1,false,Rx,0,5,07,03,22,DD,BC,00,00,00,
2969464,0000015F,false,Rx,0,8,43,FE,00,7D,00,EE,00,7D,
2970205,000000C3,false,Rx,0,8,95,7A,00,40,00,7D,FF,FF,
2970432,00000112,false,Rx,0,8,D8,24,12,0E,B3,71,65,5A,
2970681,0000043C,false,Rx,0,8,FE,FE,FF,FF,FF,FF,FF,FF,
2971425,0000013A,false,Rx,0,8,39,F0,00,00,00,0E,FF,FF,
2974027,00000197,false,Rx,0,4,05,03,0E,C0,00,00,00,00,
2974528,00000199,false,Rx,0,6,FF,FF,9A,7E,FF,3F,00,00,
2974735,0000019A,false,Rx,0,6,FF,FF,58,7F,FF,3F,00,00,
2974943,0000019F,false,Rx,0,6,FF,FF,04,80,FF,2F,00,00,
2975192,00000254,false,Rx,0,8,FF,7F,FF,7F,FF,7F,FF,7F,
2975317,00000258,false,Rx,0,2,11,11,00,00,00,00,00,00,
2975987,0000029E,false,Rx,0,8,47,D0,11,C6,07,FF,FF,FF,
2977242,00000100,false,Rx,0,8,66,F7,7F,C0,5D,0C,87,70,
2978404,00000302,false,Rx,0,7,FF,FF,59,81,FE,FF,FF,00,
2979437,000000EF,false,Rx,0,8,79,FE,00,7D,21,00,7D,FF,
2979973,000001A1,false,Rx,0,5,C7,C1,00,00,8A,00,00,00,
2980224,00000206,false,Rx,0,8,7C,27,C1,FF,FF,FF,FF,FF,
2980452,00000112,false,Rx,0,8,D9,24,12,0E,B3,71,65,5A,
2980690,000000C3,false,Rx,0,8,C8,7B,00,40,00,7D,FF,FF,
2980930,00000140,false,Rx,0,8,78,61,40,9C,00,00,04,FF,
2981168,00000141,false,Rx,0,8,14,71,40,9C,00,00,F4,FF,
2981397,00000607,false,Rx,0,8,F1,10,09,62,DD,BC,01,94,
2981615,000006F1,false,Rx,0,4,07,30,00,02,00,00,00,00,
2981863,000003CA,false,Rx,0,8,78,10,2D,04,04,80,FF,FF,
2982257,00000607,false,Rx,0,6,F1,21,03,AF,00,69,00,00,
2985984,000000A5,false,Rx,0,8,3B,F8,FF,F7,7F,00,00,C1,
2986119,000000AC,false,Rx,0,2,00,F0,00,00,00,00,00,00,
2986356,000000D9,false,Rx,0,8,77,F8,00,10,00,F0,7F,C0,
2986594,000000F3,false,Rx,0,8,59,08,00,FF,F0,C0,FF,FF,
2986843,000002B2,false,Rx,0,8,1A,0E,E2,04,FF,0F,FF,FF,
2987319,00000100,false,Rx,0,8,3A,F8,7F,C0,5D,0C,87,70,
2987496,0000036F,false,Rx,0,5,D4,FC,FE,FF,14,00,00,00,
2989450,0000015F,false,Rx,0,8,42,F0,00,7D,00,EE,00,7D,
2990210,000000C3,false,Rx,0,8,46,7C,00,40,00,7D,FF,FF,
2990438,00000112,false,Rx,0,8,DA,24,12,0E,B3,71,65,5A,
2990666,0000034A,false,Rx,0,8,97,EB,96,FB,F5,FB,82,25,
2991430,0000013A,false,Rx,0,8,83,F2,00,00,00,0E,FF,FF,
2995225,0000051A,false,Rx,0,8,00,00,00,00,50,00,00,1A,
2995501,00000199,false,Rx,0,6,FF,FF,A4,7E,FF,3F,00,00,
2995708,0000019A,false,Rx,0,6,FF,FF,62,7F,FF,3F,00,00,
2995915,0000019F,false,Rx,0,6,FF,FF,E7,7F,FF,2F,00,00,
2996163,00000254,false,Rx,0,8,FF,7F,FF,7F,FF,7F,FF,7F,
2996290,00000258,false,Rx,0,2,11,11,00,00,00,00,00,00,
2996517,000002EF,false,Rx,0,8,F4,01,14,C0,12,00,C0,FC,
2996899,00000100,false,Rx,0,8,67,F9,7F,C0,5D,0C,87,70,
2999187,00000239,false,Rx,0,8,70,2C,39,EA,04,FF,FF,FF,
2999453,000000EF,false,Rx,0,8,78,F0,00,7D,21,00,7D,FF,
2999989,000001A1,false,Rx,0,5,E0,C3,00,00,8A,00,00,00,
3000229,00000108,false,Rx,0,8,00,7D,FF,FF,47,F1,FF,FF,
3000457,00000112,false,Rx,0,8,DC,24,12,0E,B3,71,65,5A,
3000695,00000140,false,Rx,0,8,C2,63,40,9C,00,00,04,FF,
3000934,00000141,false,Rx,0,8,AE,73,40,9C,00,00,F4,FF,
3001121,000003FD,false,Rx,0,5,66,0C,00,00,FF,00,00,00,
3001368,000000C3,false,Rx,0,8,1B,7D,00,40,00,7D,FF,FF,
3001628,00000212,false,Rx,0,8,2A,F0,F9,FF,FF,FF,FF,FF,
3001886,000002DB,false,Rx,0,8,FF,FF,FF,FF,BF,FF,FF,FF,
3002125,000002F1,false,Rx,0,8,37,10,7D,92,01,73,00,A0,
3004036,00000197,false,Rx,0,4,8F,04,0E,C0,00,00,00,00,
3006020,000000A5,false,Rx,0,8,66,F9,FF,F7,7F,00,00,C1,
3006156,000000AC,false,Rx,0,2,00,F0,00,00,00,00,00,00,
3006395,000000D9,false,Rx,0,8,2A,F9,00,10,00,F0,7F,C0,
3006643,000000F3,false,Rx,0,8,04,09,00,FF,F0,C0,FF,FF,
3006820,000002A7,false,Rx,0,5,7B,F7,FE,FF,14,00,00,00,
3007382,00000100,false,Rx,0,8,80,FA,7F,C0,5D,0C,87,70,
3009291,000000C0,false,Rx,0,2,F4,40,00,00,00,00,00,00,
3009547,0000003C,false,Rx,0,8,FF,5F,00,00,00,00,FF,FF,
3009786,0000015F,false,Rx,0,8,1F,F1,00,7D,00,EE,00,7D,
3010232,000000C3,false,Rx,0,8,FC,7E,00,40,00,7D,FF,FF,
3010459,00000112,false,Rx,0,8,DC,24,12,0E,B3,71,65,5A,
3010698,00000201,false,Rx,0,8,9F,C7,12,6A,FF,FF,FF,FF,
3010937,0000034C,false,Rx,0,8,35,00,00,00,1B,13,F0,FF,
3011491,0000013A,false,Rx,0,8,50,F4,00,00,00,0E,FF,FF,
3011792,000002C5,false,Rx,0,7,27,F4,00,60,06,70,C8,00,
3013790,0000012F,false,Rx,0,8,D7,25,86,1B,F1,35,30,00,
3015530,00000199,false,Rx,0,6,FF,FF,90,7E,FF,3F,00,00,
3015737,0000019A,false,Rx,0,6,FF,FF,58,7F,FF,3F,00,00,
3015954,0000019F,false,Rx,0,6,FF,FF,0E,80,FF,2F,00,00,
3016193,00000254,false,Rx,0,8,FF,7F,FF,7F,FF,7F,FF,7F,
3016320,00000258,false,Rx,0,2,11,11,00,00,00,00,00,00,
3016557,00000289,false,Rx,0,8,87,F6,E0,FF,FD,00,EC,01,
3016744,000002BB,false,Rx,0,5,9F,F5,D1,7F,F2,00,00,00,
3017251,00000100,false,Rx,0,8,DD,FB,7F,C0,5D,0C,87,70,
3018415,00000302,false,Rx,0,7,FF,FF,59,81,FE,FF,FF,00,
3018768,000002E8,false,Rx,0,8,C0,E8,C3,FF,FF,F4,F5,60,
3019440,000000EF,false,Rx,0,8,25,F1,00,7D,21,00,7D,FF,
3019986,000001A1,false,Rx,0,5,89,C5,00,00,8A,00,00,00,
3020237,00000206,false,Rx,0,8,20,28,C1,FF,FF,FF,FF,FF,
3020464,00000112,false,Rx,0,8,DB,24,12,0E,B3,71,65,5A,
3020703,000000C3,false,Rx,0,8,FD,70,00,40,00,7D,FF,FF,
3020942,00000140,false,Rx,0,8,11,65,40,9C,00,00,04,FF,
3021181,00000141,false,Rx,0,8,7D,75,40,9C,00,00,F4,FF,
3021409,000002F5,false,Rx,0,8,BF,0F,E2,24,28,0A,06,10,
3022595,000001AE,false,Rx,0,2,F7,FF,00,00,00,00,00,00,
3025777,000000A5,false,Rx,0,8,81,FA,FF,F7,7F,00,00,C1,
3026073,000000D9,false,Rx,0,8,CD,FA,00,10,00,F0,7F,C0,
3026211,000000AC,false,Rx,0,2,00,F0,00,00,00,00,00,00,
3026447,000000F3,false,Rx,0,8,E3,0A,00,FF,F0,C0,FF,FF,
3027046,00000100,false,Rx,0,8,53,FC,7F,C0,5D,0C,87,70,
3027563,0000031C,false,Rx,0,8,FF,FF,FF,FF,FF,FF,FF,FF,
3027761,0000033B,false,Rx,0,6,1E,F2,DC,FF,FF,FF,00,00,
3029500,0000015F,false,Rx,0,8,F8,F2,00,7D,00,EE,00,7D,
3030209,000000C3,false,Rx,0,8,A0,71,00,40,00,7D,FF,FF,
3030437,00000112,false,Rx,0,8,DE,24,12,0E,B3,71,65,5A,
3031427,0000013A,false,Rx,0,8,EA,F6,00,00,00,0E,FF,FF,
3034038,00000197,false,Rx,0,4,00,05,0E,C0,00,00,00,00,
3036510,00000199,false,Rx,0,6,FF,FF,90,7E,FF,3F,00,00,
3036713,0000019A,false,Rx,0,6,FF,FF,58,7F,FF,3F,00,00,
3036920,0000019F,false,Rx,0,6,FF,FF,05,80,FF,2F,00,00,
3037159,00000100,false,Rx,0,8,0E,FD,7F,C0,5D,0C,87,70,
3037409,00000254,false,Rx,0,8,FF,7F,FF,7F,FF,7F,FF,7F,
3037534,00000258,false,Rx,0,2,11,11,00,00,00,00,00,00,
3037752,00000297,false,Rx,0,7,C3,E9,F0,E0,F2,92,EA,00,
3039428,000000EF,false,Rx,0,8,C2,F2,00,7D,21,00,7D,FF,
3039975,000001A1,false,Rx,0,5,AE,C7,00,00,8A,00,00,00,
3040215,000000C3,false,Rx,0,8,47,72,00,40,00,7D,FF,FF,
3040443,00000112,false,Rx,0,8,DD,24,12,0E,B3,71,65,5A,
3040683,00000140,false,Rx,0,8,AB,67,40,9C,00,00,04,FF,
3040912,00000141,false,Rx,0,8,C7,77,40,9C,00,00,F4,FF,
3041150,00000239,false,Rx,0,8,70,2C,39,EA,04,FF,FF,FF,
3043769,000001E1,false,Rx,0,6,B2,F3,05,FF,FF,FF,00,00,
3046003,000002C4,false,Rx,0,8,00,00,FF,00,C8,64,FF,CF,
3046243,000000A5,false,Rx,0,8,DC,FB,FF,F7,7F,00,00,C1,
3046368,000000AC,false,Rx,0,2,00,F0,00,00,00,00,00,00,
3046625,000000D9,false,Rx,0,8,90,FB,00,10,00,F0,7F,C0,
3046853,000000F3,false,Rx,0,8,BE,0B,00,FF,F0,C0,FF,FF,
3047062,00000304,false,Rx,0,6,FF,FF,D6,38,FF,FF,00,00,
3047292,00000100,false,Rx,0,8,E9,FE,7F,C0,5D,0C,87,70,
3047540,000007BD,false,Rx,0,8,00,00,00,40,FF,C0,01,00,
3047820,000007BE,false,Rx,0,8,05,00,00,00,00,00,00,E0,
3049447,0000015F,false,Rx,0,8,A5,F3,00,7D,00,EE,00,7D,
3050222,000000C3,false,Rx,0,8,1A,73,00,40,00,7D,FF,FF,
3050449,00000112,false,Rx,0,8,E0,24,12,0E,B3,71,65,5A,
3051430,0000013A,false,Rx,0,8,EB,F8,00,00,00,0E,FF,FF,
3056582,00000163,false,Rx,0,8,FF,FF,15,25,FF,FF,FF,FF,
3056816,00000173,false,Rx,0,8,0F,F5,00,0E,30,00,DE,10,
3057014,00000199,false,Rx,0,6,FF,FF,86,7E,FF,3F,00,00,
3057253,00000100,false,Rx,0,8,E8,F0,7F,C0,5D,0C,87,70,
3057460,0000019A,false,Rx,0,6,FF,FF,58,7F,FF,3F,00,00,
3057667,0000019F,false,Rx,0,6,FF,FF,0F,80,FF,2F,00,00,
3057916,00000254,false,Rx,0,8,FF,7F,FF,7F,FF,7F,FF,7F,
3058041,00000258,false,Rx,0,2,11,11,00,00,00,00,00,00,
3058403,00000302,false,Rx,0,7,FF,FF,59,81,FE,FF,FF,00,
3059435,000000EF,false,Rx,0,8,9F,F3,00,7D,21,00,7D,FF,
3059971,000001A1,false,Rx,0,5,5B,C9,00,00,8A,00,00,00,
3060211,00000206,false,Rx,0,8,7D,29,C1,FF,FF,FF,FF,FF,
3060439,00000112,false,Rx,0,8,DF,24,12,0E,B3,71,65,5A,
3060689,000000C3,false,Rx,0,8,94,74,00,40,00,7D,FF,FF,
3060919,00000140,false,Rx,0,8,AA,69,40,9C,00,00,04,FF,
3061157,00000141,false,Rx,0,8,C6,79,40,9C,00,00,F4,FF,
3061396,00000201,false,Rx,0,8,AA,C7,1D,6A,FF,FF,FF,FF,
3061625,00000431,false,Rx,0,8,C6,FD,43,00,0E,9F,F7,00,
3064032,00000197,false,Rx,0,4,8C,06,0E,C0,00,00,00,00,
3065791,000000A5,false,Rx,0,8,52,FC,FF,F7,7F,00,00,C1,
3066091,000000D9,false,Rx,0,8,1E,FC,00,10,00,F0,7F,C0,
3066218,000000AC,false,Rx,0,2,00,F0,00,00,00,00,00,00,
3066465,000000F3,false,Rx,0,8,30,0C,00,FF,F0,C0,FF,FF,
3067056,00000100,false,Rx,0,8,B5,F1,7F,C0,5D,0C,87,70,
3069457,0000015F,false,Rx,0,8,2B,F4,00,7D,00,EE,00,7D,
3070201,000000C3,false,Rx,0,8,C9,75,00,40,00,7D,FF,FF,
3070429,00000112,false,Rx,0,8,E2,24,12,0E,B3,71,65,5A,
3070657,00000432,false,Rx,0,8,AC,DA,15,BD,51,7C,2E,BC,
3071424,0000013A,false,Rx,0,8,51,FA,00,00,00,0E,FF,FF,
3076096,0000029E,false,Rx,0,8,47,D0,11,C6,07,FF,FF,FF,
3076899,00000100,false,Rx,0,8,52,F2,7F,C0,5D,0C,87,70,
3077477,00000199,false,Rx,0,6,FF,FF,9A,7E,FF,3F,00,00,
3077685,0000019A,false,Rx,0,6,FF,FF,58,7F,FF,3F,00,00,
3077892,0000019F,false,Rx,0,6,FF,FF,F6,7F,FF,2F,00,00,
3078152,00000254,false,Rx,0,8,FF,7F,FF,7F,FF,7F,FF,7F,
3078268,00000258,false,Rx,0,2,11,11,00,00,00,00,00,00,
3079444,000000EF,false,Rx,0,8,11,F4,00,7D,21,00,7D,FF,
3079971,000001A1,false,Rx,0,5,7C,CB,00,00,8A,00,00,00,
3080211,000000C3,false,Rx,0,8,2E,76,00,40,00,7D,FF,FF,
3080439,00000112,false,Rx,0,8,E0,24,12,0E,B3,71,65,5A,
3080677,00000140,false,Rx,0,8,10,6B,40,9C,00,00,04,FF,
3080917,00000141,false,Rx,0,8,7C,7B,40,9C,00,00,F4,FF,
3085970,000000A5,false,Rx,0,8,0F,FD,FF,F7,7F,00,00,C1,
3086101,000000AC,false,Rx,0,2,00,F0,00,00,00,00,00,00,
3086341,000000D9,false,Rx,0,8,43,FD,00,10,00,F0,7F,C0,
3086579,000000F3,false,Rx,0,8,6D,0D,00,FF,F0,C0,FF,FF,
3086755,000002A7,false,Rx,0,5,13,F8,FE,FF,14,00,00,00,
3086994,000002B2,false,Rx,0,8,1A,0E,E2,04,FF,0F,FF,FF,
3087235,00000100,false,Rx,0,8,0F,F3,7F,C0,5D,0C,87,70,
3087473,000003B4,false,Rx,0,8,00,00,0D,F4,BD,FF,09,B2,
3088411,00000301,false,Rx,0,7,FF,FF,2C,81,FF,FF,CF,00,
3089453,0000015F,false,Rx,0,8,76,F5,00,7D,00,EE,00,7D,
3090225,000000C3,false,Rx,0,8,73,77,00,40,00,7D,FF,FF,
3090443,00000112,false,Rx,0,8,E2,24,12,0E,B3,71,75,5A,
3091423,0000013A,false,Rx,0,8,82,FC,00,00,00,0E,FF,FF,
3094033,00000197,false,Rx,0,4,03,07,0E,C0,00,00,00,00,
3095090,00000314,false,Rx,0,3,50,00,FF,00,00,00,00,00,
3096107,000002EF,false,Rx,0,8,F4,01,14,C0,12,00,C0,FC,
3096902,000007BE,false,Rx,0,8,0C,41,04,69,00,00,00,00,
3097130,00000100,false,Rx,0,8,81,F4,7F,C0,5D,0C,87,70,
3097534,00000199,false,Rx,0,6,FF,FF,86,7E,FF,3F,00,00,
3097742,0000019A,false,Rx,0,6,FF,FF,62,7F,FF,3F,00,00,
3097949,0000019F,false,Rx,0,6,FF,FF,FD,7F,FF,2F,00,00,
3098194,00000254,false,Rx,0,8,FF,7F,FF,7F,FF,7F,FF,7F,
3098319,00000258,false,Rx,0,2,11,11,00,00,00,00,00,00,
3098547,00000302,false,Rx,0,7,FF,FF,59,81,FE,FF,FF,00,
3099178,00000239,false,Rx,0,8,80,2D,39,EA,04,FF,FF,FF,
3099447,000000EF,false,Rx,0,8,4C,F5,00,7D,21,00,7D,FF,
3099984,000001A1,false,Rx,0,5,15,CD,00,00,8A,00,00,00,
3100177,000003FD,false,Rx,0,5,FB,0D,00,00,FF,00,00,00,
3100415,00000108,false,Rx,0,8,00,7D,FF,FF,47,F1,FF,FF,
3100663,000000C3,false,Rx,0,8,2F,78,00,40,00,7D,FF,FF,
3100892,00000112,false,Rx,0,8,DF,24,12,0E,B3,71,75,5A,
3101131,00000140,false,Rx,0,8,C3,6D,40,9C,00,00,04,FF,
3101370,00000141,false,Rx,0,8,AF,7D,40,9C,00,00,F4,FF,
3101599,000001B5,false,Rx,0,8,6A,42,C2,70,FF,FF,FF,FF,
3101858,00000206,false,Rx,0,8,9A,2A,C1,FF,FF,FF,FF,FF,
3102116,00000212,false,Rx,0,8,77,F1,F9,FF,FF,FF,FF,FF,
3102360,000002DB,false,Rx,0,8,FF,FF,FF,FF,BF,FF,FF,FF,
3102608,000002F1,false,Rx,0,8,37,10,7D,92,01,73,00,A0,
3102856,0000032B,false,Rx,0,8,FF,FF,FF,FF,FF,FF,00,FF,
3103106,00000331,false,Rx,0,8,FF,FF,FF,EF,7F,FE,F7,FF,
3103356,000003E9,false,Rx,0,8,5C,8F,21,A1,7C,7D,20,4A,
3106040,000000A5,false,Rx,0,8,E8,FE,FF,F7,7F,00,00,C1,
3106177,000000AC,false,Rx,0,2,00,F0,00,00,00,00,00,00,
3106412,000000D9,false,Rx,0,8,A4,FE,00,10,00,F0,7F,C0,
3106650,000000F3,false,Rx,0,8,8A,0E,00,FF,F0,C0,FF,FF,
3107146,00000100,false,Rx,0,8,DC,F5,7F,C0,5D,0C,87,70,
3109447,0000003C,false,Rx,0,8,FF,5F,00,00,00,00,FF,FF,
3109685,0000015F,false,Rx,0,8,91,F6,00,7D,00,EE,00,7D,
3110203,000000C3,false,Rx,0,8,72,79,00,40,00,7D,FF,FF,
3110431,00000112,false,Rx,0,8,DF,24,12,0E,B3,71,75,5A,
3110670,00000201,false,Rx,0,8,B5,C7,28,6A,FF,FF,FF,FF,
3111487,0000013A,false,Rx,0,8,38,FE,00,00,00,0E,FF,FF,
3111797,000002C5,false,Rx,0,7,61,F5,00,60,06,70,C8,00,
3111942,000002CA,false,Rx,0,2,7C,80,00,00,00,00,00,00,
3112148,000002F7,false,Rx,0,6,02,D8,49,0B,11,F1,00,00,
3113806,0000012F,false,Rx,0,8,30,26,86,1B,F1,35,30,00,
3115153,00000349,false,Rx,0,5,FE,FF,FE,FF,00,00,00,00,
3116428,000002BB,false,Rx,0,5,4C,F0,D1,7F,F2,00,00,00,
3116656,00000289,false,Rx,0,8,DA,F7,E0,FF,FD,00,EC,01,
3117246,00000100,false,Rx,0,8,3B,F6,7F,C0,5D,0C,87,70,
3118494,00000199,false,Rx,0,6,FF,FF,86,7E,FF,3F,00,00,
3118701,0000019A,false,Rx,0,6,FF,FF,58,7F,FF,3F,00,00,
3118908,0000019F,false,Rx,0,6,FF,FF,F5,7F,FF,2F,00,00,
3119158,00000254,false,Rx,0,8,FF,7F,FF,7F,FF,7F,FF,7F,
3119284,00000258,false,Rx,0,2,11,11,00,00,00,00,00,00,
3119521,000000EF,false,Rx,0,8,AB,F6,00,7D,21,00,7D,FF,
3119759,000002E8,false,Rx,0,8,C0,E8,C3,FF,FF,F4,F6,47,
3119999,000001A1,false,Rx,0,5,5A,C0,00,00,8A,00,00,00,
3120237,000000C3,false,Rx,0,8,95,7A,00,40,00,7D,FF,FF,
3120466,00000112,false,Rx,0,8,DF,24,12,0E,B3,71,75,5A,
3120716,00000140,false,Rx,0,8,25,60,40,9C,00,00,04,FF,
3120944,00000141,false,Rx,0,8,49,70,40,9C,00,00,F4,FF,
3121184,000002F5,false,Rx,0,8,BF,0F,E2,24,28,0A,06,10,
3122599,000001AE,false,Rx,0,2,F7,FF,00,00,00,00,00,00,
3124032,00000197,false,Rx,0,4,85,08,0E,C0,00,00,00,00,
3125977,000000A5,false,Rx,0,8,E9,F0,FF,F7,7F,00,00,C1,
3126114,000000AC,false,Rx,0,2,00,F0,00,00,00,00,00,00,
3126352,000000D9,false,Rx,0,8,A5,F0,00,10,00,F0,7F,C0,
3126600,000000F3,false,Rx,0,8,8B,00,00,FF,F0,C0,FF,FF,
3126829,00000272,false,Rx,0,8,5A,FB,05,12,FF,FF,FF,FF,
3127016,0000036E,false,Rx,0,5,1B,FC,FE,FF,14,00,00,00,
3127244,00000100,false,Rx,0,8,66,F7,7F,C0,5D,0C,87,70,
3129494,0000015F,false,Rx,0,8,CC,F7,00,7D,00,EE,00,7D,
3130218,000000C3,false,Rx,0,8,C8,7B,00,40,00,7D,FF,FF,
3130454,00000112,false,Rx,0,8,DD,24,12,0E,B3,71,75,5A,
3131425,0000013A,false,Rx,0,8,64,F1,00,00,00,0E,FF,FF,
3137095,00000100,false,Rx,0,8,3A,F8,7F,C0,5D,0C,87,70,
3138526,00000199,false,Rx,0,6,FF,FF,90,7E,FF,3F,00,00,
3138733,0000019A,false,Rx,0,6,FF,FF,58,7F,FF,3F,00,00,
3138950,0000019F,false,Rx,0,6,FF,FF,06,80,FF,2F,00,00,
3139190,00000254,false,Rx,0,8,FF,7F,FF,7F,FF,7F,FF,7F,
3139326,00000258,false,Rx,0,2,11,11,00,00,00,00,00,00,
3139552,000000EF,false,Rx,0,8,F6,F7,00,7D,21,00,7D,FF,
3139780,00000302,false,Rx,0,7,FF,FF,59,81,FE,FF,FF,00,
3140040,000001A1,false,Rx,0,5,7D,C2,00,00,8A,00,00,00,
3140279,00000206,false,Rx,0,8,C7,2B,C1,FF,FF,FF,FF,FF,
3140507,00000112,false,Rx,0,8,DD,24,12,0E,B3,71,75,5A,
3140756,000000C3,false,Rx,0,8,46,7C,00,40,00,7D,FF,FF,
3140994,00000140,false,Rx,0,8,9F,62,40,9C,00,00,04,FF,
3141235,00000141,false,Rx,0,8,F3,72,40,9C,00,00,F4,FF,
3145738,000002C4,false,Rx,0,8,00,00,FF,00,C8,64,FF,CF,
3145972,000000A5,false,Rx,0,8,B4,F1,FF,F7,7F,00,00,C1,
3146099,000000AC,false,Rx,0,2,00,F0,00,00,00,00,00,00,
3146347,000000D9,false,Rx,0,8,F8,F1,00,10,00,F0,7F,C0,
3146586,000000F3,false,Rx,0,8,D6,01,00,FF,F0,C0,FF,FF,
3146979,000007BD,false,Rx,0,8,00,00,00,40,FF,C0,01,00,
3147220,00000100,false,Rx,0,8,67,F9,7F,C0,5D,0C,87,70,
3147396,0000036F,false,Rx,0,5,49,FD,FE,FF,14,00,00,00,
3147645,000007BE,false,Rx,0,8,00,C0,FA,1C,02,00,00,00,
3149502,0000015F,false,Rx,0,8,90,F8,00,7D,00,EE,00,7D,
3150211,000000C3,false,Rx,0,8,1B,7D,00,40,00,7D,FF,FF,
3150439,00000112,false,Rx,0,8,D9,24,12,0E,B3,71,75,5A,
3151337,000003B4,false,Rx,0,8,00,00,0D,F4,BD,FF,09,B0,
3151577,0000013A,false,Rx,0,8,DE,F3,00,00,00,0E,FF,FF,
3154034,00000197,false,Rx,0,4,0A,09,0E,C0,00,00,00,00,
3157107,00000100,false,Rx,0,8,80,FA,7F,C0,5D,0C,87,70,
3157435,00000163,false,Rx,0,8,FF,FF,15,25,FF,FF,FF,FF,
3157675,00000173,false,Rx,0,8,3B,F0,00,0E,30,00,DE,10,
3159488,00000199,false,Rx,0,6,FF,FF,90,7E,FF,3F,00,00,
3159695,0000019A,false,Rx,0,6,FF,FF,58,7F,FF,3F,00,00,
3159934,000000EF,false,Rx,0,8,AA,F8,00,7D,21,00,7D,FF,
3160152,0000019F,false,Rx,0,6,FF,FF,F8,7F,FF,2F,00,00,
3160391,000000C3,false,Rx,0,8,FC,7E,00,40,00,7D,FF,FF,
3160619,00000112,false,Rx,0,8,DA,24,12,0E,B3,71,75,5A,
3160858,00000140,false,Rx,0,8,4C,64,40,9C,00,00,04,FF,
3161096,00000141,false,Rx,0,8,20,74,40,9C,00,00,F4,FF,
3161274,000001A1,false,Rx,0,5,14,C4,00,00,8A,00,00,00,
3161512,00000201,false,Rx,0,8,C0,C7,32,6A,FF,FF,FF,FF,
3161761,00000254,false,Rx,0,8,FF,7F,FF,7F,FF,7F,FF,7F,
3161896,00000258,false,Rx,0,2,11,11,00,00,00,00,00,00,
3162133,000003B4,false,Rx,0,8,00,00,0D,F4,BD,FF,09,B2,
3165770,000000A5,false,Rx,0,8,53,F2,FF,F7,7F,00,00,C1,
3166077,000000D9,false,Rx,0,8,1F,F2,00,10,00,F0,7F,C0,
3166203,000000AC,false,Rx,0,2,00,F0,00,00,00,00,00,00,
3166440,000000F3,false,Rx,0,8,31,02,00,FF,F0,C0,FF,FF,
3166627,000002A7,false,Rx,0,5,8E,F9,FE,FF,14,00,00,00,
3167041,00000100,false,Rx,0,8,DD,FB,7F,C0,5D,0C,87,70,
3169509,0000015F,false,Rx,0,8,CD,F9,00,7D,00,EE,00,7D,
3170208,000000C3,false,Rx,0,8,FD,70,00,40,00,7D,FF,FF,
3170436,00000112,false,Rx,0,8,D7,24,12,0E,B3,71,75,5A,
3171418,0000013A,false,Rx,0,8,0D,F5,00,00,00,0E,FF,FF,
3176195,0000029E,false,Rx,0,8,47,D0,11,C6,07,FF,FF,FF,
3177387,00000100,false,Rx,0,8,53,FC,7F,C0,5D,0C,87,70,
3179518,00000199,false,Rx,0,6,FF,FF,90,7E,FF,3F,00,00,
3179725,0000019A,false,Rx,0,6,FF,FF,58,7F,FF,3F,00,00,
3179964,000000EF,false,Rx,0,8,F7,F9,00,7D,21,00,7D,FF,
3180172,0000019F,false,Rx,0,6,FF,FF,FD,7F,FF,2F,00,00,
3180412,00000206,false,Rx,0,8,49,2C,C1,FF,FF,FF,FF,FF,
3180641,00000112,false,Rx,0,8,D8,24,12,0E,B3,71,75,5A,
3180880,000000C3,false,Rx,0,8,A0,71,00,40,00,7D,FF,FF,
3181118,00000140,false,Rx,0,8,F6,66,40,9C,00,00,04,FF,
3181359,00000141,false,Rx,0,8,9A,76,40,9C,00,00,F4,FF,
3181535,000001A1,false,Rx,0,5,33,C6,00,00,8A,00,00,00,
3181783,00000254,false,Rx,0,8,FF,7F,FF,7F,FF,7F,FF,7F,
3181908,00000258,false,Rx,0,2,11,11,00,00,00,00,00,00,
3182146,00000302,false,Rx,0,7,FF,FF,59,81,FE,FF,FF,00,
3184035,00000197,false,Rx,0,4,86,0A,0E,C0,00,00,00,00,
3185959,000000A5,false,Rx,0,8,0E,F3,FF,F7,7F,00,00,C1,
3186094,000000AC,false,Rx,0,2,00,F0,00,00,00,00,00,00,
3186330,000000D9,false,Rx,0,8,42,F3,00,10,00,F0,7F,C0,
3186568,000000F3,false,Rx,0,8,6C,03,00,FF,F0,C0,FF,FF,
3186807,000002B2,false,Rx,0,8,1A,0E,E2,04,FF,0F,FF,FF,
3187045,00000100,false,Rx,0,8,0E,FD,7F,C0,5D,0C,87,70,
3189451,0000015F,false,Rx,0,8,2A,FA,00,7D,00,EE,00,7D,
3190205,000000C3,false,Rx,0,8,47,72,00,40,00,7D,FF,FF,
3190431,00000112,false,Rx,0,8,D5,24,12,0E,B3,71,75,5A,
3191423,0000013A,false,Rx,0,8,B7,F7,00,00,00,0E,FF,FF,
3196215,000002EF,false,Rx,0,8,F4,01,14,C0,12,00,C0,FC,
3196935,000007BD,false,Rx,0,8,10,00,00,00,00,00,00,00,
3197163,00000100,false,Rx,0,8,E9,FE,7F,C0,5D,0C,87,70,
3197412,000007BE,false,Rx,0,8,0B,00,00,00,00,00,00,00,
3199166,00000239,false,Rx,0,8,80,2E,39,EA,04,FF,FF,FF,
3199446,000000EF,false,Rx,0,8,10,FA,00,7D,21,00,7D,FF,
3199973,000001A1,false,Rx,0,5,C6,C8,00,00,8A,00,00,00,
3200222,00000108,false,Rx,0,8,00,7D,FF,FF,47,F1,FF,FF,
3200452,00000112,false,Rx,0,8,D7,24,12,0E,B3,71,75,5A,
3200681,00000140,false,Rx,0,8,F7,68,40,9C,00,00,04,FF,
3200920,00000141,false,Rx,0,8,9B,78,40,9C,00,00,F4,FF,
3201127,00000199,false,Rx,0,6,FF,FF,86,7E,FF,3F,00,00,
3201326,0000019A,false,Rx,0,6,FF,FF,4E,7F,FF,3F,00,00,
3201533,0000019F,false,Rx,0,6,FF,FF,F7,7F,FF,2F,00,00,
3201781,00000254,false,Rx,0,8,FF,7F,FF,7F,FF,7F,FF,7F,
3201916,00000258,false,Rx,0,2,11,11,00,00,00,00,00,00,
3202093,000003FD,false,Rx,0,5,41,0E,00,00,FF,00,00,00,
3202344,000000C3,false,Rx,0,8,1A,73,00,40,00,7D,FF,FF,
3202572,000000F5,false,Rx,0,7,DC,DC,00,82,00,82,00,00,
3202748,000000FF,false,Rx,0,4,E2,24,F0,00,00,00,00,00,
3202987,00000201,false,Rx,0,8,C8,C7,3B,6A,FF,FF,FF,FF,
3203237,00000212,false,Rx,0,8,90,F2,F9,FF,FF,FF,FF,FF,
3203495,000002DB,false,Rx,0,8,FF,FF,FF,FF,BF,FF,FF,FF,
3203735,000002F1,false,Rx,0,8,37,10,7D,92,01,73,00,A0,
3206022,000000A5,false,Rx,0,8,80,F4,FF,F7,7F,00,00,C1,
3206157,000000AC,false,Rx,0,2,00,F0,00,00,00,00,00,00,
3206393,000000D9,false,Rx,0,8,CC,F4,00,10,00,F0,7F,C0,
3206631,000000F3,false,Rx,0,8,E2,04,00,FF,F0,C0,FF,FF,
3206871,000003B4,false,Rx,0,8,00,00,0D,F4,BD,FF,09,B0,
3207140,00000100,false,Rx,0,8,E8,F0,7F,C0,5D,0C,87,70,
3209360,000000C0,false,Rx,0,2,F5,40,00,00,00,00,00,00,
3209608,0000003C,false,Rx,0,8,FF,5F,00,00,00,00,FF,FF,
3209847,0000015F,false,Rx,0,8,77,FB,00,7D,00,EE,00,7D,
3210210,000000C3,false,Rx,0,8,94,74,00,40,00,7D,FF,FF,
3210439,00000112,false,Rx,0,8,D8,24,12,0E,B3,71,75,5A,
3210679,00000201,false,Rx,0,8,CA,C7,3D,6A,FF,FF,FF,FF,
3211423,0000013A,false,Rx,0,8,B6,F9,00,00,00,0E,FF,FF,
3211815,0000019D,false,Rx,0,8,C8,32,8E,01,FF,FF,FF,FF,
3212043,000002C5,false,Rx,0,7,AB,F6,00,60,06,70,C8,00,
3213802,0000012F,false,Rx,0,8,6D,27,86,1B,F1,35,30,00,
3214060,00000197,false,Rx,0,4,09,0B,0E,C0,00,00,00,00,
3216430,000002BB,false,Rx,0,5,F7,FA,D1,7F,F2,00,00,00,
3216674,00000289,false,Rx,0,8,86,F8,E0,FF,FD,00,EC,01,
3217242,00000100,false,Rx,0,8,B5,F1,7F,C0,5D,0C,87,70,
3218756,000002E8,false,Rx,0,8,C0,E8,C3,FF,FF,F4,F7,5A,
3219531,000000EF,false,Rx,0,8,4D,FB,00,7D,21,00,7D,FF,
3220079,000001A1,false,Rx,0,5,E1,CA,00,00,8A,00,00,00,
3220318,00000206,false,Rx,0,8,14,2D,C1,FF,FF,FF,FF,FF,
3220549,00000112,false,Rx,0,8,D9,24,12,0E,B3,71,75,5A,
3220787,000000C3,false,Rx,0,8,C9,75,00,40,00,7D,FF,FF,
3221025,00000140,false,Rx,0,8,4D,6A,40,9C,00,00,04,FF,
3221265,00000141,false,Rx,0,8,21,7A,40,9C,00,00,F4,FF,
3221463,00000199,false,Rx,0,6,FF,FF,A4,7E,FF,3F,00,00,
3221670,0000019A,false,Rx,0,6,FF,FF,4E,7F,FF,3F,00,00,
3221877,0000019F,false,Rx,0,6,FF,FF,F8,7F,FF,2F,00,00,
3222127,00000254,false,Rx,0,8,FF,7F,FF,7F,FF,7F,FF,7F,
3222253,00000258,false,Rx,0,2,11,11,00,00,00,00,00,00,
3222512,000002F5,false,Rx,0,8,BF,0F,E2,24,28,0A,06,10,
3222709,00000302,false,Rx,0,7,FF,FF,59,81,FE,FF,FF,00,
3222845,000001AE,false,Rx,0,2,F7,FF,00,00,00,00,00,00,
3225771,000000A5,false,Rx,0,8,DD,F5,FF,F7,7F,00,00,C1,
3226072,000000D9,false,Rx,0,8,91,F5,00,10,00,F0,7F,C0,
3226209,000000AC,false,Rx,0,2,00,F0,00,00,00,00,00,00,
3226446,000000F3,false,Rx,0,8,BF,05,00,FF,F0,C0,FF,FF,
3226687,000003B4,false,Rx,0,8,00,00,0D,F4,BD,FF,09,B2,
3227038,00000100,false,Rx,0,8,52,F2,7F,C0,5D,0C,87,70,
3227556,0000031C,false,Rx,0,8,FF,FF,FF,FF,FF,FF,FF,FF,
3227753,0000033B,false,Rx,0,6,74,F3,DC,FF,FF,FF,00,00,
3229498,0000015F,false,Rx,0,8,F9,FC,00,7D,00,EE,00,7D,
3230222,000000C3,false,Rx,0,8,2E,76,00,40,00,7D,FF,FF,
3230450,00000112,false,Rx,0,8,DB,24,12,0E,B3,71,75,5A,
3231452,000003B4,false,Rx,0,8,00,00,0D,F4,BD,FF,09,B0,
3231701,0000013A,false,Rx,0,8,0C,FB,00,00,00,0E,FF,FF,
3237115,00000100,false,Rx,0,8,0F,F3,7F,C0,5D,0C,87,70,
3237433,00000297,false,Rx,0,7,09,EA,F0,E0,F2,92,EA,00,
3239429,000000EF,false,Rx,0,8,C3,FC,00,7D,21,00,7D,FF,
3239977,000001A1,false,Rx,0,5,88,CC,00,00,8A,00,00,00,
3240206,000000C3,false,Rx,0,8,73,77,00,40,00,7D,FF,FF,
3240433,00000112,false,Rx,0,8,DB,24,12,0E,B3,71,75,5A,
3240673,00000140,false,Rx,0,8,9E,6C,40,9C,00,00,04,FF,
3240911,00000141,false,Rx,0,8,F2,7C,40,9C,00,00,F4,FF,
3241108,00000199,false,Rx,0,6,FF,FF,A4,7E,FF,3F,00,00,
3241315,0000019A,false,Rx,0,6,FF,FF,58,7F,FF,3F,00,00,
3241522,0000019F,false,Rx,0,6,FF,FF,01,80,FF,2F,00,00,
3241760,00000239,false,Rx,0,8,80,2E,39,EA,04,FF,FF,FF,
3242010,00000254,false,Rx,0,8,FF,7F,FF,7F,FF,7F,FF,7F,
3242135,00000258,false,Rx,0,2,11,11,00,00,00,00,00,00,
3243779,000001E1,false,Rx,0,6,B9,F4,05,FF,FF,FF,00,00,
3244037,00000197,false,Rx,0,4,83,0C,0E,C0,00,00,00,00,
3246004,000002C4,false,Rx,0,8,00,00,FF,00,C8,64,FF,CF,
3246245,000000A5,false,Rx,0,8,3A,F6,FF,F7,7F,00,00,C1,
3246370,000000AC,false,Rx,0,2,00,F0,00,00,00,00,00,00,
3246607,000000D9,false,Rx,0,8,76,F6,00,10,00,F0,7F,C0,
3246846,000000F3,false,Rx,0,8,58,06,00,FF,F0,C0,FF,FF,
3247033,000002A7,false,Rx,0,5,34,FA,FE,FF,14,00,00,00,
3247247,00000304,false,Rx,0,6,FF,FF,D7,38,FF,FF,00,00,
3247476,00000100,false,Rx,0,8,81,F4,7F,C0,5D,0C,87,70,
3247724,000007BD,false,Rx,0,8,00,00,00,40,FF,C0,01,00,
3247993,000007BE,false,Rx,0,8,05,00,00,00,00,00,00,E0,
3249440,0000015F,false,Rx,0,8,A4,FD,00,7D,00,EE,00,7D,
3250205,000000C3,false,Rx,0,8,2F,78,00,40,00,7D,FF,FF,
3250433,00000112,false,Rx,0,8,DE,24,12,0E,B3,71,75,5A,
3251477,000003B4,false,Rx,0,8,00,00,0D,F4,BD,FF,09,B2,
3251725,0000013A,false,Rx,0,8,DF,FD,00,00,00,0E,FF,FF,
3255220,00000314,false,Rx,0,3,50,00,FF,00,00,00,00,00,
3257090,00000100,false,Rx,0,8,DC,F5,7F,C0,5D,0C,87,70,
3257429,00000163,false,Rx,0,8,FF,FF,15,25,FF,FF,FF,FF,
3257667,00000173,false,Rx,0,8,53,FA,00,0E,30,00,DE,10,
3259480,000000EF,false,Rx,0,8,9E,FD,00,7D,21,00,7D,FF,
3260018,000001A1,false,Rx,0,5,AF,CE,00,00,8A,00,00,00,
3260267,00000206,false,Rx,0,8,F3,2E,C1,FF,FF,FF,FF,FF,
3260486,00000112,false,Rx,0,8,DD,24,12,0E,B3,71,75,5A,
3260724,000000C3,false,Rx,0,8,72,79,00,40,00,7D,FF,FF,
3260972,00000140,false,Rx,0,8,24,6E,40,9C,00,00,04,FF,
3261201,00000141,false,Rx,0,8,48,7E,40,9C,00,00,F4,FF,
3261408,00000199,false,Rx,0,6,FF,FF,86,7E,FF,3F,00,00,
3261615,0000019A,false,Rx,0,6,FF,FF,58,7F,FF,3F,00,00,
3261822,0000019F,false,Rx,0,6,FF,FF,F1,7F,FF,2F,00,00,
3262061,00000201,false,Rx,0,8,D5,C7,48,6A,FF,FF,FF,FF,
3262310,00000254,false,Rx,0,8,FF,7F,FF,7F,FF,7F,FF,7F,
3262436,00000258,false,Rx,0,2,11,11,00,00,00,00,00,00,
3262662,000002F9,false,Rx,0,7,00,00,00,08,77,C0,F3,00,
3262881,00000302,false,Rx,0,7,FF,FF,59,81,FE,FF,FF,00,
3263119,00000431,false,Rx,0,8,C6,FD,43,00,0E,9F,F7,00,
3265970,000000A5,false,Rx,0,8,67,F7,FF,F7,7F,00,00,C1,
3266101,000000AC,false,Rx,0,2,00,F0,00,00,00,00,00,00,
3266339,000000D9,false,Rx,0,8,2B,F7,00,10,00,F0,7F,C0,
3266589,000000F3,false,Rx,0,8,05,07,00,FF,F0,C0,FF,FF,
3267084,00000100,false,Rx,0,8,3B,F6,7F,C0,5D,0C,87,70,
3269448,0000015F,false,Rx,0,8,43,FE,00,7D,00,EE,00,7D,
3270220,000000C3,false,Rx,0,8,95,7A,00,40,00,7D,FF,FF,
3270449,00000112,false,Rx,0,8,E2,24,12,0E,B3,71,75,5A,
3270677,00000432,false,Rx,0,8,AC,DA,15,BD,51,7C,2E,BC,
3271421,0000013A,false,Rx,0,8,39,F0,00,00,00,0E,FF,FF,
3274030,00000197,false,Rx,0,4,0C,0D,0E,C0,00,00,00,00,
3276297,0000029E,false,Rx,0,8,47,D0,11,C6,07,FF,FF,FF,
3276584,000003B4,false,Rx,0,8,00,00,0D,F4,BD,FF,09,B0,
3276863,000003C3,false,Rx,0,8,88,20,08,92,20,00,00,00,
3277246,00000100,false,Rx,0,8,66,F7,7F,C0,5D,0C,87,70,
