Time Stamp,ID,Extended,Dir,Bus,LEN,D1,D2,D3,D4,D5,D6,D7,D8
1121486,000000C3,false,Rx,0,8,72,79,00,40,00,7D,FF,FF,
1121735,00000201,false,Rx,0,8,54,EB,F2,3A,FF,FF,FF,FF,
1124403,000000C0,false,Rx,0,2,F7,40,00,00,00,00,00,00,
1124652,0000003C,false,Rx,0,8,FF,5F,00,00,00,00,FF,FF,
1124890,000001AE,false,Rx,0,2,F7,FF,00,00,00,00,00,00,
1125355,000002BB,false,Rx,0,5,2A,F0,87,88,F2,00,00,00,
1125592,00000289,false,Rx,0,8,3D,F4,E0,FF,FD,00,EC,01,
1127046,00000349,false,Rx,0,5,FE,FF,FE,FF,00,00,00,00,
1127729,000000EF,false,Rx,0,8,AB,F6,00,7D,21,00,7D,FF,
1128286,000001A1,false,Rx,0,5,5A,C0,00,00,8A,00,00,00,
1128515,00000100,false,Rx,0,8,A9,F6,7F,C0,5D,1B,87,70,
1128804,00000140,false,Rx,0,8,25,60,40,9C,00,00,04,FF,
1129032,00000112,false,Rx,0,8,E0,24,2C,0E,F2,71,45,5B,
1129267,00000141,false,Rx,0,8,49,70,40,9C,00,00,F4,FF,
1129505,00000163,false,Rx,0,8,FF,FF,16,25,FF,FF,FF,FF,
1129743,00000173,false,Rx,0,8,80,FC,00,0E,30,00,DE,10,
1129952,00000199,false,Rx,0,6,FF,FF,7C,7E,FF,3F,00,00,
1130159,0000019A,false,Rx,0,6,FF,FF,44,7F,FF,3F,00,00,
1130367,0000019F,false,Rx,0,6,FF,FF,FC,7F,FF,2F,00,00,
1130605,00000254,false,Rx,0,8,FF,7F,FF,7F,FF,7F,FF,7F,
1130741,00000258,false,Rx,0,2,11,11,00,00,00,00,00,00,
1130968,000002E8,false,Rx,0,8,C0,E8,C3,FF,FF,F4,F3,2E,
1131197,00000301,false,Rx,0,7,FF,FF,28,83,FF,FF,CF,00,
1131428,00000302,false,Rx,0,7,FF,FF,AE,83,FE,FF,FF,00,
1131668,000000C3,false,Rx,0,8,95,7A,00,40,00,7D,FF,FF,
1131916,000007BD,false,Rx,0,8,00,00,00,40,FF,C0,01,00,
1133577,000000A5,false,Rx,0,8,E9,F0,FF,F7,7F,00,00,C1,
1133702,000000AC,false,Rx,0,2,00,F0,00,00,00,00,00,00,
1133951,000000D9,false,Rx,0,8,A5,F0,00,10,00,F0,7F,C0,
1134190,000000F3,false,Rx,0,8,8B,00,00,FF,F0,C0,FF,FF,
1134809,0000036E,false,Rx,0,5,1B,FC,FE,FF,14,00,00,00,
1137733,0000015F,false,Rx,0,8,CC,F7,00,7D,00,EE,00,7D,
1138504,00000100,false,Rx,0,8,F4,F7,7F,C0,5D,1B,87,70,
1138732,00000112,false,Rx,0,8,DE,24,2C,0E,F2,71,45,5B,
1138970,00000197,false,Rx,0,4,85,08,0E,C0,00,00,00,00,
1139200,000002F5,false,Rx,0,8,BF,0F,E2,24,27,0A,06,10,
1139716,0000013A,false,Rx,0,8,64,F1,00,00,00,0E,FF,FF,
1141515,000000C3,false,Rx,0,8,C8,7B,00,40,00,7D,FF,FF,
1147719,000000EF,false,Rx,0,8,F6,F7,00,7D,21,00,7D,FF,
1148283,000001A1,false,Rx,0,5,7D,C2,00,00,8A,00,00,00,
1148532,00000100,false,Rx,0,8,A8,F8,7F,C0,5D,1B,87,70,
1148760,00000112,false,Rx,0,8,E0,24,2C,0E,F2,71,45,5B,
1148998,00000140,false,Rx,0,8,9F,62,40,9C,00,00,04,FF,
1149239,00000141,false,Rx,0,8,F3,72,40,9C,00,00,F4,FF,
1149436,00000199,false,Rx,0,6,FF,FF,9A,7E,FF,3F,00,00,
1149643,0000019A,false,Rx,0,6,FF,FF,4E,7F,FF,3F,00,00,
1149848,0000019F,false,Rx,0,6,FF,FF,0A,80,FF,2F,00,00,
1150097,00000254,false,Rx,0,8,FF,7F,FF,7F,FF,7F,FF,7F,
1150223,00000258,false,Rx,0,2,11,11,00,00,00,00,00,00,
1151502,00000206,false,Rx,0,8,D8,2B,7F,FF,FF,FF,FF,FF,
1151750,000000C3,false,Rx,0,8,46,7C,00,40,00,7D,FF,FF,
1153343,000002C4,false,Rx,0,8,00,00,FF,00,C8,64,FF,CF,
1153571,000000A5,false,Rx,0,8,B4,F1,FF,F7,7F,00,00,C1,
1153707,000000AC,false,Rx,0,2,00,F0,00,00,00,00,00,00,
1153944,000000D9,false,Rx,0,8,F8,F1,00,10,00,F0,7F,C0,
1154183,000000F3,false,Rx,0,8,D6,01,00,FF,F0,C0,FF,FF,
1155668,0000036F,false,Rx,0,5,49,FD,FE,FF,14,00,00,00,
1157730,0000015F,false,Rx,0,8,90,F8,00,7D,00,EE,00,7D,
1158552,00000100,false,Rx,0,8,F5,F9,7F,C0,5D,1B,87,70,
1158780,00000112,false,Rx,0,8,DE,24,2C,0E,F2,71,45,5B,
1159709,0000013A,false,Rx,0,8,DE,F3,00,00,00,0E,FF,FF,
1161495,000000C3,false,Rx,0,8,1B,7D,00,40,00,7D,FF,FF,
1165303,000003B4,false,Rx,0,8,00,00,0D,F4,BD,FF,09,B2,
1165589,0000012F,false,Rx,0,8,05,2D,86,1B,F1,35,30,00,
1167730,000000EF,false,Rx,0,8,AA,F8,00,7D,21,00,7D,FF,
1168268,000001A1,false,Rx,0,5,14,C4,00,00,8A,00,00,00,
1168527,00000100,false,Rx,0,8,12,FA,7F,C0,5D,1B,87,70,
1168755,00000112,false,Rx,0,8,DF,24,2C,0E,F2,71,45,5B,
1168993,00000140,false,Rx,0,8,4C,64,40,9C,00,00,04,FF,
1169224,00000141,false,Rx,0,8,20,74,40,9C,00,00,F4,FF,
1169397,00000197,false,Rx,0,4,0A,09,0E,C0,00,00,00,00,
1169604,00000199,false,Rx,0,6,FF,FF,90,7E,FF,3F,00,00,
1169810,0000019A,false,Rx,0,6,FF,FF,3A,7F,FF,3F,00,00,
1170008,0000019F,false,Rx,0,6,FF,FF,0A,80,FF,2F,00,00,
1170258,00000254,false,Rx,0,8,FF,7F,FF,7F,FF,7F,FF,7F,
1170383,00000258,false,Rx,0,2,11,11,00,00,00,00,00,00,
1170611,00000302,false,Rx,0,7,FF,FF,AE,83,FE,FF,FF,00,
1171505,000000C3,false,Rx,0,8,FC,7E,00,40,00,7D,FF,FF,
1171743,00000201,false,Rx,0,8,60,EB,FE,3A,FF,FF,FF,FF,
1173384,000000A5,false,Rx,0,8,53,F2,FF,F7,7F,00,00,C1,
1173520,000000AC,false,Rx,0,2,00,F0,00,00,00,00,00,00,
1173758,000000D9,false,Rx,0,8,1F,F2,00,10,00,F0,7F,C0,
1173996,000000F3,false,Rx,0,8,31,02,00,FF,F0,C0,FF,FF,
1174874,000002A7,false,Rx,0,5,8E,F9,FE,FF,14,00,00,00,
1177733,0000015F,false,Rx,0,8,CD,F9,00,7D,00,EE,00,7D,
1178339,00000100,false,Rx,0,8,4F,FB,7F,C0,5D,1B,87,70,
1178567,00000112,false,Rx,0,8,DE,24,2C,0E,F2,71,45,5B,
1179682,000002C5,false,Rx,0,7,AB,F6,00,60,06,70,C8,00,
1179931,0000013A,false,Rx,0,8,0D,F5,00,00,00,0E,FF,FF,
1181510,000000C3,false,Rx,0,8,FD,70,00,40,00,7D,FF,FF,
1186916,000001D6,false,Rx,0,2,F0,C0,00,00,00,00,00,00,
1187727,000000EF,false,Rx,0,8,F7,F9,00,7D,21,00,7D,FF,
1188286,000001A1,false,Rx,0,5,33,C6,00,00,8A,00,00,00,
1188523,00000100,false,Rx,0,8,C1,FC,7F,C0,5D,1B,87,70,
1188741,00000112,false,Rx,0,8,DF,24,2C,0E,F2,71,45,5B,
1188981,00000140,false,Rx,0,8,F6,66,40,9C,00,00,04,FF,
1189222,00000141,false,Rx,0,8,9A,76,40,9C,00,00,F4,FF,
1189635,00000199,false,Rx,0,6,FF,FF,7C,7E,FF,3F,00,00,
1189843,0000019A,false,Rx,0,6,FF,FF,4E,7F,FF,3F,00,00,
1190050,0000019F,false,Rx,0,6,FF,FF,FE,7F,FF,2F,00,00,
1190299,00000254,false,Rx,0,8,FF,7F,FF,7F,FF,7F,FF,7F,
1190424,00000258,false,Rx,0,2,11,11,00,00,00,00,00,00,
1190662,0000029E,false,Rx,0,8,47,88,13,E2,04,FF,FF,FF,
1191498,00000206,false,Rx,0,8,56,2C,7F,FF,FF,FF,FF,FF,
1191747,000000C3,false,Rx,0,8,A0,71,00,40,00,7D,FF,FF,
1193416,000000A5,false,Rx,0,8,0E,F3,FF,F7,7F,00,00,C1,
1193542,000000AC,false,Rx,0,2,00,F0,00,00,00,00,00,00,
1193780,000000D9,false,Rx,0,8,42,F3,00,10,00,F0,7F,C0,
1194028,000000F3,false,Rx,0,8,6C,03,00,FF,F0,C0,FF,FF,
1197736,0000015F,false,Rx,0,8,2A,FA,00,7D,00,EE,00,7D,
1198537,00000100,false,Rx,0,8,9C,FD,7F,C0,5D,1B,87,70,
1198755,00000112,false,Rx,0,8,DE,24,2C,0E,F2,71,45,5B,
1198972,00000197,false,Rx,0,4,86,0A,0E,C0,00,00,00,00,
1199716,0000013A,false,Rx,0,8,B7,F7,00,00,00,0E,FF,FF,
1200369,000002B2,false,Rx,0,8,29,0E,D7,04,FF,0F,FF,FF,
1201495,000000C3,false,Rx,0,8,47,72,00,40,00,7D,FF,FF,
1205326,00000272,false,Rx,0,8,88,F3,05,12,FF,FF,FF,FF,
1207726,000000EF,false,Rx,0,8,DE,FA,00,7D,21,FC,7C,FF,
1208281,000001A1,false,Rx,0,5,C6,C8,00,00,8A,00,00,00,
1208539,00000100,false,Rx,0,8,7B,FE,7F,C0,5D,1B,87,70,
1208767,00000112,false,Rx,0,8,DF,24,2C,0E,F2,71,45,5B,
1209006,00000140,false,Rx,0,8,F7,68,40,9C,00,00,04,FF,
1209246,00000141,false,Rx,0,8,9B,78,40,9C,00,00,F4,FF,
1209443,00000199,false,Rx,0,6,FF,FF,9A,7E,FF,3F,00,00,
1209650,0000019A,false,Rx,0,6,FF,FF,44,7F,FF,3F,00,00,
1209856,0000019F,false,Rx,0,6,FF,FF,F2,7F,FF,2F,00,00,
1210104,00000254,false,Rx,0,8,FF,7F,FF,7F,FF,7F,FF,7F,
1210230,00000258,false,Rx,0,2,11,11,00,00,00,00,00,00,
1210467,000002EF,false,Rx,0,8,F4,01,00,40,1F,00,C0,C8,
1210696,00000302,false,Rx,0,7,FF,FF,AE,83,FE,FF,FF,00,
1211442,000003FD,false,Rx,0,5,29,01,00,00,FF,00,00,00,
1211679,00000108,false,Rx,0,8,00,7D,FF,FF,47,F1,FF,FF,
1211925,000000C3,false,Rx,0,8,1A,73,00,40,00,7D,FF,FF,
1212176,00000212,false,Rx,0,8,90,F2,F9,FF,FF,FF,FF,FF,
1212424,000002DB,false,Rx,0,8,FF,FF,FF,FF,BF,FF,FF,FF,
1212662,000002F1,false,Rx,0,8,37,10,7D,7A,01,64,00,A0,
1213488,000000A5,false,Rx,0,8,80,F4,FF,F7,7F,00,00,C1,
1213625,000000AC,false,Rx,0,2,00,F0,00,00,00,00,00,00,
1213868,000000D9,false,Rx,0,8,CC,F4,00,10,00,F0,7F,C0,
1214106,000000F3,false,Rx,0,8,E2,04,00,FF,F0,C0,FF,FF,
1216961,00000239,false,Rx,0,8,8B,4E,44,55,04,FF,FF,FF,
1217735,0000015F,false,Rx,0,8,77,FB,00,7D,00,EE,00,7D,
1218437,00000100,false,Rx,0,8,7A,F0,7F,C0,5D,1B,87,70,
1218664,00000112,false,Rx,0,8,DE,24,2C,0E,F2,71,45,5B,
1219770,0000013A,false,Rx,0,8,B6,F9,00,00,00,0E,FF,FF,
1220617,000002ED,false,Rx,0,3,3B,0B,02,00,00,00,00,00,
1221514,000000C3,false,Rx,0,8,94,74,00,40,00,7D,FF,FF,
1221763,00000201,false,Rx,0,8,6C,EB,0A,3B,FF,FF,FF,FF,
1224552,0000003C,false,Rx,0,8,FF,5F,00,00,00,00,FF,FF,
1224858,000001AE,false,Rx,0,2,F7,FF,00,00,00,00,00,00,
1225314,000002BB,false,Rx,0,5,91,FA,87,88,F2,00,00,00,
1225561,00000289,false,Rx,0,8,60,F5,E0,FF,FD,00,EC,01,
1227727,000000EF,false,Rx,0,8,83,FB,00,7D,21,FC,7C,FF,
1228277,000001A1,false,Rx,0,5,E1,CA,00,00,8A,00,00,00,
1228504,00000100,false,Rx,0,8,27,F1,7F,C0,5D,1B,87,70,
1228783,00000140,false,Rx,0,8,4D,6A,40,9C,00,00,04,FF,
1229002,00000112,false,Rx,0,8,DF,24,2C,0E,F2,71,45,5B,
1229241,00000141,false,Rx,0,8,21,7A,40,9C,00,00,F4,FF,
1229480,00000163,false,Rx,0,8,FF,FF,16,25,FF,FF,FF,FF,
1229718,00000173,false,Rx,0,8,B5,F7,00,0E,30,00,DE,10,
1229875,00000197,false,Rx,0,4,09,0B,0E,C0,00,00,00,00,
1230082,00000199,false,Rx,0,6,FF,FF,9A,7E,FF,3F,00,00,
1230290,0000019A,false,Rx,0,6,FF,FF,3A,7F,FF,3F,00,00,
1230497,0000019F,false,Rx,0,6,FF,FF,F4,7F,FF,2F,00,00,
1230737,00000254,false,Rx,0,8,FF,7F,FF,7F,FF,7F,FF,7F,
1230873,00000258,false,Rx,0,2,11,11,00,00,00,00,00,00,
1231110,000002E8,false,Rx,0,8,C0,E8,C3,FF,FF,F4,F4,7D,
1231351,000007BD,false,Rx,0,8,00,00,00,40,FF,C0,01,00,
1231599,00000206,false,Rx,0,8,0B,2D,7F,FF,FF,FF,FF,FF,
1231848,000007BE,false,Rx,0,8,05,00,00,00,00,00,00,E0,
1232087,000000C3,false,Rx,0,8,C9,75,00,40,00,7D,FF,FF,
1233623,000000A5,false,Rx,0,8,DD,F5,FF,F7,7F,00,00,C1,
1233748,000000AC,false,Rx,0,2,00,F0,00,00,00,00,00,00,
1233996,000000D9,false,Rx,0,8,91,F5,00,10,00,F0,7F,C0,
1234235,000000F3,false,Rx,0,8,BF,05,00,FF,F0,C0,FF,FF,
1235732,0000031C,false,Rx,0,8,FF,FF,FF,FF,FF,FF,FF,FF,
1235930,0000033B,false,Rx,0,6,D7,F9,DC,FF,FF,FF,00,00,
1236158,000003A7,false,Rx,0,7,96,F0,00,00,1F,11,F0,00,
1236294,000003E6,false,Rx,0,2,50,00,00,00,00,00,00,00,
1237729,0000015F,false,Rx,0,8,F9,FC,00,7D,00,EE,00,7D,
1238534,00000100,false,Rx,0,8,C0,F2,7F,C0,5D,1B,87,70,
1238760,00000112,false,Rx,0,8,DE,24,2C,0E,F2,71,45,5B,
1239247,000002F5,false,Rx,0,8,BF,0F,E2,24,27,0A,06,10,
1239711,0000013A,false,Rx,0,8,0C,FB,00,00,00,0E,FF,FF,
1241497,000000C3,false,Rx,0,8,2E,76,00,40,00,7D,FF,FF,
1245165,00000297,false,Rx,0,7,C9,E1,F0,E0,F2,92,EA,00,
1247732,000000EF,false,Rx,0,8,C3,FC,00,7D,21,00,7D,FF,
1248277,000001A1,false,Rx,0,5,88,CC,00,00,8A,00,00,00,
1248535,00000100,false,Rx,0,8,9D,F3,7F,C0,5D,1B,87,70,
1248763,00000112,false,Rx,0,8,DF,24,2C,0E,F2,71,45,5B,
1249002,00000140,false,Rx,0,8,9E,6C,40,9C,00,00,04,FF,
1249242,00000141,false,Rx,0,8,F2,7C,40,9C,00,00,F4,FF,
1249439,00000199,false,Rx,0,6,FF,FF,86,7E,FF,3F,00,00,
1249645,0000019A,false,Rx,0,6,FF,FF,26,7F,FF,3F,00,00,
1249851,0000019F,false,Rx,0,6,FF,FF,EF,7F,FF,2F,00,00,
1250100,00000254,false,Rx,0,8,FF,7F,FF,7F,FF,7F,FF,7F,
1250226,00000258,false,Rx,0,2,11,11,00,00,00,00,00,00,
1250463,00000302,false,Rx,0,7,FF,FF,AE,83,FE,FF,FF,00,
1250753,0000021F,false,Rx,0,8,00,00,00,00,00,EE,FE,FF,
1251488,000000C3,false,Rx,0,8,73,77,00,40,00,7D,FF,FF,
1252381,000003D8,false,Rx,0,8,03,FF,FF,FF,FF,FF,FF,FF,
1253403,000002C4,false,Rx,0,8,00,00,FF,00,C8,64,FF,CF,
1253652,000000A5,false,Rx,0,8,3A,F6,FF,F7,7F,00,00,C1,
1253777,000000AC,false,Rx,0,2,00,F0,00,00,00,00,00,00,
1254016,000000D9,false,Rx,0,8,76,F6,00,10,00,F0,7F,C0,
1254255,000000F3,false,Rx,0,8,58,06,00,FF,F0,C0,FF,FF,
1254464,00000304,false,Rx,0,6,FF,FF,D8,38,FF,FF,00,00,
1254702,000003F9,false,Rx,0,8,9B,FD,80,E0,A6,30,C3,FF,
1254879,000002A7,false,Rx,0,5,34,FA,FE,FF,14,00,00,00,
1257729,0000015F,false,Rx,0,8,A4,FD,00,7D,00,EE,00,7D,
1258541,00000100,false,Rx,0,8,13,F4,7F,C0,5D,1B,87,70,
1258769,00000112,false,Rx,0,8,E0,24,2C,0E,F2,71,45,5B,
1258998,00000239,false,Rx,0,8,8B,4E,44,55,04,FF,FF,FF,
1259164,00000197,false,Rx,0,4,83,0C,0E,C0,00,00,00,00,
1259712,0000013A,false,Rx,0,8,DF,FD,00,00,00,0E,FF,FF,
1261501,00000201,false,Rx,0,8,75,EB,13,3B,FF,FF,FF,FF,
1261759,000000C3,false,Rx,0,8,2F,78,00,40,00,7D,FF,FF,
1261985,000000F5,false,Rx,0,7,DC,DC,00,82,00,82,00,00,
1262152,000000FF,false,Rx,0,4,CE,24,F0,00,00,00,00,00,
1265572,0000012F,false,Rx,0,8,E2,2E,86,1B,F1,35,30,00,
1266837,00000314,false,Rx,0,3,50,00,FF,00,00,00,00,00,
1267734,000000EF,false,Rx,0,8,9E,FD,00,7D,21,00,7D,FF,
1268134,00000100,false,Rx,0,8,4E,F5,7F,C0,5D,1B,87,70,
1268313,000001A1,false,Rx,0,5,AF,CE,00,00,8A,00,00,00,
1268725,00000112,false,Rx,0,8,E1,24,2C,0E,F2,71,45,5B,
1268975,00000140,false,Rx,0,8,24,6E,40,9C,00,00,04,FF,
1269204,00000141,false,Rx,0,8,48,7E,40,9C,00,00,F4,FF,
1269411,00000199,false,Rx,0,6,FF,FF,90,7E,FF,3F,00,00,
1269618,0000019A,false,Rx,0,6,FF,FF,58,7F,FF,3F,00,00,
1269827,0000019F,false,Rx,0,6,FF,FF,F8,7F,FF,2F,00,00,
1270074,00000254,false,Rx,0,8,FF,7F,FF,7F,FF,7F,FF,7F,
1270201,00000258,false,Rx,0,2,11,11,00,00,00,00,00,00,
1271510,00000206,false,Rx,0,8,EC,2E,7F,FF,FF,FF,FF,FF,
1271758,000000C3,false,Rx,0,8,72,79,00,40,00,7D,FF,FF,
1271999,00000201,false,Rx,0,8,77,EB,15,3B,FF,FF,FF,FF,
1273392,000000A5,false,Rx,0,8,67,F7,FF,F7,7F,00,00,C1,
1273518,000000AC,false,Rx,0,2,00,F0,00,00,00,00,00,00,
1273766,000000D9,false,Rx,0,8,2B,F7,00,10,00,F0,7F,C0,
1274005,000000F3,false,Rx,0,8,05,07,00,FF,F0,C0,FF,FF,
1277734,0000015F,false,Rx,0,8,43,FE,00,7D,00,EE,00,7D,
1278443,00000100,false,Rx,0,8,A9,F6,7F,C0,5D,1B,87,70,
1278662,00000112,false,Rx,0,8,E2,24,2C,0E,F2,71,45,5B,
1279138,00000431,false,Rx,0,8,C6,FD,3F,00,0D,9E,F7,00,
1279717,0000013A,false,Rx,0,8,39,F0,00,00,00,0E,FF,FF,
1279935,000002C5,false,Rx,0,7,ED,F7,00,60,06,70,C8,00,
1280167,00000300,false,Rx,0,8,37,2E,59,96,65,19,90,65,
1280396,000007BD,false,Rx,0,8,01,2D,55,7F,49,58,58,00,
1280666,000007BE,false,Rx,0,8,0C,41,04,69,00,00,00,00,
1281493,000000C3,false,Rx,0,8,95,7A,00,40,00,7D,FF,FF,
1286800,000001EE,false,Rx,0,2,00,FC,00,00,00,00,00,00,
1287734,000000EF,false,Rx,0,8,79,FE,00,7D,21,00,7D,FF,
1287983,000001D0,false,Rx,0,8,8B,F3,DF,FF,FF,FF,FF,FF,
1288171,000001B9,false,Rx,0,5,FF,FF,FF,14,FF,00,00,00,
1288348,000001A1,false,Rx,0,5,C7,C1,00,00,8A,00,00,00,
1288586,00000100,false,Rx,0,8,F4,F7,7F,C0,5D,1B,87,70,
1288803,00000112,false,Rx,0,8,E2,24,2C,0E,F2,71,45,5B,
1289038,00000140,false,Rx,0,8,78,61,40,9C,00,00,04,FF,
1289278,00000141,false,Rx,0,8,14,71,40,9C,00,00,F4,FF,
1289444,00000197,false,Rx,0,4,0C,0D,0E,C0,00,00,00,00,
1289652,00000199,false,Rx,0,6,FF,FF,90,7E,FF,3F,00,00,
1289859,0000019A,false,Rx,0,6,FF,FF,30,7F,FF,3F,00,00,
1290066,0000019F,false,Rx,0,6,FF,FF,DD,7F,FF,2F,00,00,
1290315,00000254,false,Rx,0,8,FF,7F,FF,7F,FF,7F,FF,7F,
1290441,00000258,false,Rx,0,2,11,11,00,00,00,00,00,00,
1290678,0000029E,false,Rx,0,8,47,88,13,E2,04,FF,FF,FF,
1290907,00000302,false,Rx,0,7,FF,FF,AE,83,FE,FF,FF,00,
1291135,00000432,false,Rx,0,8,BC,DC,15,BD,5A,7C,2D,BC,
1291489,000000C3,false,Rx,0,8,C8,7B,00,40,00,7D,FF,FF,
1293437,000000A5,false,Rx,0,8,3B,F8,FF,F7,7F,00,00,C1,
1293574,000000AC,false,Rx,0,2,00,F0,00,00,00,00,00,00,
1293811,000000D9,false,Rx,0,8,77,F8,00,10,00,F0,7F,C0,
1294049,000000F3,false,Rx,0,8,59,08,00,FF,F0,C0,FF,FF,
1294855,0000036E,false,Rx,0,5,86,FD,FE,FF,14,00,00,00,
1295540,000001E1,false,Rx,0,6,0C,F0,05,FF,FF,FF,00,00,
1297732,0000015F,false,Rx,0,8,42,F0,00,7D,00,EE,00,7D,
1298456,00000100,false,Rx,0,8,A8,F8,7F,C0,5D,1B,87,70,
1298683,00000112,false,Rx,0,8,E3,24,2C,0E,F2,71,45,5B,
1299717,0000013A,false,Rx,0,8,83,F2,00,00,00,0E,FF,FF,
1300471,000002B2,false,Rx,0,8,29,0E,D8,04,FF,0F,FF,FF,
1301502,000000C3,false,Rx,0,8,46,7C,00,40,00,7D,FF,FF,
1307738,000000EF,false,Rx,0,8,78,F0,00,7D,21,00,7D,FF,
1308283,000001A1,false,Rx,0,5,E0,C3,00,00,8A,00,00,00,
1308541,00000100,false,Rx,0,8,F5,F9,7F,C0,5D,1B,87,70,
1308769,00000112,false,Rx,0,8,E3,24,2C,0E,F2,71,55,5B,
1309008,00000140,false,Rx,0,8,C2,63,40,9C,00,00,04,FF,
1309238,00000141,false,Rx,0,8,AE,73,40,9C,00,00,F4,FF,
1309445,00000199,false,Rx,0,6,FF,FF,86,7E,FF,3F,00,00,
1309653,0000019A,false,Rx,0,6,FF,FF,44,7F,FF,3F,00,00,
1309858,0000019F,false,Rx,0,6,FF,FF,1C,80,FF,2F,00,00,
1310106,00000254,false,Rx,0,8,FF,7F,FF,7F,FF,7F,FF,7F,
1310263,000000FF,false,Rx,0,4,D8,24,F0,00,00,00,00,00,
1310399,00000258,false,Rx,0,2,11,11,00,00,00,00,00,00,
1310626,000002EF,false,Rx,0,8,F4,01,00,40,1F,00,C0,C8,
1311462,000003FD,false,Rx,0,5,93,02,00,00,FF,00,00,00,
1311700,00000108,false,Rx,0,8,00,7D,FF,FF,47,F1,FF,FF,
1311946,000000C3,false,Rx,0,8,1B,7D,00,40,00,7D,FF,FF,
1312196,000001B5,false,Rx,0,8,65,49,82,71,FF,FF,FF,FF,
1312444,00000206,false,Rx,0,8,ED,20,7F,FF,FF,FF,FF,FF,
1312694,00000212,false,Rx,0,8,CD,F3,F9,FF,FF,FF,FF,FF,
1312942,000002DB,false,Rx,0,8,FF,FF,FF,FF,BF,FF,FF,FF,
1313192,000002F1,false,Rx,0,8,37,10,7D,7A,01,64,00,A0,
1313440,0000032B,false,Rx,0,8,FF,FF,FF,FF,FF,FF,00,FF,
1313669,000000A5,false,Rx,0,8,66,F9,FF,F7,7F,00,00,C1,
1313805,000000AC,false,Rx,0,2,00,F0,00,00,00,00,00,00,
1314044,000000D9,false,Rx,0,8,2A,F9,00,10,00,F0,7F,C0,
1314285,000000F3,false,Rx,0,8,04,09,00,FF,F0,C0,FF,FF,
1314533,00000331,false,Rx,0,8,FF,FF,FF,EF,7F,FE,F7,FF,
1314771,000003E9,false,Rx,0,8,5C,8F,21,A1,7C,7C,20,45,
1315659,0000036F,false,Rx,0,5,F3,FE,FE,FF,14,00,00,00,
1317221,00000239,false,Rx,0,8,8B,4F,44,55,04,FF,FF,FF,
1317728,0000015F,false,Rx,0,8,1F,F1,00,7D,00,EE,00,7D,
1318326,00000100,false,Rx,0,8,12,FA,7F,C0,5D,1B,87,70,
1318554,00000112,false,Rx,0,8,E2,24,2C,0E,F2,71,55,5B,
1318978,00000197,false,Rx,0,4,80,0E,0E,C0,00,00,00,00,
1319773,0000013A,false,Rx,0,8,50,F4,00,00,00,0E,FF,FF,
1321497,000000C3,false,Rx,0,8,FC,7E,00,40,00,7D,FF,FF,
1321746,00000201,false,Rx,0,8,83,EB,21,3B,FF,FF,FF,FF,
1324398,000000C0,false,Rx,0,2,F8,40,00,00,00,00,00,00,
1324650,0000003C,false,Rx,0,8,FF,5F,00,00,00,00,FF,FF,
1324889,000001AE,false,Rx,0,2,F7,FF,00,00,00,00,00,00,
1325354,000002BB,false,Rx,0,5,F9,F5,87,88,F2,00,00,00,
1325592,00000289,false,Rx,0,8,87,F6,E0,FF,FD,00,EC,01,
1326832,00000349,false,Rx,0,5,FE,FF,FE,FF,00,00,00,00,
1327729,000000EF,false,Rx,0,8,25,F1,00,7D,21,00,7D,FF,
1328278,000001A1,false,Rx,0,5,89,C5,00,00,8A,00,00,00,
1328505,00000100,false,Rx,0,8,4F,FB,7F,C0,5D,1B,87,70,
1328795,00000140,false,Rx,0,8,11,65,40,9C,00,00,04,FF,
1329013,00000112,false,Rx,0,8,E3,24,2C,0E,F2,71,55,5B,
1329253,00000141,false,Rx,0,8,7D,75,40,9C,00,00,F4,FF,
1329667,00000163,false,Rx,0,8,FF,FF,16,25,FF,FF,FF,FF,
1329905,00000173,false,Rx,0,8,81,F2,00,0E,30,00,DE,10,
1330112,00000199,false,Rx,0,6,FF,FF,9A,7E,FF,3F,00,00,
1330310,0000019A,false,Rx,0,6,FF,FF,4E,7F,FF,3F,00,00,
1330519,0000019F,false,Rx,0,6,FF,FF,0F,80,FF,2F,00,00,
1330767,00000254,false,Rx,0,8,FF,7F,FF,7F,FF,7F,FF,7F,
1330892,00000258,false,Rx,0,2,11,11,00,00,00,00,00,00,
1331130,000002E8,false,Rx,0,8,C0,E8,C3,FF,FF,F4,F5,60,
1331359,00000301,false,Rx,0,7,FF,FF,28,83,FF,FF,CF,00,
1331597,000000C3,false,Rx,0,8,FD,70,00,40,00,7D,FF,FF,
1331835,00000302,false,Rx,0,7,FF,FF,AE,83,FE,FF,FF,00,
1332085,000007BD,false,Rx,0,8,00,00,00,40,FF,C0,01,00,
1332345,000007BE,false,Rx,0,8,07,6E,29,30,06,67,00,00,
1333575,000000A5,false,Rx,0,8,81,FA,FF,F7,7F,00,00,C1,
1333710,000000AC,false,Rx,0,2,00,F0,00,00,00,00,00,00,
1333947,000000D9,false,Rx,0,8,CD,FA,00,10,00,F0,7F,C0,
1334188,000000F3,false,Rx,0,8,E3,0A,00,FF,F0,C0,FF,FF,
1334808,000002A7,false,Rx,0,5,A9,FB,FE,FF,14,00,00,00,
1337731,0000015F,false,Rx,0,8,F8,F2,00,7D,00,EE,00,7D,
1338455,00000100,false,Rx,0,8,C1,FC,7F,C0,5D,1B,87,70,
1338680,00000112,false,Rx,0,8,E3,24,2C,0E,F2,71,55,5B,
1339136,000002F5,false,Rx,0,8,BF,0F,E2,24,27,0A,06,10,
1339715,0000013A,false,Rx,0,8,EA,F6,00,00,00,0E,FF,FF,
1341500,000000C3,false,Rx,0,8,A0,71,00,40,00,7D,FF,FF,
1342621,00000348,false,Rx,0,8,A7,07,0A,FE,FE,8B,18,00,
1343428,00000459,false,Rx,0,8,6B,4C,AB,7E,8F,B0,51,8B,
1347731,000000EF,false,Rx,0,8,C2,F2,00,7D,21,00,7D,FF,
1348276,000001A1,false,Rx,0,5,AE,C7,00,00,8A,00,00,00,
1348524,00000100,false,Rx,0,8,9C,FD,7F,C0,5D,1B,87,70,
1348751,00000112,false,Rx,0,8,E4,24,2C,0E,F2,71,55,5B,
1348980,00000140,false,Rx,0,8,AB,67,40,9C,00,00,04,FF,
1349220,00000141,false,Rx,0,8,C7,77,40,9C,00,00,F4,FF,
1349386,00000197,false,Rx,0,4,89,00,0E,C0,00,00,00,00,
1349584,00000199,false,Rx,0,6,FF,FF,86,7E,FF,3F,00,00,
1349798,0000019A,false,Rx,0,6,FF,FF,44,7F,FF,3F,00,00,
1349995,0000019F,false,Rx,0,6,FF,FF,0B,80,FF,2F,00,00,
1350244,00000254,false,Rx,0,8,FF,7F,FF,7F,FF,7F,FF,7F,
1350371,00000258,false,Rx,0,2,11,11,00,00,00,00,00,00,
1351514,00000206,false,Rx,0,8,B0,21,7F,FF,FF,FF,FF,FF,
1351773,000000C3,false,Rx,0,8,47,72,00,40,00,7D,FF,FF,
1353337,000002C4,false,Rx,0,8,00,00,FF,00,C8,64,FF,CF,
1353576,000000A5,false,Rx,0,8,DC,FB,FF,F7,7F,00,00,C1,
1353712,000000AC,false,Rx,0,2,00,F0,00,00,00,00,00,00,
1353948,000000D9,false,Rx,0,8,90,FB,00,10,00,F0,7F,C0,
1354189,000000F3,false,Rx,0,8,BE,0B,00,FF,F0,C0,FF,FF,
1357732,0000015F,false,Rx,0,8,A5,F3,00,7D,00,EE,00,7D,
1358431,00000100,false,Rx,0,8,7B,FE,7F,C0,5D,1B,87,70,
1358648,00000112,false,Rx,0,8,E4,24,2C,0E,F2,71,55,5B,
1359712,0000013A,false,Rx,0,8,EB,F8,00,00,00,0E,FF,FF,
1361518,000000C3,false,Rx,0,8,1A,73,00,40,00,7D,FF,FF,
1361756,0000043D,false,Rx,0,8,0A,50,E2,FF,21,07,08,F0,
1365495,000003B4,false,Rx,0,8,00,00,0D,F4,BD,FF,09,B2,
1365720,0000012F,false,Rx,0,8,E3,20,86,1B,F1,35,30,00,
1367726,000000EF,false,Rx,0,8,9F,F3,00,7D,21,00,7D,FF,
1368275,000001A1,false,Rx,0,5,5B,C9,00,00,8A,00,00,00,
1368534,00000100,false,Rx,0,8,7A,F0,7F,C0,5D,1B,87,70,
1368752,00000112,false,Rx,0,8,E5,24,2C,0E,F2,71,55,5B,
1368991,00000140,false,Rx,0,8,AA,69,40,9C,00,00,04,FF,
1369230,00000141,false,Rx,0,8,C6,79,40,9C,00,00,F4,FF,
1369427,00000199,false,Rx,0,6,FF,FF,A4,7E,FF,3F,00,00,
1369633,0000019A,false,Rx,0,6,FF,FF,44,7F,FF,3F,00,00,
1369850,0000019F,false,Rx,0,6,FF,FF,F7,7F,FF,2F,00,00,
1370088,00000254,false,Rx,0,8,FF,7F,FF,7F,FF,7F,FF,7F,
1370225,00000258,false,Rx,0,2,11,11,00,00,00,00,00,00,
1370453,00000302,false,Rx,0,7,FF,FF,AE,83,FE,FF,FF,00,
1371495,000000C3,false,Rx,0,8,94,74,00,40,00,7D,FF,FF,
1371738,00000201,false,Rx,0,8,8F,EB,2D,3B,FF,FF,FF,FF,
1373380,000000A5,false,Rx,0,8,52,FC,FF,F7,7F,00,00,C1,
1373515,000000AC,false,Rx,0,2,00,F0,00,00,00,00,00,00,
1373762,000000D9,false,Rx,0,8,1E,FC,00,10,00,F0,7F,C0,
1374000,000000F3,false,Rx,0,8,30,0C,00,FF,F0,C0,FF,FF,
1375476,00000510,false,Rx,0,8,40,10,20,00,00,00,00,00,
1377736,0000015F,false,Rx,0,8,2B,F4,00,7D,00,EE,00,7D,
1378456,00000100,false,Rx,0,8,27,F1,7F,C0,5D,1B,87,70,
1378684,00000112,false,Rx,0,8,E4,24,2C,0E,F2,71,55,5B,
1378974,00000197,false,Rx,0,4,06,01,0E,C0,00,00,00,00,
1379708,0000013A,false,Rx,0,8,51,FA,00,00,00,0E,FF,FF,
1379949,0000019D,false,Rx,0,8,DE,32,8E,01,FF,FF,FF,FF,
1380188,000002C5,false,Rx,0,7,28,F8,00,60,06,70,C8,00,
1380448,000007BD,false,Rx,0,8,04,00,00,01,00,00,00,80,
1380717,000007BE,false,Rx,0,8,00,C0,FA,1C,02,00,00,00,
1381492,000000C3,false,Rx,0,8,C9,75,00,40,00,7D,FF,FF,
1381740,0000043C,false,Rx,0,8,FE,FE,FF,FF,FF,FF,FF,FF,
1387727,000000EF,false,Rx,0,8,11,F4,00,7D,21,00,7D,FF,
1388283,000001A1,false,Rx,0,5,7C,CB,00,00,8A,00,00,00,
1388541,00000100,false,Rx,0,8,C0,F2,7F,C0,5D,1B,87,70,
1388770,00000112,false,Rx,0,8,E5,24,2C,0E,F2,71,55,5B,
1389008,00000140,false,Rx,0,8,10,6B,40,9C,00,00,04,FF,
1389247,00000141,false,Rx,0,8,7C,7B,40,9C,00,00,F4,FF,
1389579,00000199,false,Rx,0,6,FF,FF,90,7E,FF,3F,00,00,
1389792,0000019A,false,Rx,0,6,FF,FF,30,7F,FF,3F,00,00,
1389999,0000019F,false,Rx,0,6,FF,FF,FB,7F,FF,2F,00,00,
1390250,00000254,false,Rx,0,8,FF,7F,FF,7F,FF,7F,FF,7F,
1390375,00000258,false,Rx,0,2,11,11,00,00,00,00,00,00,
1390632,0000029E,false,Rx,0,8,47,88,13,E2,04,FF,FF,FF,
1391500,00000206,false,Rx,0,8,57,22,7F,FF,FF,FF,FF,FF,
1391748,000000C3,false,Rx,0,8,2E,76,00,40,00,7D,FF,FF,
1393418,000000A5,false,Rx,0,8,0F,FD,FF,F7,7F,00,00,C1,
1393543,000000AC,false,Rx,0,2,00,F0,00,00,00,00,00,00,
1393791,000000D9,false,Rx,0,8,43,FD,00,10,00,F0,7F,C0,
1394029,000000F3,false,Rx,0,8,6D,0D,00,FF,F0,C0,FF,FF,
1397726,0000015F,false,Rx,0,8,76,F5,00,7D,00,EE,00,7D,
1398435,00000100,false,Rx,0,8,9D,F3,7F,C0,5D,1B,87,70,
1398653,00000112,false,Rx,0,8,E4,24,2C,0E,F2,71,55,5B,
1399716,0000013A,false,Rx,0,8,82,FC,00,00,00,0E,FF,FF,
1400851,000002B2,false,Rx,0,8,29,0E,D7,04,FF,0F,FF,FF,
1401513,000000C3,false,Rx,0,8,73,77,00,40,00,7D,FF,FF,
1405521,00000272,false,Rx,0,8,06,F4,05,12,FF,FF,FF,FF,
1407724,000000EF,false,Rx,0,8,4C,F5,00,7D,21,00,7D,FF,
1408279,000001A1,false,Rx,0,5,15,CD,00,00,8A,00,00,00,
1408517,00000100,false,Rx,0,8,13,F4,7F,C0,5D,1B,87,70,
1408746,00000112,false,Rx,0,8,E5,24,2C,0E,F2,71,55,5B,
1408984,00000140,false,Rx,0,8,C3,6D,40,9C,00,00,04,FF,
1409214,00000141,false,Rx,0,8,AF,7D,40,9C,00,00,F4,FF,
1409380,00000197,false,Rx,0,4,8A,02,0E,C0,00,00,00,00,
1409588,00000199,false,Rx,0,6,FF,FF,9A,7E,FF,3F,00,00,
1409792,0000019A,false,Rx,0,6,FF,FF,3A,7F,FF,3F,00,00,
1409999,0000019F,false,Rx,0,6,FF,FF,FF,7F,FF,2F,00,00,
1410165,000000FF,false,Rx,0,4,CE,24,F0,00,00,00,00,00,
1410406,00000254,false,Rx,0,8,FF,7F,FF,7F,FF,7F,FF,7F,
1410541,00000258,false,Rx,0,2,11,11,00,00,00,00,00,00,
1410768,000002EF,false,Rx,0,8,F4,01,00,40,1F,00,C0,C8,
1411008,00000302,false,Rx,0,7,FF,FF,AE,83,FE,FF,FF,00,
1411442,000003FD,false,Rx,0,5,0E,03,00,00,FF,00,00,00,
1411680,00000108,false,Rx,0,8,00,7D,FF,FF,47,F1,FF,FF,
1411930,000000C3,false,Rx,0,8,2F,78,00,40,00,7D,FF,FF,
1412180,00000212,false,Rx,0,8,43,F4,F9,FF,FF,FF,FF,FF,
1412428,000002DB,false,Rx,0,8,FF,FF,FF,FF,BF,FF,FF,FF,
1412678,000002F1,false,Rx,0,8,37,10,7D,7A,01,64,00,A0,
1413494,000000A5,false,Rx,0,8,E8,FE,FF,F7,7F,00,00,C1,
1413629,000000AC,false,Rx,0,2,00,F0,00,00,00,00,00,00,
1413872,000000D9,false,Rx,0,8,A4,FE,00,10,00,F0,7F,C0,
1414111,000000F3,false,Rx,0,8,8A,0E,00,FF,F0,C0,FF,FF,
1414803,000002A7,false,Rx,0,5,5D,FC,FE,FF,14,00,00,00,
1416968,00000239,false,Rx,0,8,8B,50,44,55,04,FF,FF,FF,
1417732,0000015F,false,Rx,0,8,91,F6,00,7D,00,EE,00,7D,
1418310,00000100,false,Rx,0,8,4E,F5,7F,C0,5D,1B,87,70,
1418528,00000112,false,Rx,0,8,E4,24,2C,0E,F2,71,55,5B,
1419777,0000013A,false,Rx,0,8,38,FE,00,00,00,0E,FF,FF,
1421489,000000C3,false,Rx,0,8,72,79,00,40,00,7D,FF,FF,
1421739,00000201,false,Rx,0,8,9B,EB,39,3B,FF,FF,FF,FF,
1424544,0000003C,false,Rx,0,8,FF,5F,00,00,00,00,FF,FF,
1424862,000001AE,false,Rx,0,2,F7,FF,00,00,00,00,00,00,
1425327,000002BB,false,Rx,0,5,2A,F0,87,88,F2,00,00,00,
1425564,00000289,false,Rx,0,8,DA,F7,E0,FF,FD,00,EC,01,
1427018,00000314,false,Rx,0,3,50,00,FF,00,00,00,00,00,
1427730,000000EF,false,Rx,0,8,AB,F6,00,7D,21,00,7D,FF,
1428279,000001A1,false,Rx,0,5,5A,C0,00,00,8A,00,00,00,
1428516,00000100,false,Rx,0,8,A9,F6,7F,C0,5D,1B,87,70,
1428798,00000140,false,Rx,0,8,25,60,40,9C,00,00,04,FF,
1429016,00000112,false,Rx,0,8,E6,24,2C,0E,F2,71,55,5B,
1429255,00000141,false,Rx,0,8,49,70,40,9C,00,00,F4,FF,
1429495,00000163,false,Rx,0,8,FF,FF,16,25,FF,FF,FF,FF,
1429733,00000173,false,Rx,0,8,80,FC,00,0E,30,00,DE,10,
1429930,00000199,false,Rx,0,6,FF,FF,9A,7E,FF,3F,00,00,
1430137,0000019A,false,Rx,0,6,FF,FF,44,7F,FF,3F,00,00,
1430356,0000019F,false,Rx,0,6,FF,FF,ED,7F,FF,2F,00,00,
1430594,00000254,false,Rx,0,8,FF,7F,FF,7F,FF,7F,FF,7F,
1430722,00000258,false,Rx,0,2,11,11,00,00,00,00,00,00,
1430970,000003C0,false,Rx,0,8,DD,DD,DD,FD,FF,FF,FF,FF,
1431199,000002E8,false,Rx,0,8,C0,E8,C3,FF,FF,F4,F6,47,
1431447,000007BD,false,Rx,0,8,00,00,00,40,FF,C0,01,00,
1431696,00000206,false,Rx,0,8,0A,23,7F,FF,FF,FF,FF,FF,
1431945,000007BE,false,Rx,0,8,05,00,00,00,00,00,00,E0,
1432185,000000C3,false,Rx,0,8,95,7A,00,40,00,7D,FF,FF,
1433801,000000A5,false,Rx,0,8,E9,F0,FF,F7,7F,00,00,C1,
1433937,000000AC,false,Rx,0,2,00,F0,00,00,00,00,00,00,
1434176,000000D9,false,Rx,0,8,A5,F0,00,10,00,F0,7F,C0,
1434414,000000F3,false,Rx,0,8,8B,00,00,FF,F0,C0,FF,FF,
1435726,0000031C,false,Rx,0,8,FF,FF,FF,FF,FF,FF,FF,FF,
1435923,0000033B,false,Rx,0,6,69,FA,DC,FF,FF,FF,00,00,
1437726,0000015F,false,Rx,0,8,CC,F7,00,7D,00,EE,00,7D,
1438531,00000100,false,Rx,0,8,F4,F7,7F,C0,5D,1B,87,70,
1438758,00000112,false,Rx,0,8,E5,24,2C,0E,F2,71,55,5B,
1438976,00000197,false,Rx,0,4,05,03,0E,C0,00,00,00,00,
1439215,000002F5,false,Rx,0,8,BF,0F,E2,24,27,0A,06,10,
1439711,0000013A,false,Rx,0,8,64,F1,00,00,00,0E,FF,FF,
1441055,00000458,false,Rx,0,8,EB,4D,AB,7E,6A,B0,51,8B,
1441510,000000C3,false,Rx,0,8,C8,7B,00,40,00,7D,FF,FF,
1445140,00000297,false,Rx,0,7,03,E2,F0,E0,F2,92,EA,00,
1447716,000000EF,false,Rx,0,8,F6,F7,00,7D,21,00,7D,FF,
1448282,000001A1,false,Rx,0,5,7D,C2,00,00,8A,00,00,00,
1448530,00000100,false,Rx,0,8,A8,F8,7F,C0,5D,1B,87,70,
1448759,00000112,false,Rx,0,8,E5,24,2C,0E,F2,71,55,5B,
1448997,00000140,false,Rx,0,8,9F,62,40,9C,00,00,04,FF,
1449236,00000141,false,Rx,0,8,F3,72,40,9C,00,00,F4,FF,
1449435,00000199,false,Rx,0,6,FF,FF,9A,7E,FF,3F,00,00,
1449641,0000019A,false,Rx,0,6,FF,FF,58,7F,FF,3F,00,00,
1449846,0000019F,false,Rx,0,6,FF,FF,17,80,FF,2F,00,00,
1450094,00000254,false,Rx,0,8,FF,7F,FF,7F,FF,7F,FF,7F,
1450222,00000258,false,Rx,0,2,11,11,00,00,00,00,00,00,
1450459,00000302,false,Rx,0,7,FF,FF,AE,83,FE,FF,FF,00,
1451521,000000C3,false,Rx,0,8,46,7C,00,40,00,7D,FF,FF,
1453392,000002C4,false,Rx,0,8,00,00,FF,00,C8,64,FF,CF,
1453630,000000A5,false,Rx,0,8,B4,F1,FF,F7,7F,00,00,C1,
1453766,000000AC,false,Rx,0,2,00,F0,00,00,00,00,00,00,
1454004,000000D9,false,Rx,0,8,F8,F1,00,10,00,F0,7F,C0,
1454243,000000F3,false,Rx,0,8,D6,01,00,FF,F0,C0,FF,FF,
1454450,00000304,false,Rx,0,6,FF,FF,D9,38,FF,FF,00,00,
1454823,0000036E,false,Rx,0,5,3C,FE,FE,FF,14,00,00,00,
1457731,0000015F,false,Rx,0,8,90,F8,00,7D,00,EE,00,7D,
1458532,00000100,false,Rx,0,8,F5,F9,7F,C0,5D,1B,87,70,
1458761,00000112,false,Rx,0,8,E4,24,2C,0E,F2,71,55,5B,
1458999,00000239,false,Rx,0,8,8B,50,44,55,04,FF,FF,FF,
1459713,0000013A,false,Rx,0,8,DE,F3,00,00,00,0E,FF,FF,
1461499,000000C3,false,Rx,0,8,1B,7D,00,40,00,7D,FF,FF,
1465578,0000012F,false,Rx,0,8,BE,21,86,1B,F1,35,30,00,
1467729,000000EF,false,Rx,0,8,64,F8,00,7D,21,FC,7C,FF,
1468273,000001A1,false,Rx,0,5,14,C4,00,00,8A,00,00,00,
1468531,00000100,false,Rx,0,8,12,FA,7F,C0,5D,1B,87,70,
1468760,00000112,false,Rx,0,8,E4,24,2C,0E,F2,71,55,5B,
1468999,00000140,false,Rx,0,8,4C,64,40,9C,00,00,04,FF,
1469238,00000141,false,Rx,0,8,20,74,40,9C,00,00,F4,FF,
1469395,00000197,false,Rx,0,4,8F,04,0E,C0,00,00,00,00,
1469602,00000199,false,Rx,0,6,FF,FF,9A,7E,FF,3F,00,00,
1469806,0000019A,false,Rx,0,6,FF,FF,3A,7F,FF,3F,00,00,
1470013,0000019F,false,Rx,0,6,FF,FF,00,80,FF,2F,00,00,
1470253,00000254,false,Rx,0,8,FF,7F,FF,7F,FF,7F,FF,7F,
1470389,00000258,false,Rx,0,2,11,11,00,00,00,00,00,00,
1471502,00000206,false,Rx,0,8,84,24,7F,FF,FF,FF,FF,FF,
1471751,000000C3,false,Rx,0,8,FC,7E,00,40,00,7D,FF,FF,
1472015,00000201,false,Rx,0,8,A7,EB,45,3B,FF,FF,FF,FF,
1473389,000000A5,false,Rx,0,8,53,F2,FF,F7,7F,00,00,C1,
1473524,000000AC,false,Rx,0,2,00,F0,00,00,00,00,00,00,
1473761,000000D9,false,Rx,0,8,1F,F2,00,10,00,F0,7F,C0,
1474002,000000F3,false,Rx,0,8,31,02,00,FF,F0,C0,FF,FF,
1475663,0000036F,false,Rx,0,5,06,F0,FE,FF,14,00,00,00,
1477733,0000015F,false,Rx,0,8,CD,F9,00,7D,00,EE,00,7D,
1478340,00000100,false,Rx,0,8,4F,FB,7F,C0,5D,1B,87,70,
1478569,00000112,false,Rx,0,8,E4,24,2C,0E,F2,71,55,5B,
1479033,00000431,false,Rx,0,8,C6,FD,3F,00,0D,9E,F7,00,
1479715,0000013A,false,Rx,0,8,0D,F5,00,00,00,0E,FF,FF,
1479925,000002C5,false,Rx,0,7,6E,F9,00,60,06,70,C8,00,
1480196,000007BE,false,Rx,0,8,0B,00,00,00,00,00,00,00,
1481506,000000C3,false,Rx,0,8,FD,70,00,40,00,7D,FF,FF,
1487732,000000EF,false,Rx,0,8,39,F9,00,7D,21,FC,7C,FF,
1488122,00000100,false,Rx,0,8,C1,FC,7F,C0,5D,1B,87,70,
1488310,000001A1,false,Rx,0,5,33,C6,00,00,8A,00,00,00,
1488723,00000112,false,Rx,0,8,E3,24,2C,0E,F2,71,55,5B,
1488961,00000140,false,Rx,0,8,F6,66,40,9C,00,00,04,FF,
1489200,00000141,false,Rx,0,8,9A,76,40,9C,00,00,F4,FF,
1489532,00000432,false,Rx,0,8,BC,DC,15,BD,5A,7C,2D,BC,
1489729,00000199,false,Rx,0,6,FF,FF,7C,7E,FF,3F,00,00,
1489934,0000019A,false,Rx,0,6,FF,FF,3A,7F,FF,3F,00,00,
1490143,0000019F,false,Rx,0,6,FF,FF,EF,7F,FF,2F,00,00,
1490392,00000254,false,Rx,0,8,FF,7F,FF,7F,FF,7F,FF,7F,
1490517,00000258,false,Rx,0,2,11,11,00,00,00,00,00,00,
1490754,00000302,false,Rx,0,7,FF,FF,AE,83,FE,FF,FF,00,
1490983,0000029E,false,Rx,0,8,47,88,13,E2,04,FF,FF,FF,
1491520,000000C3,false,Rx,0,8,A0,71,00,40,00,7D,FF,FF,
1493437,000000A5,false,Rx,0,8,0E,F3,FF,F7,7F,00,00,C1,
1493572,000000AC,false,Rx,0,2,00,F0,00,00,00,00,00,00,
1493809,000000D9,false,Rx,0,8,42,F3,00,10,00,F0,7F,C0,
1494048,000000F3,false,Rx,0,8,6C,03,00,FF,F0,C0,FF,FF,
1494967,000002A7,false,Rx,0,5,C0,FD,FE,FF,14,00,00,00,
1495546,000001E1,false,Rx,0,6,66,F1,05,FF,FF,FF,00,00,
1497730,0000015F,false,Rx,0,8,2A,FA,00,7D,00,EE,00,7D,
1498522,00000100,false,Rx,0,8,9C,FD,7F,C0,5D,1B,87,70,
1498741,00000112,false,Rx,0,8,E3,24,2C,0E,F2,71,55,5B,
1498979,00000197,false,Rx,0,4,00,05,0E,C0,00,00,00,00,
1499712,0000013A,false,Rx,0,8,B7,F7,00,00,00,0E,FF,FF,
1500684,000002B2,false,Rx,0,8,29,0E,D7,04,FF,0F,FF,FF,
1501057,000001B6,false,Rx,0,7,51,81,02,04,77,C1,F0,00,
1501492,000000C3,false,Rx,0,8,47,72,00,40,00,7D,FF,FF,
1507728,000000EF,false,Rx,0,8,10,FA,00,7D,21,00,7D,FF,
1508283,000001A1,false,Rx,0,5,C6,C8,00,00,8A,00,00,00,
1508511,00000100,false,Rx,0,8,7B,FE,7F,C0,5D,1B,87,70,
1508740,00000112,false,Rx,0,8,E2,24,2C,0E,F2,71,55,5B,
1508968,00000140,false,Rx,0,8,F7,68,40,9C,00,00,04,FF,
1509207,00000141,false,Rx,0,8,9B,78,40,9C,00,00,F4,FF,
1509457,000001FA,false,Rx,0,8,41,65,45,70,4F,4E,4D,4F,
1509664,00000199,false,Rx,0,6,FF,FF,86,7E,FF,3F,00,00,
1509869,0000019A,false,Rx,0,6,FF,FF,44,7F,FF,3F,00,00,
1510077,0000019F,false,Rx,0,6,FF,FF,F3,7F,FF,2F,00,00,
1510327,00000254,false,Rx,0,8,FF,7F,FF,7F,FF,7F,FF,7F,
1510452,00000258,false,Rx,0,2,11,11,00,00,00,00,00,00,
1510761,000002EF,false,Rx,0,8,F4,01,00,40,1F,00,C0,C8,
1511444,000003FD,false,Rx,0,5,FA,04,00,00,FF,00,00,00,
1511682,00000108,false,Rx,0,8,00,7D,FF,FF,47,F1,FF,FF,
1511928,000000C3,false,Rx,0,8,1A,73,00,40,00,7D,FF,FF,
1512156,000000F5,false,Rx,0,7,DC,DC,00,82,00,82,00,00,
1512323,000000FF,false,Rx,0,4,CE,24,F0,00,00,00,00,00,
1512572,000001B5,false,Rx,0,8,82,4A,82,71,FF,FF,FF,FF,
1512810,00000201,false,Rx,0,8,B0,EB,4E,3B,FF,FF,FF,FF,
1513069,00000206,false,Rx,0,8,D9,25,7F,FF,FF,FF,FF,FF,
1513319,00000212,false,Rx,0,8,1E,F5,F9,FF,FF,FF,FF,FF,
1513558,000000A5,false,Rx,0,8,80,F4,FF,F7,7F,00,00,C1,
1513683,000000AC,false,Rx,0,2,00,F0,00,00,00,00,00,00,
1513923,000000D9,false,Rx,0,8,CC,F4,00,10,00,F0,7F,C0,
1514171,000000F3,false,Rx,0,8,E2,04,00,FF,F0,C0,FF,FF,
1514410,000002DB,false,Rx,0,8,FF,FF,FF,FF,BF,FF,FF,FF,
1514659,000002F1,false,Rx,0,8,37,10,7D,7A,01,64,00,A0,
1514908,000002FA,false,Rx,0,8,3F,00,30,FF,FF,FF,FF,FF,
1515157,0000032B,false,Rx,0,8,FF,FF,FF,FF,FF,FF,00,FF,
1515406,00000331,false,Rx,0,8,FF,FF,FF,EF,7F,FE,F7,FF,
1515656,000003AD,false,Rx,0,8,00,F0,FF,FF,FF,FF,FF,F1,
1515802,000003E8,false,Rx,0,2,F1,FF,00,00,00,00,00,00,
1516041,000003E9,false,Rx,0,8,5C,8F,21,A1,7C,7C,20,45,
1516303,0000041E,false,Rx,0,8,00,03,CF,FF,FF,FF,FF,FF,
1516962,00000239,false,Rx,0,8,8B,52,44,55,04,FF,FF,FF,
1517430,000002F5,false,Rx,0,8,BF,0F,E2,24,28,0A,06,10,
1517741,0000015F,false,Rx,0,8,77,FB,00,7D,00,EE,00,7D,
1518468,00000100,false,Rx,0,8,7A,F0,7F,C0,5D,1B,87,70,
1518687,00000112,false,Rx,0,8,E2,24,2C,0E,F2,71,55,5B,
1519120,00000363,false,Rx,0,8,DA,76,EE,0A,FF,FF,FF,FF,
1519761,0000013A,false,Rx,0,8,B6,F9,00,00,00,0E,FF,FF,
1521497,000000C3,false,Rx,0,8,94,74,00,40,00,7D,FF,FF,
1521747,00000201,false,Rx,0,8,B3,EB,50,3B,FF,FF,FF,FF,
1524397,000000C0,false,Rx,0,2,F9,40,00,00,00,00,00,00,
1524651,0000003C,false,Rx,0,8,FF,5F,00,00,00,00,FF,FF,
1524879,000001AE,false,Rx,0,2,F7,FF,00,00,00,00,00,00,
1525333,000002BB,false,Rx,0,5,91,FA,87,88,F2,00,00,00,
1525572,00000289,false,Rx,0,8,86,F8,E0,FF,FD,00,EC,01,
1526903,00000349,false,Rx,0,5,FE,FF,FE,FF,00,00,00,00,
1527730,000000EF,false,Rx,0,8,4D,FB,00,7D,21,00,7D,FF,
1528267,000001A1,false,Rx,0,5,E1,CA,00,00,8A,00,00,00,
1528506,00000100,false,Rx,0,8,27,F1,7F,C0,5D,1B,87,70,
1528775,00000140,false,Rx,0,8,4D,6A,40,9C,00,00,04,FF,
1529004,00000112,false,Rx,0,8,E1,24,2C,0E,F2,71,55,5B,
1529243,00000141,false,Rx,0,8,21,7A,40,9C,00,00,F4,FF,
1529482,00000163,false,Rx,0,8,FF,FF,16,25,FF,FF,FF,FF,
1529710,00000173,false,Rx,0,8,B5,F7,00,0E,30,00,DE,10,
1529877,00000197,false,Rx,0,4,8C,06,0E,C0,00,00,00,00,
1530084,00000199,false,Rx,0,6,FF,FF,9A,7E,FF,3F,00,00,
1530282,0000019A,false,Rx,0,6,FF,FF,3A,7F,FF,3F,00,00,
1530491,0000019F,false,Rx,0,6,FF,FF,FF,7F,FF,2F,00,00,
1530739,00000254,false,Rx,0,8,FF,7F,FF,7F,FF,7F,FF,7F,
1530865,00000258,false,Rx,0,2,11,11,00,00,00,00,00,00,
1531102,000002E8,false,Rx,0,8,C0,E8,C3,FF,FF,F4,F7,5A,
1531332,00000301,false,Rx,0,7,FF,FF,28,83,FF,FF,CF,00,
1531571,000000C3,false,Rx,0,8,C9,75,00,40,00,7D,FF,FF,
1531799,00000302,false,Rx,0,7,FF,FF,AE,83,FE,FF,FF,00,
1532047,000007BD,false,Rx,0,8,00,00,00,40,FF,C0,01,00,
1532317,000007BE,false,Rx,0,8,0C,41,04,69,00,00,00,00,
1533599,000000A5,false,Rx,0,8,DD,F5,FF,F7,7F,00,00,C1,
1533724,000000AC,false,Rx,0,2,00,F0,00,00,00,00,00,00,
1533972,000000D9,false,Rx,0,8,91,F5,00,10,00,F0,7F,C0,
1534212,000000F3,false,Rx,0,8,BF,05,00,FF,F0,C0,FF,FF,
1537735,0000015F,false,Rx,0,8,F9,FC,00,7D,00,EE,00,7D,
1538433,00000100,false,Rx,0,8,C0,F2,7F,C0,5D,1B,87,70,
1538652,00000112,false,Rx,0,8,E1,24,2C,0E,F2,71,55,5B,
1539116,000002F5,false,Rx,0,8,BF,0F,E2,24,28,0A,06,10,
1539717,0000013A,false,Rx,0,8,0C,FB,00,00,00,0E,FF,FF,
1541493,000000C3,false,Rx,0,8,2E,76,00,40,00,7D,FF,FF,
1547728,000000EF,false,Rx,0,8,C3,FC,00,7D,21,00,7D,FF,
1548272,000001A1,false,Rx,0,5,88,CC,00,00,8A,00,00,00,
1548521,00000100,false,Rx,0,8,9D,F3,7F,C0,5D,1B,87,70,
1548749,00000112,false,Rx,0,8,DF,24,2C,0E,F2,71,55,5B,
1548977,00000140,false,Rx,0,8,9E,6C,40,9C,00,00,04,FF,
1549216,00000141,false,Rx,0,8,F2,7C,40,9C,00,00,F4,FF,
1549425,00000199,false,Rx,0,6,FF,FF,86,7E,FF,3F,00,00,
1549632,0000019A,false,Rx,0,6,FF,FF,30,7F,FF,3F,00,00,
1549836,0000019F,false,Rx,0,6,FF,FF,15,80,FF,2F,00,00,
1550075,00000254,false,Rx,0,8,FF,7F,FF,7F,FF,7F,FF,7F,
1550202,00000258,false,Rx,0,2,11,11,00,00,00,00,00,00,
1551499,00000206,false,Rx,0,8,3E,26,7F,FF,FF,FF,FF,FF,
1551749,000000C3,false,Rx,0,8,73,77,00,40,00,7D,FF,FF,
1553333,000002C4,false,Rx,0,8,00,00,FF,00,C8,64,FF,CF,
1553571,000000A5,false,Rx,0,8,3A,F6,FF,F7,7F,00,00,C1,
1553706,000000AC,false,Rx,0,2,00,F0,00,00,00,00,00,00,
1553944,000000D9,false,Rx,0,8,76,F6,00,10,00,F0,7F,C0,
1554184,000000F3,false,Rx,0,8,58,06,00,FF,F0,C0,FF,FF,
1557729,0000015F,false,Rx,0,8,A4,FD,00,7D,00,EE,00,7D,
1558541,00000100,false,Rx,0,8,13,F4,7F,C0,5D,1B,87,70,
1558769,00000112,false,Rx,0,8,E0,24,2C,0E,F2,71,55,5B,
1558976,00000197,false,Rx,0,4,03,07,0E,C0,00,00,00,00,
1559709,0000013A,false,Rx,0,8,DF,FD,00,00,00,0E,FF,FF,
1561496,000000C3,false,Rx,0,8,2F,78,00,40,00,7D,FF,FF,
1565574,0000012F,false,Rx,0,8,59,22,86,1B,F1,35,30,00,
1565818,000003B4,false,Rx,0,8,00,00,0D,F4,BD,FF,09,B2,
1567725,000000EF,false,Rx,0,8,9E,FD,00,7D,21,00,7D,FF,
1568283,000001A1,false,Rx,0,5,AF,CE,00,00,8A,00,00,00,
1568542,00000100,false,Rx,0,8,4E,F5,7F,C0,5D,1B,87,70,
1568770,00000112,false,Rx,0,8,DE,24,2C,0E,F2,71,55,5B,
1569008,00000140,false,Rx,0,8,24,6E,40,9C,00,00,04,FF,
1569249,00000141,false,Rx,0,8,48,7E,40,9C,00,00,F4,FF,
1569456,00000199,false,Rx,0,6,FF,FF,72,7E,FF,3F,00,00,
1569661,0000019A,false,Rx,0,6,FF,FF,44,7F,FF,3F,00,00,
1569868,0000019F,false,Rx,0,6,FF,FF,FE,7F,FF,2F,00,00,
1570117,00000254,false,Rx,0,8,FF,7F,FF,7F,FF,7F,FF,7F,
1570244,00000258,false,Rx,0,2,11,11,00,00,00,00,00,00,
1570470,00000302,false,Rx,0,7,FF,FF,AE,83,FE,FF,FF,00,
1571514,000000C3,false,Rx,0,8,72,79,00,40,00,7D,FF,FF,
1571767,00000201,false,Rx,0,8,BE,EB,5C,3B,FF,FF,FF,FF,
1573377,000000A5,false,Rx,0,8,67,F7,FF,F7,7F,00,00,C1,
1573513,000000AC,false,Rx,0,2,00,F0,00,00,00,00,00,00,
1573760,000000D9,false,Rx,0,8,2B,F7,00,10,00,F0,7F,C0,
1573999,000000F3,false,Rx,0,8,05,07,00,FF,F0,C0,FF,FF,
1574866,000002A7,false,Rx,0,5,7A,FE,FE,FF,14,00,00,00,
1577733,0000015F,false,Rx,0,8,43,FE,00,7D,00,EE,00,7D,
1578348,00000100,false,Rx,0,8,A9,F6,7F,C0,5D,1B,87,70,
1578577,00000112,false,Rx,0,8,DE,24,2C,0E,F2,71,55,5B,
1579722,0000013A,false,Rx,0,8,39,F0,00,00,00,0E,FF,FF,
1579930,000002C5,false,Rx,0,7,A4,FA,00,60,06,70,C8,00,
1580201,000007BE,false,Rx,0,8,00,C0,FA,1C,02,00,00,00,
1581511,000000C3,false,Rx,0,8,95,7A,00,40,00,7D,FF,FF,
1586889,00000314,false,Rx,0,3,50,00,FF,00,00,00,00,00,
1587731,000000EF,false,Rx,0,8,B7,FE,00,7D,21,FC,7C,FF,
1588268,000001A1,false,Rx,0,5,C7,C1,00,00,8A,00,00,00,
1588497,00000100,false,Rx,0,8,F4,F7,7F,C0,5D,1B,87,70,
1588735,00000112,false,Rx,0,8,DC,24,2C,0E,F2,71,55,5B,
1588965,00000140,false,Rx,0,8,78,61,40,9C,00,00,04,FF,
1589205,00000141,false,Rx,0,8,14,71,40,9C,00,00,F4,FF,
1589371,00000197,false,Rx,0,4,85,08,0E,C0,00,00,00,00,
1589629,00000199,false,Rx,0,6,FF,FF,7C,7E,FF,3F,00,00,
1589836,0000019A,false,Rx,0,6,FF,FF,3A,7F,FF,3F,00,00,
1590044,0000019F,false,Rx,0,6,FF,FF,0C,80,FF,2F,00,00,
1590283,00000254,false,Rx,0,8,FF,7F,FF,7F,FF,7F,FF,7F,
1590419,00000258,false,Rx,0,2,11,11,00,00,00,00,00,00,
1590842,0000029E,false,Rx,0,8,47,88,13,E2,04,FF,FF,FF,
1591495,00000206,false,Rx,0,8,63,27,7F,FF,FF,FF,FF,FF,
1591743,000000C3,false,Rx,0,8,C8,7B,00,40,00,7D,FF,FF,
1593413,000000A5,false,Rx,0,8,3B,F8,FF,F7,7F,00,00,C1,
1593538,000000AC,false,Rx,0,2,00,F0,00,00,00,00,00,00,
1593787,000000D9,false,Rx,0,8,77,F8,00,10,00,F0,7F,C0,
1594025,000000F3,false,Rx,0,8,59,08,00,FF,F0,C0,FF,FF,
1597732,0000015F,false,Rx,0,8,42,F0,00,7D,00,EE,00,7D,
1598452,00000100,false,Rx,0,8,A8,F8,7F,C0,5D,1B,87,70,
1598680,00000112,false,Rx,0,8,DD,24,2C,0E,F2,71,55,5B,
1599732,0000013A,false,Rx,0,8,83,F2,00,00,00,0E,FF,FF,
1600786,000002B2,false,Rx,0,8,29,0E,D8,04,FF,0F,FF,FF,
1601499,000000C3,false,Rx,0,8,46,7C,00,40,00,7D,FF,FF,
1605724,00000272,false,Rx,0,8,5B,F5,05,12,FF,FF,FF,FF,
1607721,000000EF,false,Rx,0,8,B6,F0,00,7D,21,FC,7C,FF,
1608286,000001A1,false,Rx,0,5,E0,C3,00,00,8A,00,00,00,
1608545,00000100,false,Rx,0,8,F5,F9,7F,C0,5D,1B,87,70,
1608763,00000112,false,Rx,0,8,DD,24,2C,0E,F2,71,65,5B,
1609001,00000140,false,Rx,0,8,C2,63,40,9C,00,00,04,FF,
1609241,00000141,false,Rx,0,8,AE,73,40,9C,00,00,F4,FF,
1609438,00000199,false,Rx,0,6,FF,FF,9A,7E,FF,3F,00,00,
1609645,0000019A,false,Rx,0,6,FF,FF,3A,7F,FF,3F,00,00,
1609850,0000019F,false,Rx,0,6,FF,FF,08,80,FF,2F,00,00,
1610099,00000254,false,Rx,0,8,FF,7F,FF,7F,FF,7F,FF,7F,
1610267,000000FF,false,Rx,0,4,D8,24,F0,00,00,00,00,00,
1610391,00000258,false,Rx,0,2,11,11,00,00,00,00,00,00,
1610618,00000302,false,Rx,0,7,FF,FF,AE,83,FE,FF,FF,00,
1610929,000002EF,false,Rx,0,8,F4,01,00,40,1F,00,C0,C8,
1611447,000003FD,false,Rx,0,5,67,05,00,00,FF,00,00,00,
1611685,00000108,false,Rx,0,8,00,7D,FF,FF,47,F1,FF,FF,
1611932,000000C3,false,Rx,0,8,1B,7D,00,40,00,7D,FF,FF,
1612182,00000212,false,Rx,0,8,F9,F6,F9,FF,FF,FF,FF,FF,
1612432,000002DB,false,Rx,0,8,FF,FF,FF,FF,BF,FF,FF,FF,
1612680,000002F1,false,Rx,0,8,37,10,7D,7A,01,64,00,A0,
1613497,000000A5,false,Rx,0,8,66,F9,FF,F7,7F,00,00,C1,
1613632,000000AC,false,Rx,0,2,00,F0,00,00,00,00,00,00,
1613877,000000D9,false,Rx,0,8,2A,F9,00,10,00,F0,7F,C0,
1614115,000000F3,false,Rx,0,8,04,09,00,FF,F0,C0,FF,FF,
1614797,0000036E,false,Rx,0,5,C9,F0,FE,FF,14,00,00,00,
1617241,00000239,false,Rx,0,8,8B,53,44,55,04,FF,FF,FF,
1617727,0000015F,false,Rx,0,8,1F,F1,00,7D,00,EE,00,7D,
1618551,00000100,false,Rx,0,8,12,FA,7F,C0,5D,1B,87,70,
1618779,00000112,false,Rx,0,8,DE,24,2C,0E,F2,71,65,5B,
1618976,00000197,false,Rx,0,4,0A,09,0E,C0,00,00,00,00,
1619771,0000013A,false,Rx,0,8,50,F4,00,00,00,0E,FF,FF,
1621518,000000C3,false,Rx,0,8,FC,7E,00,40,00,7D,FF,FF,
1621766,00000201,false,Rx,0,8,CA,EB,68,3B,FF,FF,FF,FF,
1624542,0000003C,false,Rx,0,8,FF,5F,00,00,00,00,FF,FF,
1624859,000001AE,false,Rx,0,2,F7,FF,00,00,00,00,00,00,
1625324,000002BB,false,Rx,0,5,F9,F5,87,88,F2,00,00,00,
1625562,00000289,false,Rx,0,8,DB,F9,E0,FF,FD,00,EC,01,
1627727,000000EF,false,Rx,0,8,EB,F1,00,7D,21,FC,7C,FF,
1628276,000001A1,false,Rx,0,5,89,C5,00,00,8A,00,00,00,
1628504,00000100,false,Rx,0,8,4F,FB,7F,C0,5D,1B,87,70,
1628793,00000140,false,Rx,0,8,11,65,40,9C,00,00,04,FF,
1629011,00000112,false,Rx,0,8,DD,24,2C,0E,F2,71,65,5B,
1629252,00000141,false,Rx,0,8,7D,75,40,9C,00,00,F4,FF,
1629490,00000163,false,Rx,0,8,FF,FF,16,25,FF,FF,FF,FF,
1629728,00000173,false,Rx,0,8,81,F2,00,0E,30,00,DE,10,
1629927,00000199,false,Rx,0,6,FF,FF,86,7E,FF,3F,00,00,
1630134,0000019A,false,Rx,0,6,FF,FF,3A,7F,FF,3F,00,00,
1630342,0000019F,false,Rx,0,6,FF,FF,F6,7F,FF,2F,00,00,
1630590,00000254,false,Rx,0,8,FF,7F,FF,7F,FF,7F,FF,7F,
1630718,00000258,false,Rx,0,2,11,11,00,00,00,00,00,00,
1630956,000002E8,false,Rx,0,8,C0,E8,C3,FF,FF,F4,F8,E1,
1631153,00000328,false,Rx,0,6,FA,2C,C9,04,AB,1E,00,00,
1631423,000007BD,false,Rx,0,8,00,00,00,40,FF,C0,01,00,
1631672,00000206,false,Rx,0,8,3F,28,7F,FF,FF,FF,FF,FF,
1631920,000007BE,false,Rx,0,8,05,00,00,00,00,00,00,E0,
1632158,000000C3,false,Rx,0,8,FD,70,00,40,00,7D,FF,FF,
1633622,000000A5,false,Rx,0,8,81,FA,FF,F7,7F,00,00,C1,
1633748,000000AC,false,Rx,0,2,00,F0,00,00,00,00,00,00,
1633995,000000D9,false,Rx,0,8,CD,FA,00,10,00,F0,7F,C0,
1634235,000000F3,false,Rx,0,8,E3,0A,00,FF,F0,C0,FF,FF,
1635670,0000036F,false,Rx,0,5,9B,F1,FE,FF,14,00,00,00,
1635918,0000031C,false,Rx,0,8,FF,FF,FF,FF,FF,FF,FF,FF,
1636127,0000033B,false,Rx,0,6,03,FB,DC,FF,FF,FF,00,00,
1637736,0000015F,false,Rx,0,8,F8,F2,00,7D,00,EE,00,7D,
1638459,00000100,false,Rx,0,8,C1,FC,7F,C0,5D,1B,87,70,
1638687,00000112,false,Rx,0,8,DE,24,2C,0E,F2,71,65,5B,
1639153,000002F5,false,Rx,0,8,BF,0F,E2,24,28,0A,06,10,
1639711,0000013A,false,Rx,0,8,EA,F6,00,00,00,0E,FF,FF,
1640661,00000350,false,Rx,0,6,F7,FF,FF,FF,FF,FF,00,00,
1641498,000000C3,false,Rx,0,8,A0,71,00,40,00,7D,FF,FF,
1645071,00000297,false,Rx,0,7,45,E3,F0,E0,F2,92,EA,00,
1646533,0000051A,false,Rx,0,8,00,00,00,00,50,00,00,1A,
1647726,000000EF,false,Rx,0,8,C2,F2,00,7D,21,00,7D,FF,
1648273,000001A1,false,Rx,0,5,AE,C7,00,00,8A,00,00,00,
1648533,00000100,false,Rx,0,8,9C,FD,7F,C0,5D,1B,87,70,
1648761,00000112,false,Rx,0,8,DF,24,2C,0E,F2,71,65,5B,
1648999,00000140,false,Rx,0,8,AB,67,40,9C,00,00,04,FF,
1649233,00000141,false,Rx,0,8,C7,77,40,9C,00,00,F4,FF,
1649399,00000197,false,Rx,0,4,86,0A,0E,C0,00,00,00,00,
1649606,00000199,false,Rx,0,6,FF,FF,9A,7E,FF,3F,00,00,
1649813,0000019A,false,Rx,0,6,FF,FF,30,7F,FF,3F,00,00,
1650021,0000019F,false,Rx,0,6,FF,FF,ED,7F,FF,2F,00,00,
1650271,00000254,false,Rx,0,8,FF,7F,FF,7F,FF,7F,FF,7F,
1650396,00000258,false,Rx,0,2,11,11,00,00,00,00,00,00,
1650624,00000302,false,Rx,0,7,FF,FF,AE,83,FE,FF,FF,00,
1650852,000003CA,false,Rx,0,8,78,00,36,17,17,3B,FF,FF,
1651494,000000C3,false,Rx,0,8,47,72,00,40,00,7D,FF,FF,
1653387,000002C4,false,Rx,0,8,00,00,FF,00,C8,64,FF,CF,
1653625,000000A5,false,Rx,0,8,DC,FB,FF,F7,7F,00,00,C1,
1653762,000000AC,false,Rx,0,2,00,F0,00,00,00,00,00,00,
1653999,000000D9,false,Rx,0,8,90,FB,00,10,00,F0,7F,C0,
1654248,000000F3,false,Rx,0,8,BE,0B,00,FF,F0,C0,FF,FF,
1654457,00000304,false,Rx,0,6,FF,FF,D8,38,FF,FF,00,00,
1654808,000002A7,false,Rx,0,5,8F,F0,FE,FF,14,00,00,00,
1657727,0000015F,false,Rx,0,8,A5,F3,00,7D,00,EE,00,7D,
1658426,00000100,false,Rx,0,8,7B,FE,7F,C0,5D,1B,87,70,
1658654,00000112,false,Rx,0,8,E0,24,2C,0E,F2,71,65,5B,
1658882,00000239,false,Rx,0,8,8B,53,44,55,04,FF,FF,FF,
1659719,0000013A,false,Rx,0,8,EB,F8,00,00,00,0E,FF,FF,
1661517,000000C3,false,Rx,0,8,1A,73,00,40,00,7D,FF,FF,
1665573,0000012F,false,Rx,0,8,04,23,86,1B,F1,35,30,00,
1667726,000000EF,false,Rx,0,8,9F,F3,00,7D,21,00,7D,FF,
1668281,000001A1,false,Rx,0,5,5B,C9,00,00,8A,00,00,00,
1668529,00000100,false,Rx,0,8,7A,F0,7F,C0,5D,1B,87,70,
1668756,00000112,false,Rx,0,8,E0,24,2C,0E,F2,71,65,5B,
1668995,00000140,false,Rx,0,8,AA,69,40,9C,00,00,04,FF,
1669235,00000141,false,Rx,0,8,C6,79,40,9C,00,00,F4,FF,
1669432,00000199,false,Rx,0,6,FF,FF,86,7E,FF,3F,00,00,
1669639,0000019A,false,Rx,0,6,FF,FF,44,7F,FF,3F,00,00,
1669855,0000019F,false,Rx,0,6,FF,FF,F8,7F,FF,2F,00,00,
1670093,00000254,false,Rx,0,8,FF,7F,FF,7F,FF,7F,FF,7F,
1670230,00000258,false,Rx,0,2,11,11,00,00,00,00,00,00,
1671518,00000206,false,Rx,0,8,62,29,7F,FF,FF,FF,FF,FF,
1671777,000000C3,false,Rx,0,8,94,74,00,40,00,7D,FF,FF,
1672019,00000201,false,Rx,0,8,D6,EB,74,3B,FF,FF,FF,FF,
1673384,000000A5,false,Rx,0,8,52,FC,FF,F7,7F,00,00,C1,
1673519,000000AC,false,Rx,0,2,00,F0,00,00,00,00,00,00,
1673768,000000D9,false,Rx,0,8,1E,FC,00,10,00,F0,7F,C0,
1674008,000000F3,false,Rx,0,8,30,0C,00,FF,F0,C0,FF,FF,
1676716,000002A6,false,Rx,0,2,00,8A,00,00,00,00,00,00,
1677736,0000015F,false,Rx,0,8,2B,F4,00,7D,00,EE,00,7D,
1678437,00000100,false,Rx,0,8,27,F1,7F,C0,5D,1B,87,70,
1678664,00000112,false,Rx,0,8,E1,24,2C,0E,F2,71,65,5B,
1678975,00000197,false,Rx,0,4,09,0B,0E,C0,00,00,00,00,
1679523,00000431,false,Rx,0,8,C6,FD,3F,00,0D,9E,F7,00,
1679761,0000013A,false,Rx,0,8,51,FA,00,00,00,0E,FF,FF,
1680004,0000019D,false,Rx,0,8,DE,32,8E,01,FF,FF,FF,FF,
1680234,000002C5,false,Rx,0,7,E2,FB,00,60,06,70,C8,00,
1680502,000007BE,false,Rx,0,8,0B,00,00,00,00,00,00,00,
1681494,000000C3,false,Rx,0,8,C9,75,00,40,00,7D,FF,FF,
1687733,000000EF,false,Rx,0,8,11,F4,00,7D,21,00,7D,FF,
1688278,000001A1,false,Rx,0,5,7C,CB,00,00,8A,00,00,00,
1688546,00000100,false,Rx,0,8,C0,F2,7F,C0,5D,1B,87,70,
1688774,00000112,false,Rx,0,8,E1,24,2C,0E,F2,71,65,5B,
1689014,00000140,false,Rx,0,8,10,6B,40,9C,00,00,04,FF,
1689253,00000141,false,Rx,0,8,7C,7B,40,9C,00,00,F4,FF,
1689553,00000432,false,Rx,0,8,BC,DC,15,BD,5A,7C,2D,BC,
1689750,00000199,false,Rx,0,6,FF,FF,9A,7E,FF,3F,00,00,
1689958,0000019A,false,Rx,0,6,FF,FF,3A,7F,FF,3F,00,00,
1690164,0000019F,false,Rx,0,6,FF,FF,1C,80,FF,2F,00,00,
1690415,00000254,false,Rx,0,8,FF,7F,FF,7F,FF,7F,FF,7F,
1690541,00000258,false,Rx,0,2,11,11,00,00,00,00,00,00,
1690768,00000302,false,Rx,0,7,FF,FF,AE,83,FE,FF,FF,00,
1691006,0000029E,false,Rx,0,8,47,88,13,E2,04,FF,FF,FF,
1691503,000000C3,false,Rx,0,8,2E,76,00,40,00,7D,FF,FF,
1693439,000000A5,false,Rx,0,8,0F,FD,FF,F7,7F,00,00,C1,
1693574,000000AC,false,Rx,0,2,00,F0,00,00,00,00,00,00,
1693812,000000D9,false,Rx,0,8,43,FD,00,10,00,F0,7F,C0,
1694050,000000F3,false,Rx,0,8,6D,0D,00,FF,F0,C0,FF,FF,
1695547,000001E1,false,Rx,0,6,D8,F2,05,FF,FF,FF,00,00,
1697730,0000015F,false,Rx,0,8,76,F5,00,7D,00,EE,00,7D,
1698450,00000100,false,Rx,0,8,9D,F3,7F,C0,5D,1B,87,70,
1698678,00000112,false,Rx,0,8,E2,24,2C,0E,F2,71,65,5B,
1699710,0000013A,false,Rx,0,8,82,FC,00,00,00,0E,FF,FF,
1701196,000002B2,false,Rx,0,8,29,0E,D8,04,FF,0F,FF,FF,
1701497,000000C3,false,Rx,0,8,73,77,00,40,00,7D,FF,FF,
1707723,000000EF,false,Rx,0,8,4C,F5,00,7D,21,00,7D,FF,
1708112,00000100,false,Rx,0,8,13,F4,7F,C0,5D,1B,87,70,
1708301,000001A1,false,Rx,0,5,15,CD,00,00,8A,00,00,00,
1708713,00000112,false,Rx,0,8,E3,24,2C,0E,F2,71,65,5B,
1708951,00000140,false,Rx,0,8,C3,6D,40,9C,00,00,04,FF,
1709192,00000141,false,Rx,0,8,AF,7D,40,9C,00,00,F4,FF,
1709348,00000197,false,Rx,0,4,83,0C,0E,C0,00,00,00,00,
1709554,00000199,false,Rx,0,6,FF,FF,86,7E,FF,3F,00,00,
1709781,0000019A,false,Rx,0,6,FF,FF,3A,7F,FF,3F,00,00,
1709967,0000019F,false,Rx,0,6,FF,FF,12,80,FF,2F,00,00,
1710216,00000254,false,Rx,0,8,FF,7F,FF,7F,FF,7F,FF,7F,
1710341,00000258,false,Rx,0,2,11,11,00,00,00,00,00,00,
1710476,000002D1,false,Rx,0,2,20,AC,00,00,00,00,00,00,
1710899,000002EF,false,Rx,0,8,F4,01,00,40,1F,00,C0,C8,
1711458,000003FD,false,Rx,0,5,DD,06,00,00,FF,00,00,00,
1711706,00000108,false,Rx,0,8,00,7D,FF,FF,47,F1,FF,FF,
1711953,000000C3,false,Rx,0,8,2F,78,00,40,00,7D,FF,FF,
1712193,000001B5,false,Rx,0,8,DF,4B,82,71,FF,FF,FF,FF,
1712452,00000206,false,Rx,0,8,85,2A,7F,FF,FF,FF,FF,FF,
1712701,00000212,false,Rx,0,8,A4,F7,F9,FF,FF,FF,FF,FF,
1712950,000002DB,false,Rx,0,8,FF,FF,FF,FF,BF,FF,FF,FF,
1713210,000002F1,false,Rx,0,8,37,10,7D,7A,01,64,00,A0,
1713459,0000032B,false,Rx,0,8,FF,FF,FF,FF,FF,FF,00,FF,
1713698,000000A5,false,Rx,0,8,E8,FE,FF,F7,7F,00,00,C1,
1713844,000000AC,false,Rx,0,2,00,F0,00,00,00,00,00,00,
1714071,000000D9,false,Rx,0,8,A4,FE,00,10,00,F0,7F,C0,
1714311,000000F3,false,Rx,0,8,8A,0E,00,FF,F0,C0,FF,FF,
1714550,00000331,false,Rx,0,8,FF,FF,FF,EF,7F,FE,F7,FF,
1714788,000003E9,false,Rx,0,8,5C,8F,21,A1,7C,7C,20,45,
1715399,0000038E,false,Rx,0,8,00,00,19,19,79,09,52,F7,
1716808,0000038E,false,Rx,0,8,00,00,19,19,79,09,53,F7,
1717035,00000239,false,Rx,0,8,3B,54,44,55,04,FF,FF,FF,
1717729,0000015F,false,Rx,0,8,91,F6,00,7D,00,EE,00,7D,
1718319,00000100,false,Rx,0,8,4E,F5,7F,C0,5D,1B,87,70,
1718537,00000112,false,Rx,0,8,E3,24,2C,0E,F2,71,65,5B,
1719775,0000013A,false,Rx,0,8,38,FE,00,00,00,0E,FF,FF,
1721498,000000C3,false,Rx,0,8,72,79,00,40,00,7D,FF,FF,
1721736,00000201,false,Rx,0,8,E2,EB,80,3B,FF,FF,FF,FF,
1724460,000000C0,false,Rx,0,2,FA,40,00,00,00,00,00,00,
1724703,0000003C,false,Rx,0,8,FF,5F,00,00,00,00,FF,FF,
1724961,000001AE,false,Rx,0,2,F7,FF,00,00,00,00,00,00,
1725427,000002BB,false,Rx,0,5,2A,F0,87,88,F2,00,00,00,
1725675,00000289,false,Rx,0,8,3C,FA,E0,FF,FD,00,EC,01,
1727090,00000349,false,Rx,0,5,FE,FF,FE,FF,00,00,00,00,
1727731,000000EF,false,Rx,0,8,AB,F6,00,7D,21,00,7D,FF,
1728280,000001A1,false,Rx,0,5,5A,C0,00,00,8A,00,00,00,
1728527,00000100,false,Rx,0,8,A9,F6,7F,C0,5D,1B,87,70,
1728796,00000140,false,Rx,0,8,25,60,40,9C,00,00,04,FF,
1729025,00000112,false,Rx,0,8,E4,24,2C,0E,F2,71,65,5B,
1729265,00000141,false,Rx,0,8,49,70,40,9C,00,00,F4,FF,
1729504,00000163,false,Rx,0,8,FF,FF,16,25,FF,FF,FF,FF,
1729733,00000173,false,Rx,0,8,80,FC,00,0E,30,00,DE,10,
1729940,00000199,false,Rx,0,6,FF,FF,9A,7E,FF,3F,00,00,
1730147,0000019A,false,Rx,0,6,FF,FF,3A,7F,FF,3F,00,00,
1730355,0000019F,false,Rx,0,6,FF,FF,14,80,FF,2F,00,00,
1730596,00000254,false,Rx,0,8,FF,7F,FF,7F,FF,7F,FF,7F,
1730732,00000258,false,Rx,0,2,11,11,00,00,00,00,00,00,
1730969,000002E8,false,Rx,0,8,C0,E8,C3,FF,FF,F4,F9,FC,
1731198,00000301,false,Rx,0,7,FF,FF,28,83,FF,FF,CF,00,
1731426,00000302,false,Rx,0,7,FF,FF,AE,83,FE,FF,FF,00,
1731664,000000C3,false,Rx,0,8,95,7A,00,40,00,7D,FF,FF,
1731913,000007BD,false,Rx,0,8,00,00,00,40,FF,C0,01,00,
1732184,000007BE,false,Rx,0,8,07,6E,29,30,06,67,00,00,
1733556,000000A5,false,Rx,0,8,E9,F0,FF,F7,7F,00,00,C1,
1733691,000000AC,false,Rx,0,2,00,F0,00,00,00,00,00,00,
1733928,000000D9,false,Rx,0,8,A5,F0,00,10,00,F0,7F,C0,
1734178,000000F3,false,Rx,0,8,8B,00,00,FF,F0,C0,FF,FF,
1734799,000002A7,false,Rx,0,5,12,F1,FE,FF,14,00,00,00,
1737723,0000015F,false,Rx,0,8,CC,F7,00,7D,00,EE,00,7D,
1738528,00000100,false,Rx,0,8,F4,F7,7F,C0,5D,1B,87,70,
1738754,00000112,false,Rx,0,8,E4,24,2C,0E,F2,71,65,5B,
1738983,00000197,false,Rx,0,4,0C,0D,0E,C0,00,00,00,00,
1739243,000002F5,false,Rx,0,8,BF,0F,E2,24,28,0A,06,10,
1739708,0000013A,false,Rx,0,8,64,F1,00,00,00,0E,FF,FF,
1741494,000000C3,false,Rx,0,8,C8,7B,00,40,00,7D,FF,FF,
1741856,00000348,false,Rx,0,8,A7,07,0A,FE,FE,8B,18,00,
1747021,00000314,false,Rx,0,3,50,00,FF,00,00,00,00,00,
1747719,000000EF,false,Rx,0,8,38,F7,00,7D,21,FC,7C,FF,
1748278,000001A1,false,Rx,0,5,7D,C2,00,00,8A,00,00,00,
1748557,00000100,false,Rx,0,8,A8,F8,7F,C0,5D,1B,87,70,
1748774,00000112,false,Rx,0,8,E5,24,2C,0E,F2,71,65,5B,
1749014,00000140,false,Rx,0,8,9F,62,40,9C,00,00,04,FF,
1749257,00000141,false,Rx,0,8,F3,72,40,9C,00,00,F4,FF,
1749454,00000199,false,Rx,0,6,FF,FF,86,7E,FF,3F,00,00,
1749661,0000019A,false,Rx,0,6,FF,FF,3A,7F,FF,3F,00,00,
1749869,0000019F,false,Rx,0,6,FF,FF,1D,80,FF,2F,00,00,
1750117,00000254,false,Rx,0,8,FF,7F,FF,7F,FF,7F,FF,7F,
1750244,00000258,false,Rx,0,2,11,11,00,00,00,00,00,00,
1751528,00000206,false,Rx,0,8,D8,2B,7F,FF,FF,FF,FF,FF,
1751796,000000C3,false,Rx,0,8,46,7C,00,40,00,7D,FF,FF,
1753332,000002C4,false,Rx,0,8,00,00,FF,00,C8,64,FF,CF,
1753572,000000A5,false,Rx,0,8,B4,F1,FF,F7,7F,00,00,C1,
1753697,000000AC,false,Rx,0,2,00,F0,00,00,00,00,00,00,
1753944,000000D9,false,Rx,0,8,F8,F1,00,10,00,F0,7F,C0,
1754184,000000F3,false,Rx,0,8,D6,01,00,FF,F0,C0,FF,FF,
1757737,0000015F,false,Rx,0,8,90,F8,00,7D,00,EE,00,7D,
1758436,00000100,false,Rx,0,8,F5,F9,7F,C0,5D,1B,87,70,
1758654,00000112,false,Rx,0,8,E6,24,2C,0E,F2,71,65,5B,
1759707,0000013A,false,Rx,0,8,DE,F3,00,00,00,0E,FF,FF,
1761513,00000201,false,Rx,0,8,EB,EB,89,3B,FF,FF,FF,FF,
1761772,000000C3,false,Rx,0,8,1B,7D,00,40,00,7D,FF,FF,
1761999,0000043D,false,Rx,0,8,0A,50,E2,FF,21,07,08,F0,
1762218,000000F5,false,Rx,0,7,DC,DC,00,82,00,82,00,00,
1762384,000000FF,false,Rx,0,4,D8,24,F0,00,00,00,00,00,
1765580,0000012F,false,Rx,0,8,8A,24,86,1B,F1,35,30,00,
1765856,00000337,false,Rx,0,2,FF,FF,00,00,00,00,00,00,
1766145,000003B4,false,Rx,0,8,00,00,0D,F4,BD,FF,09,B2,
1767724,000000EF,false,Rx,0,8,AA,F8,00,7D,21,00,7D,FF,
1768273,000001A1,false,Rx,0,5,14,C4,00,00,8A,00,00,00,
1768521,00000100,false,Rx,0,8,12,FA,7F,C0,5D,1B,87,70,
1768738,00000112,false,Rx,0,8,E5,24,2C,0E,F2,71,65,5B,
1768978,00000140,false,Rx,0,8,4C,64,40,9C,00,00,04,FF,
1769217,00000141,false,Rx,0,8,20,74,40,9C,00,00,F4,FF,
1769383,00000197,false,Rx,0,4,80,0E,0E,C0,00,00,00,00,
1769590,00000199,false,Rx,0,6,FF,FF,A4,7E,FF,3F,00,00,
1769788,0000019A,false,Rx,0,6,FF,FF,3A,7F,FF,3F,00,00,
1770004,0000019F,false,Rx,0,6,FF,FF,07,80,FF,2F,00,00,
1770254,00000254,false,Rx,0,8,FF,7F,FF,7F,FF,7F,FF,7F,
1770379,00000258,false,Rx,0,2,11,11,00,00,00,00,00,00,
1770607,00000302,false,Rx,0,7,FF,FF,AE,83,FE,FF,FF,00,
1771505,000000C3,false,Rx,0,8,FC,7E,00,40,00,7D,FF,FF,
1771753,00000201,false,Rx,0,8,EE,EB,8B,3B,FF,FF,FF,FF,
1773379,000000A5,false,Rx,0,8,53,F2,FF,F7,7F,00,00,C1,
1773516,000000AC,false,Rx,0,2,00,F0,00,00,00,00,00,00,
1773753,000000D9,false,Rx,0,8,1F,F2,00,10,00,F0,7F,C0,
1773990,000000F3,false,Rx,0,8,31,02,00,FF,F0,C0,FF,FF,
1774919,0000036E,false,Rx,0,5,54,F1,FE,FF,14,00,00,00,
1777732,0000015F,false,Rx,0,8,CD,F9,00,7D,00,EE,00,7D,
1778369,00000100,false,Rx,0,8,4F,FB,7F,C0,5D,1B,87,70,
1778588,00000112,false,Rx,0,8,E6,24,2C,0E,F2,71,65,5B,
1779673,000002C5,false,Rx,0,7,2D,FC,00,60,06,70,C8,00,
1779921,0000013A,false,Rx,0,8,0D,F5,00,00,00,0E,FF,FF,
1781502,000000C3,false,Rx,0,8,FD,70,00,40,00,7D,FF,FF,
1781751,0000043C,false,Rx,0,8,FE,FE,FF,FF,FF,FF,FF,FF,
1787728,000000EF,false,Rx,0,8,F7,F9,00,7D,21,00,7D,FF,
1788283,000001A1,false,Rx,0,5,33,C6,00,00,8A,00,00,00,
1788541,00000100,false,Rx,0,8,C1,FC,7F,C0,5D,1B,87,70,
1788769,00000112,false,Rx,0,8,E5,24,2C,0E,F2,71,65,5B,
1789008,00000140,false,Rx,0,8,F6,66,40,9C,00,00,04,FF,
1789237,00000141,false,Rx,0,8,9A,76,40,9C,00,00,F4,FF,
1789578,00000199,false,Rx,0,6,FF,FF,86,7E,FF,3F,00,00,
1789793,0000019A,false,Rx,0,6,FF,FF,44,7F,FF,3F,00,00,
1790000,0000019F,false,Rx,0,6,FF,FF,FB,7F,FF,2F,00,00,
1790249,00000254,false,Rx,0,8,FF,7F,FF,7F,FF,7F,FF,7F,
1790374,00000258,false,Rx,0,2,11,11,00,00,00,00,00,00,
1791116,0000029E,false,Rx,0,8,47,88,13,E2,04,FF,FF,FF,
1791511,00000206,false,Rx,0,8,56,2C,7F,FF,FF,FF,FF,FF,
1791759,000000C3,false,Rx,0,8,A0,71,00,40,00,7D,FF,FF,
1793409,000000A5,false,Rx,0,8,0E,F3,FF,F7,7F,00,00,C1,
1793546,000000AC,false,Rx,0,2,00,F0,00,00,00,00,00,00,
1793783,000000D9,false,Rx,0,8,42,F3,00,10,00,F0,7F,C0,
1794021,000000F3,false,Rx,0,8,6C,03,00,FF,F0,C0,FF,FF,
1794929,0000036F,false,Rx,0,5,21,F2,FE,FF,14,00,00,00,
1797732,0000015F,false,Rx,0,8,2A,FA,00,7D,00,EE,00,7D,
1798544,00000100,false,Rx,0,8,9C,FD,7F,C0,5D,1B,87,70,
1798761,00000112,false,Rx,0,8,E6,24,2C,0E,F2,71,65,5B,
1798980,00000197,false,Rx,0,4,89,00,0E,C0,00,00,00,00,
1799713,0000013A,false,Rx,0,8,B7,F7,00,00,00,0E,FF,FF,
1801003,000002B2,false,Rx,0,8,29,0E,D8,04,FF,0F,FF,FF,
1801522,000000C3,false,Rx,0,8,47,72,00,40,00,7D,FF,FF,
1801750,0000034A,false,Rx,0,8,C2,E8,96,FB,BF,FE,82,25,
1805937,00000272,false,Rx,0,8,BC,F6,05,12,FF,FF,FF,FF,
1807729,000000EF,false,Rx,0,8,10,FA,00,7D,21,00,7D,FF,
1808284,000001A1,false,Rx,0,5,C6,C8,00,00,8A,00,00,00,
1808532,00000100,false,Rx,0,8,7B,FE,7F,C0,5D,1B,87,70,
1808749,00000112,false,Rx,0,8,E5,24,2C,0E,F2,71,65,5B,
1808989,00000140,false,Rx,0,8,F7,68,40,9C,00,00,04,FF,
1809228,00000141,false,Rx,0,8,9B,78,40,9C,00,00,F4,FF,
1809425,00000199,false,Rx,0,6,FF,FF,90,7E,FF,3F,00,00,
1809633,0000019A,false,Rx,0,6,FF,FF,44,7F,FF,3F,00,00,
1809840,0000019F,false,Rx,0,6,FF,FF,11,80,FF,2F,00,00,
1810088,00000254,false,Rx,0,8,FF,7F,FF,7F,FF,7F,FF,7F,
1810214,00000258,false,Rx,0,2,11,11,00,00,00,00,00,00,
1810442,00000302,false,Rx,0,7,FF,FF,AE,83,FE,FF,FF,00,
1811081,000002EF,false,Rx,0,8,F4,01,00,40,1F,00,C0,C8,
1811445,000003FD,false,Rx,0,5,40,07,00,00,FF,00,00,00,
1811683,00000108,false,Rx,0,8,00,7D,FF,FF,47,F1,FF,FF,
1811933,000000C3,false,Rx,0,8,1A,73,00,40,00,7D,FF,FF,
1812179,00000212,false,Rx,0,8,F8,F8,F9,FF,FF,FF,FF,FF,
1812428,000002DB,false,Rx,0,8,FF,FF,FF,FF,BF,FF,FF,FF,
1812677,000002F1,false,Rx,0,8,37,10,7D,7A,01,64,00,A0,
1813494,000000A5,false,Rx,0,8,80,F4,FF,F7,7F,00,00,C1,
1813629,000000AC,false,Rx,0,2,00,F0,00,00,00,00,00,00,
1813866,000000D9,false,Rx,0,8,CC,F4,00,10,00,F0,7F,C0,
1814110,000000F3,false,Rx,0,8,E2,04,00,FF,F0,C0,FF,FF,
1814885,000002A7,false,Rx,0,5,A8,F2,FE,FF,14,00,00,00,
1817244,00000239,false,Rx,0,8,3B,55,44,55,04,FF,FF,FF,
1817730,0000015F,false,Rx,0,8,77,FB,00,7D,00,EE,00,7D,
1818462,00000100,false,Rx,0,8,7A,F0,7F,C0,5D,1B,87,70,
1818690,00000112,false,Rx,0,8,E6,24,2C,0E,F2,71,65,5B,
1819764,0000013A,false,Rx,0,8,B6,F9,00,00,00,0E,FF,FF,
1821497,000000C3,false,Rx,0,8,94,74,00,40,00,7D,FF,FF,
1821746,0000034C,false,Rx,0,8,34,00,00,00,1F,13,F0,FF,
1821985,00000201,false,Rx,0,8,F9,EB,97,3B,FF,FF,FF,FF,
1824535,0000003C,false,Rx,0,8,FF,5F,00,00,00,00,FF,FF,
1824841,000001AE,false,Rx,0,2,F7,FF,00,00,00,00,00,00,
1825296,000002BB,false,Rx,0,5,91,FA,87,88,F2,00,00,00,
1825534,00000289,false,Rx,0,8,61,FB,E0,FF,FD,00,EC,01,
1827719,000000EF,false,Rx,0,8,4D,FB,00,7D,21,00,7D,FF,
1828268,000001A1,false,Rx,0,5,E1,CA,00,00,8A,00,00,00,
1828505,00000100,false,Rx,0,8,27,F1,7F,C0,5D,1B,87,70,
1828774,00000140,false,Rx,0,8,4D,6A,40,9C,00,00,04,FF,
1829004,00000112,false,Rx,0,8,E5,24,2C,0E,F2,71,65,5B,
1829233,00000141,false,Rx,0,8,21,7A,40,9C,00,00,F4,FF,
1829481,00000163,false,Rx,0,8,FF,FF,16,25,FF,FF,FF,FF,
1829710,00000173,false,Rx,0,8,B5,F7,00,0E,30,00,DE,10,
1829876,00000197,false,Rx,0,4,06,01,0E,C0,00,00,00,00,
1830083,00000199,false,Rx,0,6,FF,FF,90,7E,FF,3F,00,00,
1830291,0000019A,false,Rx,0,6,FF,FF,3A,7F,FF,3F,00,00,
1830489,0000019F,false,Rx,0,6,FF,FF,03,80,FF,2F,00,00,
1830739,00000254,false,Rx,0,8,FF,7F,FF,7F,FF,7F,FF,7F,
1830864,00000258,false,Rx,0,2,11,11,00,00,00,00,00,00,
1831102,000002E8,false,Rx,0,8,C0,E8,C3,FF,FF,F4,FA,DB,
1831352,000007BD,false,Rx,0,8,00,00,00,40,FF,C0,01,00,
1831600,00000206,false,Rx,0,8,0B,2D,7F,FF,FF,FF,FF,FF,
1831850,000007BE,false,Rx,0,8,05,00,00,00,00,00,00,E0,
1832088,000000C3,false,Rx,0,8,C9,75,00,40,00,7D,FF,FF,
1833596,000000A5,false,Rx,0,8,DD,F5,FF,F7,7F,00,00,C1,
1833731,000000AC,false,Rx,0,2,00,F0,00,00,00,00,00,00,
1833968,000000D9,false,Rx,0,8,91,F5,00,10,00,F0,7F,C0,
1834209,000000F3,false,Rx,0,8,BF,05,00,FF,F0,C0,FF,FF,
1835726,0000031C,false,Rx,0,8,FF,FF,FF,FF,FF,FF,FF,FF,
1835934,0000033B,false,Rx,0,6,08,FC,DC,FF,FF,FF,00,00,
1837726,0000015F,false,Rx,0,8,F9,FC,00,7D,00,EE,00,7D,
1838440,00000100,false,Rx,0,8,C0,F2,7F,C0,5D,1B,87,70,
1838658,00000112,false,Rx,0,8,E6,24,2C,0E,F2,71,65,5B,
1839123,000002F5,false,Rx,0,8,BF,0F,E2,24,28,0A,06,10,
1839724,0000013A,false,Rx,0,8,0C,FB,00,00,00,0E,FF,FF,
1841517,000000C3,false,Rx,0,8,2E,76,00,40,00,7D,FF,FF,
1845072,00000297,false,Rx,0,7,8A,E4,F0,E0,F2,92,EA,00,
1847721,000000EF,false,Rx,0,8,C3,FC,00,7D,21,00,7D,FF,
1848277,000001A1,false,Rx,0,5,88,CC,00,00,8A,00,00,00,
1848524,00000100,false,Rx,0,8,9D,F3,7F,C0,5D,1B,87,70,
1848754,00000112,false,Rx,0,8,E5,24,2C,0E,F2,71,65,5B,
1848992,00000140,false,Rx,0,8,9E,6C,40,9C,00,00,04,FF,
1849221,00000141,false,Rx,0,8,F2,7C,40,9C,00,00,F4,FF,
1849428,00000199,false,Rx,0,6,FF,FF,86,7E,FF,3F,00,00,
1849636,0000019A,false,Rx,0,6,FF,FF,44,7F,FF,3F,00,00,
1849841,0000019F,false,Rx,0,6,FF,FF,ED,7F,FF,2F,00,00,
1850089,00000254,false,Rx,0,8,FF,7F,FF,7F,FF,7F,FF,7F,
1850215,00000258,false,Rx,0,2,11,11,00,00,00,00,00,00,
1850443,00000302,false,Rx,0,7,FF,FF,AE,83,FE,FF,FF,00,
1851495,000000C3,false,Rx,0,8,73,77,00,40,00,7D,FF,FF,
1853387,000002C4,false,Rx,0,8,00,00,FF,00,C8,64,FF,CF,
1853625,000000A5,false,Rx,0,8,3A,F6,FF,F7,7F,00,00,C1,
1853761,000000AC,false,Rx,0,2,00,F0,00,00,00,00,00,00,
1853997,000000D9,false,Rx,0,8,76,F6,00,10,00,F0,7F,C0,
1854238,000000F3,false,Rx,0,8,58,06,00,FF,F0,C0,FF,FF,
1854445,00000304,false,Rx,0,6,FF,FF,D7,38,FF,FF,00,00,
1857734,0000015F,false,Rx,0,8,A4,FD,00,7D,00,EE,00,7D,
1858526,00000100,false,Rx,0,8,13,F4,7F,C0,5D,1B,87,70,
1858745,00000112,false,Rx,0,8,E5,24,2C,0E,F2,71,65,5B,
1858983,00000239,false,Rx,0,8,3B,55,44,55,04,FF,FF,FF,
1859149,00000197,false,Rx,0,4,8A,02,0E,C0,00,00,00,00,
1859707,0000013A,false,Rx,0,8,DF,FD,00,00,00,0E,FF,FF,
1861496,000000C3,false,Rx,0,8,2F,78,00,40,00,7D,FF,FF,
1865573,0000012F,false,Rx,0,8,D7,25,86,1B,F1,35,30,00,
1867725,000000EF,false,Rx,0,8,9E,FD,00,7D,21,00,7D,FF,
1868280,000001A1,false,Rx,0,5,AF,CE,00,00,8A,00,00,00,
1868548,00000100,false,Rx,0,8,4E,F5,7F,C0,5D,1B,87,70,
1868777,00000112,false,Rx,0,8,E5,24,2C,0E,F2,71,65,5B,
1869015,00000140,false,Rx,0,8,24,6E,40,9C,00,00,04,FF,
1869255,00000141,false,Rx,0,8,48,7E,40,9C,00,00,F4,FF,
1869452,00000199,false,Rx,0,6,FF,FF,86,7E,FF,3F,00,00,
1869660,0000019A,false,Rx,0,6,FF,FF,3A,7F,FF,3F,00,00,
1869865,0000019F,false,Rx,0,6,FF,FF,F6,7F,FF,2F,00,00,
1870113,00000254,false,Rx,0,8,FF,7F,FF,7F,FF,7F,FF,7F,
1870240,00000258,false,Rx,0,2,11,11,00,00,00,00,00,00,
1871498,00000206,false,Rx,0,8,EC,2E,7F,FF,FF,FF,FF,FF,
1871746,000000C3,false,Rx,0,8,72,79,00,40,00,7D,FF,FF,
1871991,00000201,false,Rx,0,8,05,EC,A3,3B,FF,FF,FF,FF,
1873385,000000A5,false,Rx,0,8,67,F7,FF,F7,7F,00,00,C1,
1873520,000000AC,false,Rx,0,2,00,F0,00,00,00,00,00,00,
1873757,000000D9,false,Rx,0,8,2B,F7,00,10,00,F0,7F,C0,
1873997,000000F3,false,Rx,0,8,05,07,00,FF,F0,C0,FF,FF,
1877736,0000015F,false,Rx,0,8,43,FE,00,7D,00,EE,00,7D,
1878342,00000100,false,Rx,0,8,A9,F6,7F,C0,5D,1B,87,70,
1878570,00000112,false,Rx,0,8,E4,24,2C,0E,F2,71,65,5B,
1879036,00000431,false,Rx,0,8,C6,FD,3F,00,0D,9E,F7,00,
1879708,0000013A,false,Rx,0,8,39,F0,00,00,00,0E,FF,FF,
1879928,000002C5,false,Rx,0,7,6B,FD,00,60,06,70,C8,00,
1880199,000007BE,false,Rx,0,8,0C,41,04,69,00,00,00,00,
1881520,000000C3,false,Rx,0,8,95,7A,00,40,00,7D,FF,FF,
1887726,000000EF,false,Rx,0,8,79,FE,00,7D,21,00,7D,FF,
1888271,000001A1,false,Rx,0,5,C7,C1,00,00,8A,00,00,00,
1888508,00000100,false,Rx,0,8,F4,F7,7F,C0,5D,1B,87,70,
1888727,00000112,false,Rx,0,8,E4,24,2C,0E,F2,71,65,5B,
1888965,00000140,false,Rx,0,8,78,61,40,9C,00,00,04,FF,
1889205,00000141,false,Rx,0,8,14,71,40,9C,00,00,F4,FF,
1889371,00000197,false,Rx,0,4,05,03,0E,C0,00,00,00,00,
1889579,00000199,false,Rx,0,6,FF,FF,86,7E,FF,3F,00,00,
1889793,0000019A,false,Rx,0,6,FF,FF,30,7F,FF,3F,00,00,
1890000,0000019F,false,Rx,0,6,FF,FF,FF,7F,FF,2F,00,00,
1890241,00000254,false,Rx,0,8,FF,7F,FF,7F,FF,7F,FF,7F,
1890376,00000258,false,Rx,0,2,11,11,00,00,00,00,00,00,
1890603,00000302,false,Rx,0,7,FF,FF,AE,83,FE,FF,FF,00,
1890831,00000432,false,Rx,0,8,BC,DC,15,BD,5A,7C,2D,BC,
1891215,0000029E,false,Rx,0,8,47,88,13,E2,04,FF,FF,FF,
1891515,000000C3,false,Rx,0,8,C8,7B,00,40,00,7D,FF,FF,
1893433,000000A5,false,Rx,0,8,3B,F8,FF,F7,7F,00,00,C1,
1893569,000000AC,false,Rx,0,2,00,F0,00,00,00,00,00,00,
1893806,000000D9,false,Rx,0,8,77,F8,00,10,00,F0,7F,C0,
1894044,000000F3,false,Rx,0,8,59,08,00,FF,F0,C0,FF,FF,
1894840,000002A7,false,Rx,0,5,35,F3,FE,FF,14,00,00,00,
1895541,000001E1,false,Rx,0,6,B2,F3,05,FF,FF,FF,00,00,
1897727,0000015F,false,Rx,0,8,42,F0,00,7D,00,EE,00,7D,
1898550,00000100,false,Rx,0,8,A8,F8,7F,C0,5D,1B,87,70,
1898769,00000112,false,Rx,0,8,E3,24,2C,0E,F2,71,65,5B,
1899718,0000013A,false,Rx,0,8,83,F2,00,00,00,0E,FF,FF,
1901101,000002B2,false,Rx,0,8,29,0E,D7,04,FF,0F,FF,FF,
1901504,000000C3,false,Rx,0,8,46,7C,00,40,00,7D,FF,FF,
1907096,00000314,false,Rx,0,3,50,00,FF,00,00,00,00,00,
1907731,000000EF,false,Rx,0,8,78,F0,00,7D,21,00,7D,FF,
1908281,000001A1,false,Rx,0,5,E0,C3,00,00,8A,00,00,00,
1908550,00000100,false,Rx,0,8,F5,F9,7F,C0,5D,1B,87,70,
1908768,00000112,false,Rx,0,8,E2,24,2C,0E,F2,71,75,5B,
1909006,00000140,false,Rx,0,8,C2,63,40,9C,00,00,04,FF,
1909240,00000141,false,Rx,0,8,AE,73,40,9C,00,00,F4,FF,
1909448,00000199,false,Rx,0,6,FF,FF,9A,7E,FF,3F,00,00,
1909655,0000019A,false,Rx,0,6,FF,FF,30,7F,FF,3F,00,00,
1909862,0000019F,false,Rx,0,6,FF,FF,FB,7F,FF,2F,00,00,
1910110,00000254,false,Rx,0,8,FF,7F,FF,7F,FF,7F,FF,7F,
1910269,000000FF,false,Rx,0,4,CE,24,F0,00,00,00,00,00,
1910403,00000258,false,Rx,0,2,11,11,00,00,00,00,00,00,
1911236,000002EF,false,Rx,0,8,F4,01,00,40,1F,00,C0,C8,
1911443,000003FD,false,Rx,0,5,28,08,00,00,FF,00,00,00,
1911691,00000108,false,Rx,0,8,00,7D,FF,FF,47,F1,FF,FF,
1911930,000000C3,false,Rx,0,8,1B,7D,00,40,00,7D,FF,FF,
1912180,000001B5,false,Rx,0,8,51,4C,82,71,FF,FF,FF,FF,
1912428,00000206,false,Rx,0,8,ED,20,7F,FF,FF,FF,FF,FF,
1912688,00000212,false,Rx,0,8,A5,F9,F9,FF,FF,FF,FF,FF,
1912937,000002DB,false,Rx,0,8,FF,FF,FF,FF,BF,FF,FF,FF,
1913207,000002F1,false,Rx,0,8,37,10,7D,7A,01,64,00,A0,
1913426,0000032B,false,Rx,0,8,FF,FF,FF,FF,FF,FF,00,FF,
1913664,000000A5,false,Rx,0,8,66,F9,FF,F7,7F,00,00,C1,
1913799,000000AC,false,Rx,0,2,00,F0,00,00,00,00,00,00,
1914038,000000D9,false,Rx,0,8,2A,F9,00,10,00,F0,7F,C0,
1914277,000000F3,false,Rx,0,8,04,09,00,FF,F0,C0,FF,FF,
1914526,00000331,false,Rx,0,8,FF,FF,FF,EF,7F,FE,F7,FF,
1914784,000003E9,false,Rx,0,8,5C,8F,21,A1,7C,7C,20,45,
1917240,00000239,false,Rx,0,8,3B,57,44,55,04,FF,FF,FF,
1917731,0000015F,false,Rx,0,8,1F,F1,00,7D,00,EE,00,7D,
1918321,00000100,false,Rx,0,8,12,FA,7F,C0,5D,1B,87,70,
1918549,00000112,false,Rx,0,8,E3,24,2C,0E,F2,71,75,5B,
1918983,00000197,false,Rx,0,4,8F,04,0E,C0,00,00,00,00,
1919760,0000013A,false,Rx,0,8,50,F4,00,00,00,0E,FF,FF,
1921509,000000C3,false,Rx,0,8,FC,7E,00,40,00,7D,FF,FF,
1921748,00000201,false,Rx,0,8,11,EC,AF,3B,FF,FF,FF,FF,
1924386,000000C0,false,Rx,0,2,FB,40,00,00,00,00,00,00,
1924633,0000003C,false,Rx,0,8,FF,5F,00,00,00,00,FF,FF,
1924873,000001AE,false,Rx,0,2,F7,FF,00,00,00,00,00,00,
1925346,000002BB,false,Rx,0,5,F9,F5,87,88,F2,00,00,00,
1925585,00000289,false,Rx,0,8,EF,FC,E0,FF,FD,00,EC,01,
1926884,00000349,false,Rx,0,5,FE,FF,FE,FF,00,00,00,00,
1927729,000000EF,false,Rx,0,8,25,F1,00,7D,21,00,7D,FF,
1928278,000001A1,false,Rx,0,5,89,C5,00,00,8A,00,00,00,
1928506,00000100,false,Rx,0,8,4F,FB,7F,C0,5D,1B,87,70,
1928786,00000140,false,Rx,0,8,11,65,40,9C,00,00,04,FF,
1929014,00000112,false,Rx,0,8,E3,24,2C,0E,F2,71,75,5B,
1929253,00000141,false,Rx,0,8,7D,75,40,9C,00,00,F4,FF,
1929489,00000163,false,Rx,0,8,FF,FF,16,25,FF,FF,FF,FF,
1929727,00000173,false,Rx,0,8,81,F2,00,0E,30,00,DE,10,
1929934,00000199,false,Rx,0,6,FF,FF,A4,7E,FF,3F,00,00,
1930141,0000019A,false,Rx,0,6,FF,FF,4E,7F,FF,3F,00,00,
1930340,0000019F,false,Rx,0,6,FF,FF,10,80,FF,2F,00,00,
1930588,00000254,false,Rx,0,8,FF,7F,FF,7F,FF,7F,FF,7F,
1930713,00000258,false,Rx,0,2,11,11,00,00,00,00,00,00,
1930952,000002E8,false,Rx,0,8,C0,E8,C3,FF,FF,F4,FB,C6,
1931181,00000301,false,Rx,0,7,FF,FF,28,83,FF,FF,CF,00,
1931410,00000302,false,Rx,0,7,FF,FF,AE,83,FE,FF,FF,00,
1931658,000000C3,false,Rx,0,8,FD,70,00,40,00,7D,FF,FF,
1931908,000007BD,false,Rx,0,8,00,00,00,40,FF,C0,01,00,
1932178,000007BE,false,Rx,0,8,00,C0,FA,1C,02,00,00,00,
1933583,000000A5,false,Rx,0,8,81,FA,FF,F7,7F,00,00,C1,
1933709,000000AC,false,Rx,0,2,00,F0,00,00,00,00,00,00,
1933956,000000D9,false,Rx,0,8,CD,FA,00,10,00,F0,7F,C0,
1934196,000000F3,false,Rx,0,8,E3,0A,00,FF,F0,C0,FF,FF,
1934795,0000036E,false,Rx,0,5,EE,F2,FE,FF,14,00,00,00,
1937727,0000015F,false,Rx,0,8,F8,F2,00,7D,00,EE,00,7D,
1938447,00000100,false,Rx,0,8,C1,FC,7F,C0,5D,1B,87,70,
1938665,00000112,false,Rx,0,8,E1,24,2C,0E,F2,71,75,5B,
1939130,000002F5,false,Rx,0,8,BF,0F,E2,24,28,0A,06,10,
1939710,0000013A,false,Rx,0,8,EA,F6,00,00,00,0E,FF,FF,
1941497,000000C3,false,Rx,0,8,A0,71,00,40,00,7D,FF,FF,
1943278,000002F9,false,Rx,0,7,00,00,00,08,78,C0,F3,00,
1947728,000000EF,false,Rx,0,8,C2,F2,00,7D,21,00,7D,FF,
1948273,000001A1,false,Rx,0,5,AE,C7,00,00,8A,00,00,00,
1948520,00000100,false,Rx,0,8,9C,FD,7F,C0,5D,1B,87,70,
1948750,00000112,false,Rx,0,8,E2,24,2C,0E,F2,71,75,5B,
1948988,00000140,false,Rx,0,8,AB,67,40,9C,00,00,04,FF,
1949217,00000141,false,Rx,0,8,C7,77,40,9C,00,00,F4,FF,
1949384,00000197,false,Rx,0,4,00,05,0E,C0,00,00,00,00,
1949591,00000199,false,Rx,0,6,FF,FF,86,7E,FF,3F,00,00,
1949795,0000019A,false,Rx,0,6,FF,FF,58,7F,FF,3F,00,00,
1950002,0000019F,false,Rx,0,6,FF,FF,18,80,FF,2F,00,00,
1950253,00000254,false,Rx,0,8,FF,7F,FF,7F,FF,7F,FF,7F,
1950378,00000258,false,Rx,0,2,11,11,00,00,00,00,00,00,
1951502,00000206,false,Rx,0,8,B0,21,7F,FF,FF,FF,FF,FF,
1951751,000000C3,false,Rx,0,8,47,72,00,40,00,7D,FF,FF,
1953336,000002C4,false,Rx,0,8,00,00,FF,00,C8,64,FF,CF,
1953574,000000A5,false,Rx,0,8,DC,FB,FF,F7,7F,00,00,C1,
1953699,000000AC,false,Rx,0,2,00,F0,00,00,00,00,00,00,
1953946,000000D9,false,Rx,0,8,90,FB,00,10,00,F0,7F,C0,
1954186,000000F3,false,Rx,0,8,BE,0B,00,FF,F0,C0,FF,FF,
1955651,0000036F,false,Rx,0,5,BC,F3,FE,FF,14,00,00,00,
1957723,0000015F,false,Rx,0,8,A5,F3,00,7D,00,EE,00,7D,
1958453,00000100,false,Rx,0,8,7B,FE,7F,C0,5D,1B,87,70,
1958671,00000112,false,Rx,0,8,E0,24,2C,0E,F2,71,75,5B,
1959714,0000013A,false,Rx,0,8,EB,F8,00,00,00,0E,FF,FF,
1960003,000006F1,false,Rx,0,5,15,03,22,DE,84,00,00,00,
1961499,000000C3,false,Rx,0,8,1A,73,00,40,00,7D,FF,FF,
1962777,00000615,false,Rx,0,8,F1,10,13,62,DE,84,00,00,
1963192,000006F1,false,Rx,0,4,15,30,00,02,00,00,00,00,
1965580,0000012F,false,Rx,0,8,30,26,86,1B,F1,35,30,00,
1966113,000003B4,false,Rx,0,8,00,00,0D,F4,BD,FF,09,B2,
1966990,00000615,false,Rx,0,8,F1,21,01,5E,64,00,00,00,
1967724,000000EF,false,Rx,0,8,9F,F3,00,7D,21,00,7D,FF,
1968273,000001A1,false,Rx,0,5,5B,C9,00,00,8A,00,00,00,
1968553,00000100,false,Rx,0,8,7A,F0,7F,C0,5D,1B,87,70,
1968771,00000112,false,Rx,0,8,E0,24,2D,0E,F2,71,75,5B,
1969009,00000140,false,Rx,0,8,AA,69,40,9C,00,00,04,FF,
1969248,00000141,false,Rx,0,8,C6,79,40,9C,00,00,F4,FF,
1969447,00000199,false,Rx,0,6,FF,FF,72,7E,FF,3F,00,00,
1969664,0000019A,false,Rx,0,6,FF,FF,30,7F,FF,3F,00,00,
1969871,0000019F,false,Rx,0,6,FF,FF,06,80,FF,2F,00,00,
1970120,00000254,false,Rx,0,8,FF,7F,FF,7F,FF,7F,FF,7F,
1970246,00000258,false,Rx,0,2,11,11,00,00,00,00,00,00,
1970473,00000302,false,Rx,0,7,FF,FF,AE,83,FE,FF,FF,00,
1970814,00000615,false,Rx,0,8,F1,22,00,01,00,00,00,00,
1971518,000000C3,false,Rx,0,8,94,74,00,40,00,7D,FF,FF,
1971777,00000201,false,Rx,0,8,1D,EC,BB,3B,FF,FF,FF,FF,
1973373,000000A5,false,Rx,0,8,52,FC,FF,F7,7F,00,00,C1,
1973508,000000AC,false,Rx,0,2,00,F0,00,00,00,00,00,00,
1973755,000000D9,false,Rx,0,8,1E,FC,00,10,00,F0,7F,C0,
1973994,000000F3,false,Rx,0,8,30,0C,00,FF,F0,C0,FF,FF,
1974810,00000615,false,Rx,0,8,F1,23,00,00,FF,FF,FF,FF,
1974997,000002A7,false,Rx,0,5,C1,F4,FE,FF,14,00,00,00,
1977739,0000015F,false,Rx,0,8,2B,F4,00,7D,00,EE,00,7D,
1978345,00000100,false,Rx,0,8,27,F1,7F,C0,5D,1B,87,70,
1978574,00000112,false,Rx,0,8,DE,24,2D,0E,F2,71,75,5B,
1978976,00000197,false,Rx,0,4,8C,06,0E,C0,00,00,00,00,
1979709,0000013A,false,Rx,0,8,51,FA,00,00,00,0E,FF,FF,
1979948,0000019D,false,Rx,0,8,DE,32,8E,01,FF,FF,FF,FF,
1980182,000002C5,false,Rx,0,7,A1,FE,00,60,06,70,C8,00,
1980451,000007BE,false,Rx,0,8,0B,00,00,00,00,00,00,00,
1981514,000000C3,false,Rx,0,8,C9,75,00,40,00,7D,FF,FF,
1987728,000000EF,false,Rx,0,8,11,F4,00,7D,21,00,7D,FF,
1988283,000001A1,false,Rx,0,5,7C,CB,00,00,8A,00,00,00,
1988522,00000100,false,Rx,0,8,C0,F2,7F,C0,5D,1B,87,70,
1988750,00000112,false,Rx,0,8,DF,24,2C,0E,F2,71,75,5B,
1988988,00000140,false,Rx,0,8,10,6B,40,9C,00,00,04,FF,
1989228,00000141,false,Rx,0,8,7C,7B,40,9C,00,00,F4,FF,
1989590,00000199,false,Rx,0,6,FF,FF,90,7E,FF,3F,00,00,
1989803,0000019A,false,Rx,0,6,FF,FF,44,7F,FF,3F,00,00,
1990010,0000019F,false,Rx,0,6,FF,FF,06,80,FF,2F,00,00,
1990261,00000254,false,Rx,0,8,FF,7F,FF,7F,FF,7F,FF,7F,
1990386,00000258,false,Rx,0,2,11,11,00,00,00,00,00,00,
1991232,0000029E,false,Rx,0,8,47,88,13,E2,04,FF,FF,FF,
1991501,00000206,false,Rx,0,8,57,22,7F,FF,FF,FF,FF,FF,
1991751,000000C3,false,Rx,0,8,2E,76,00,40,00,7D,FF,FF,
1993409,000000A5,false,Rx,0,8,0F,FD,FF,F7,7F,00,00,C1,
1993545,000000AC,false,Rx,0,2,00,F0,00,00,00,00,00,00,
1993782,000000D9,false,Rx,0,8,43,FD,00,10,00,F0,7F,C0,
1994021,000000F3,false,Rx,0,8,6D,0D,00,FF,F0,C0,FF,FF,
1997729,0000015F,false,Rx,0,8,76,F5,00,7D,00,EE,00,7D,
1998448,00000100,false,Rx,0,8,9D,F3,7F,C0,5D,1B,87,70,
1998678,00000112,false,Rx,0,8,DD,24,2C,0E,F2,71,75,5B,
1999720,0000013A,false,Rx,0,8,82,FC,00,00,00,0E,FF,FF,
2001494,000000C3,false,Rx,0,8,73,77,00,40,00,7D,FF,FF,
2001733,000002B2,false,Rx,0,8,29,0E,D8,04,FF,0F,FF,FF,
2006134,00000272,false,Rx,0,8,E1,F7,05,12,FF,FF,FF,FF,
2007720,000000EF,false,Rx,0,8,4C,F5,00,7D,21,00,7D,FF,
2008274,000001A1,false,Rx,0,5,15,CD,00,00,8A,00,00,00,
2008523,00000100,false,Rx,0,8,13,F4,7F,C0,5D,1B,87,70,
2008751,00000112,false,Rx,0,8,DE,24,2C,0E,F2,71,75,5B,
2008989,00000140,false,Rx,0,8,C3,6D,40,9C,00,00,04,FF,
2009228,00000141,false,Rx,0,8,AF,7D,40,9C,00,00,F4,FF,
2009396,00000197,false,Rx,0,4,03,07,0E,C0,00,00,00,00,
2009602,00000199,false,Rx,0,6,FF,FF,86,7E,FF,3F,00,00,
2009809,0000019A,false,Rx,0,6,FF,FF,44,7F,FF,3F,00,00,
2010006,0000019F,false,Rx,0,6,FF,FF,08,80,FF,2F,00,00,
2010258,00000254,false,Rx,0,8,FF,7F,FF,7F,FF,7F,FF,7F,
2010383,00000258,false,Rx,0,2,11,11,00,00,00,00,00,00,
2010610,00000302,false,Rx,0,7,FF,FF,AE,83,FE,FF,FF,00,
2011261,000002EF,false,Rx,0,8,F4,01,00,40,1F,00,C0,C8,
2011448,000003FD,false,Rx,0,5,B5,09,00,00,FF,00,00,00,
2011687,00000108,false,Rx,0,8,00,7D,FF,FF,47,F1,FF,FF,
2011935,000000C3,false,Rx,0,8,2F,78,00,40,00,7D,FF,FF,
2012153,000000F5,false,Rx,0,7,DC,DC,00,82,00,82,00,00,
2012331,000000FF,false,Rx,0,4,CE,24,F0,00,00,00,00,00,
2012579,00000201,false,Rx,0,8,26,EC,C4,3B,FF,FF,FF,FF,
2012827,00000212,false,Rx,0,8,42,FA,F9,FF,FF,FF,FF,FF,
2013076,000002DB,false,Rx,0,8,FF,FF,FF,FF,BF,FF,FF,FF,
2013316,000002F1,false,Rx,0,8,37,10,7D,7A,01,64,00,A0,
2013555,000000A5,false,Rx,0,8,E8,FE,FF,F7,7F,00,00,C1,
2013690,000000AC,false,Rx,0,2,00,F0,00,00,00,00,00,00,
2013928,000000D9,false,Rx,0,8,A4,FE,00,10,00,F0,7F,C0,
2014166,000000F3,false,Rx,0,8,8A,0E,00,FF,F0,C0,FF,FF,
2015459,00000510,false,Rx,0,8,40,10,20,00,00,00,00,00,
2016992,00000239,false,Rx,0,8,3B,58,44,55,04,FF,FF,FF,
2017736,0000015F,false,Rx,0,8,91,F6,00,7D,00,EE,00,7D,
2018323,00000100,false,Rx,0,8,4E,F5,7F,C0,5D,1B,87,70,
2018552,00000112,false,Rx,0,8,DD,24,2C,0E,F2,71,75,5B,
2019779,0000013A,false,Rx,0,8,38,FE,00,00,00,0E,FF,FF,
2020121,000000FF,false,Rx,0,4,D8,24,F0,00,00,00,00,00,
2021515,000000C3,false,Rx,0,8,72,79,00,40,00,7D,FF,FF,
2021764,00000201,false,Rx,0,8,29,EC,C7,3B,FF,FF,FF,FF,
2022230,00000246,false,Rx,0,6,3F,FB,00,FF,FF,FF,00,00,
2023252,00000299,false,Rx,0,8,FF,00,30,00,00,00,F0,00,
2024526,0000003C,false,Rx,0,8,FF,5F,00,00,00,00,FF,FF,
2024838,000001AE,false,Rx,0,2,F7,FF,00,00,00,00,00,00,
2025302,000002BB,false,Rx,0,5,2A,F0,87,88,F2,00,00,00,
2025541,00000289,false,Rx,0,8,B2,FD,E0,FF,FD,00,EC,01,
2027358,00000200,false,Rx,0,8,0D,01,35,00,00,00,00,FF,
2027721,000000EF,false,Rx,0,8,AB,F6,00,7D,21,00,7D,FF,
2028279,000001A1,false,Rx,0,5,5A,C0,00,00,8A,00,00,00,
2028507,00000100,false,Rx,0,8,A9,F6,7F,C0,5D,1B,87,70,
2028810,00000140,false,Rx,0,8,25,60,40,9C,00,00,04,FF,
2029026,00000112,false,Rx,0,8,DF,24,2C,0E,F2,71,75,5B,
2029256,00000141,false,Rx,0,8,49,70,40,9C,00,00,F4,FF,
2029505,00000163,false,Rx,0,8,FF,FF,16,25,FF,FF,FF,FF,
2029733,00000173,false,Rx,0,8,80,FC,00,0E,30,00,DE,10,
2029940,00000199,false,Rx,0,6,FF,FF,86,7E,FF,3F,00,00,
2030148,0000019A,false,Rx,0,6,FF,FF,44,7F,FF,3F,00,00,
2030377,0000019F,false,Rx,0,6,FF,FF,1B,80,FF,2F,00,00,
2030604,00000254,false,Rx,0,8,FF,7F,FF,7F,FF,7F,FF,7F,
2030730,00000258,false,Rx,0,2,11,11,00,00,00,00,00,00,
2030968,000002E8,false,Rx,0,8,C0,E8,C3,FF,FF,F4,FC,95,
2031217,000007BD,false,Rx,0,8,00,00,00,40,FF,C0,01,00,
2031486,000007BE,false,Rx,0,8,05,00,00,00,00,00,00,E0,
2031736,00000206,false,Rx,0,8,0A,23,7F,FF,FF,FF,FF,FF,
2031984,000000C3,false,Rx,0,8,95,7A,00,40,00,7D,FF,FF,
2033594,000000A5,false,Rx,0,8,E9,F0,FF,F7,7F,00,00,C1,
2033730,000000AC,false,Rx,0,2,00,F0,00,00,00,00,00,00,
2033968,000000D9,false,Rx,0,8,A5,F0,00,10,00,F0,7F,C0,
2034207,000000F3,false,Rx,0,8,8B,00,00,FF,F0,C0,FF,FF,
2035725,0000031C,false,Rx,0,8,FF,FF,FF,FF,FF,FF,FF,FF,
2035922,0000033B,false,Rx,0,6,62,FD,DC,FF,FF,FF,00,00,
2036183,000003C3,false,Rx,0,8,8D,20,08,92,20,00,00,00,
2037729,0000015F,false,Rx,0,8,CC,F7,00,7D,00,EE,00,7D,
2038541,00000100,false,Rx,0,8,F4,F7,7F,C0,5D,1B,87,70,
2038769,00000112,false,Rx,0,8,DE,24,2C,0E,F2,71,75,5B,
2038987,00000197,false,Rx,0,4,85,08,0E,C0,00,00,00,00,
2039247,000002F5,false,Rx,0,8,BF,0F,E2,24,28,0A,06,10,
2039701,0000013A,false,Rx,0,8,64,F1,00,00,00,0E,FF,FF,
2041500,000000C3,false,Rx,0,8,C8,7B,00,40,00,7D,FF,FF,
2045067,00000297,false,Rx,0,7,CC,E5,F0,E0,F2,92,EA,00,
2047717,000000EF,false,Rx,0,8,F6,F7,00,7D,21,00,7D,FF,
2048281,000001A1,false,Rx,0,5,7D,C2,00,00,8A,00,00,00,
2048550,00000100,false,Rx,0,8,A8,F8,7F,C0,5D,1B,87,70,
2048778,00000112,false,Rx,0,8,DF,24,2C,0E,F2,71,75,5B,
2049017,00000140,false,Rx,0,8,9F,62,40,9C,00,00,04,FF,
2049257,00000141,false,Rx,0,8,F3,72,40,9C,00,00,F4,FF,
2049465,00000199,false,Rx,0,6,FF,FF,72,7E,FF,3F,00,00,
2049672,0000019A,false,Rx,0,6,FF,FF,3A,7F,FF,3F,00,00,
2049876,0000019F,false,Rx,0,6,FF,FF,19,80,FF,2F,00,00,
2050126,00000254,false,Rx,0,8,FF,7F,FF,7F,FF,7F,FF,7F,
2050252,00000258,false,Rx,0,2,11,11,00,00,00,00,00,00,
2050479,00000302,false,Rx,0,7,FF,FF,AE,83,FE,FF,FF,00,
2051511,000000C3,false,Rx,0,8,46,7C,00,40,00,7D,FF,FF,
2053392,000002C4,false,Rx,0,8,00,00,FF,00,C8,64,FF,CF,
2053620,000000A5,false,Rx,0,8,B4,F1,FF,F7,7F,00,00,C1,
2053755,000000AC,false,Rx,0,2,00,F0,00,00,00,00,00,00,
2054003,000000D9,false,Rx,0,8,F8,F1,00,10,00,F0,7F,C0,
2054232,000000F3,false,Rx,0,8,D6,01,00,FF,F0,C0,FF,FF,
2054440,00000304,false,Rx,0,6,FF,FF,D6,38,FF,FF,00,00,
2054802,000002A7,false,Rx,0,5,5C,F5,FE,FF,14,00,00,00,
2057732,0000015F,false,Rx,0,8,90,F8,00,7D,00,EE,00,7D,
2058441,00000100,false,Rx,0,8,F5,F9,7F,C0,5D,1B,87,70,
2058669,00000112,false,Rx,0,8,DF,24,2C,0E,F2,71,75,5B,
2058907,00000239,false,Rx,0,8,3B,58,44,55,04,FF,FF,FF,
2059704,0000013A,false,Rx,0,8,DE,F3,00,00,00,0E,FF,FF,
2061522,000000C3,false,Rx,0,8,1B,7D,00,40,00,7D,FF,FF,
2065579,0000012F,false,Rx,0,8,6D,27,86,1B,F1,35,30,00,
2066865,00000314,false,Rx,0,3,50,00,FF,00,00,00,00,00,
2067727,000000EF,false,Rx,0,8,AA,F8,00,7D,21,00,7D,FF,
2068264,000001A1,false,Rx,0,5,14,C4,00,00,8A,00,00,00,
2068523,00000100,false,Rx,0,8,12,FA,7F,C0,5D,1B,87,70,
2068751,00000112,false,Rx,0,8,E0,24,2D,0E,F2,71,75,5B,
2068989,00000140,false,Rx,0,8,4C,64,40,9C,00,00,04,FF,
2069219,00000141,false,Rx,0,8,20,74,40,9C,00,00,F4,FF,
2069386,00000197,false,Rx,0,4,0A,09,0E,C0,00,00,00,00,
2069592,00000199,false,Rx,0,6,FF,FF,90,7E,FF,3F,00,00,
2069799,0000019A,false,Rx,0,6,FF,FF,30,7F,FF,3F,00,00,
2070007,0000019F,false,Rx,0,6,FF,FF,EB,7F,FF,2F,00,00,
2070256,00000254,false,Rx,0,8,FF,7F,FF,7F,FF,7F,FF,7F,
2070381,00000258,false,Rx,0,2,11,11,00,00,00,00,00,00,
2071526,00000206,false,Rx,0,8,84,24,7F,FF,FF,FF,FF,FF,
2071778,000000C3,false,Rx,0,8,FC,7E,00,40,00,7D,FF,FF,
2072027,00000201,false,Rx,0,8,34,EC,D2,3B,FF,FF,FF,FF,
2073390,000000A5,false,Rx,0,8,53,F2,FF,F7,7F,00,00,C1,
2073515,000000AC,false,Rx,0,2,00,F0,00,00,00,00,00,00,
2073764,000000D9,false,Rx,0,8,1F,F2,00,10,00,F0,7F,C0,
2074003,000000F3,false,Rx,0,8,31,02,00,FF,F0,C0,FF,FF,
2077735,0000015F,false,Rx,0,8,CD,F9,00,7D,00,EE,00,7D,
2078454,00000100,false,Rx,0,8,4F,FB,7F,C0,5D,1B,87,70,
2078672,00000112,false,Rx,0,8,E0,24,2D,0E,F2,71,75,5B,
2079136,00000431,false,Rx,0,8,C6,FD,3F,00,0D,9E,F7,00,
2079675,000002C5,false,Rx,0,7,22,F0,00,60,06,70,C8,00,
2079916,0000013A,false,Rx,0,8,0D,F5,00,00,00,0E,FF,FF,
2080051,000002CA,false,Rx,0,2,7D,82,00,00,00,00,00,00,
2080259,000002F7,false,Rx,0,6,02,D8,49,0B,11,F1,00,00,
2081507,000000C3,false,Rx,0,8,FD,70,00,40,00,7D,FF,FF,
2087725,000000EF,false,Rx,0,8,F7,F9,00,7D,21,00,7D,FF,
2088279,000001A1,false,Rx,0,5,33,C6,00,00,8A,00,00,00,
2088549,00000100,false,Rx,0,8,C1,FC,7F,C0,5D,1B,87,70,
2088766,00000112,false,Rx,0,8,E2,24,2C,0E,F2,71,75,5B,
2089004,00000140,false,Rx,0,8,F6,66,40,9C,00,00,04,FF,
2089245,00000141,false,Rx,0,8,9A,76,40,9C,00,00,F4,FF,
2089555,00000432,false,Rx,0,8,BC,DC,15,BD,5A,7C,2D,BC,
2089752,00000199,false,Rx,0,6,FF,FF,7C,7E,FF,3F,00,00,
2089958,0000019A,false,Rx,0,6,FF,FF,44,7F,FF,3F,00,00,
2090177,0000019F,false,Rx,0,6,FF,FF,F1,7F,FF,2F,00,00,
2090415,00000254,false,Rx,0,8,FF,7F,FF,7F,FF,7F,FF,7F,
2090550,00000258,false,Rx,0,2,11,11,00,00,00,00,00,00,
2090778,00000302,false,Rx,0,7,FF,FF,AE,83,FE,FF,FF,00,
2091336,0000029E,false,Rx,0,8,47,88,13,E2,04,FF,FF,FF,
2091575,000000C3,false,Rx,0,8,A0,71,00,40,00,7D,FF,FF,
2093430,000000A5,false,Rx,0,8,0E,F3,FF,F7,7F,00,00,C1,
2093565,000000AC,false,Rx,0,2,00,F0,00,00,00,00,00,00,
2093803,000000D9,false,Rx,0,8,42,F3,00,10,00,F0,7F,C0,
2094041,000000F3,false,Rx,0,8,6C,03,00,FF,F0,C0,FF,FF,
2094847,0000036E,false,Rx,0,5,73,F3,FE,FF,14,00,00,00,
2095550,000001E1,false,Rx,0,6,B9,F4,05,FF,FF,FF,00,00,
2097735,0000015F,false,Rx,0,8,2A,FA,00,7D,00,EE,00,7D,
2098537,00000100,false,Rx,0,8,9C,FD,7F,C0,5D,1B,87,70,
2098765,00000112,false,Rx,0,8,E2,24,2C,0E,F2,71,75,5B,
2098993,00000197,false,Rx,0,4,86,0A,0E,C0,00,00,00,00,
2099705,0000013A,false,Rx,0,8,B7,F7,00,00,00,0E,FF,FF,
2101441,000002B2,false,Rx,0,8,29,0E,D8,04,FF,0F,FF,FF,
2101689,000000C3,false,Rx,0,8,47,72,00,40,00,7D,FF,FF,
2107729,000000EF,false,Rx,0,8,10,FA,00,7D,21,00,7D,FF,
2108283,000001A1,false,Rx,0,5,C6,C8,00,00,8A,00,00,00,
2108511,00000100,false,Rx,0,8,7B,FE,7F,C0,5D,1B,87,70,
2108729,00000112,false,Rx,0,8,E2,24,2C,0E,F2,71,75,5B,
2108967,00000140,false,Rx,0,8,F7,68,40,9C,00,00,04,FF,
2109208,00000141,false,Rx,0,8,9B,78,40,9C,00,00,F4,FF,
2109405,00000199,false,Rx,0,6,FF,FF,86,7E,FF,3F,00,00,
2109612,0000019A,false,Rx,0,6,FF,FF,4E,7F,FF,3F,00,00,
2109827,0000019F,false,Rx,0,6,FF,FF,FD,7F,FF,2F,00,00,
2110066,00000254,false,Rx,0,8,FF,7F,FF,7F,FF,7F,FF,7F,
2110202,00000258,false,Rx,0,2,11,11,00,00,00,00,00,00,
2111356,000002EF,false,Rx,0,8,F4,01,00,40,1F,00,C0,C8,
2111596,00000108,false,Rx,0,8,00,7D,FF,FF,47,F1,FF,FF,
2111782,000003FD,false,Rx,0,5,0F,0A,00,00,FF,00,00,00,
2112026,000000C3,false,Rx,0,8,1A,73,00,40,00,7D,FF,FF,
2112276,000001B5,false,Rx,0,8,0C,4D,82,71,FF,FF,FF,FF,
2112535,00000206,false,Rx,0,8,D9,25,7F,FF,FF,FF,FF,FF,
2112794,00000212,false,Rx,0,8,1F,FB,F9,FF,FF,FF,FF,FF,
2113043,000002DB,false,Rx,0,8,FF,FF,FF,FF,BF,FF,FF,FF,
2113293,000002F1,false,Rx,0,8,37,10,7D,7A,01,64,00,A0,
2113531,000000A5,false,Rx,0,8,80,F4,FF,F7,7F,00,00,C1,
2113656,000000AC,false,Rx,0,2,00,F0,00,00,00,00,00,00,
2113905,000000D9,false,Rx,0,8,CC,F4,00,10,00,F0,7F,C0,
2114143,000000F3,false,Rx,0,8,E2,04,00,FF,F0,C0,FF,FF,
2114382,0000032B,false,Rx,0,8,FF,FF,FF,FF,FF,FF,00,FF,
2114632,00000331,false,Rx,0,8,FF,FF,FF,EF,7F,FE,F7,FF,
2114870,000003E9,false,Rx,0,8,5C,8F,21,A1,7C,7C,20,45,
2115665,0000036F,false,Rx,0,5,48,F4,FE,FF,14,00,00,00,
2117240,00000239,false,Rx,0,8,3B,59,44,55,04,FF,FF,FF,
2117726,0000015F,false,Rx,0,8,77,FB,00,7D,00,EE,00,7D,
2118334,00000100,false,Rx,0,8,7A,F0,7F,C0,5D,1B,87,70,
2118562,00000112,false,Rx,0,8,E3,24,2C,0E,F2,71,75,5B,
2119768,0000013A,false,Rx,0,8,B6,F9,00,00,00,0E,FF,FF,
2121503,000000C3,false,Rx,0,8,94,74,00,40,00,7D,FF,FF,
2121751,00000201,false,Rx,0,8,40,EC,DE,3B,FF,FF,FF,FF,
2124371,000000C0,false,Rx,0,2,FC,40,00,00,00,00,00,00,
2124625,0000003C,false,Rx,0,8,FF,5F,00,00,00,00,FF,FF,
2124853,000001AE,false,Rx,0,2,F7,FF,00,00,00,00,00,00,
2125318,000002BB,false,Rx,0,5,91,FA,87,88,F2,00,00,00,
2125556,00000289,false,Rx,0,8,55,FE,E0,FF,FD,00,EC,01,
2126878,00000349,false,Rx,0,5,FE,FF,FE,FF,00,00,00,00,
2127136,000002FC,false,Rx,0,8,81,05,00,FF,FF,FF,FF,FF,
2127726,000000EF,false,Rx,0,8,4D,FB,00,7D,21,00,7D,FF,
2128264,000001A1,false,Rx,0,5,E1,CA,00,00,8A,00,00,00,
2128504,00000100,false,Rx,0,8,27,F1,7F,C0,5D,1B,87,70,
2128773,00000140,false,Rx,0,8,4D,6A,40,9C,00,00,04,FF,
2128991,00000112,false,Rx,0,8,E3,24,2C,0E,F2,71,75,5B,
2129232,00000141,false,Rx,0,8,21,7A,40,9C,00,00,F4,FF,
2129470,00000163,false,Rx,0,8,FF,FF,16,25,FF,FF,FF,FF,
2129708,00000173,false,Rx,0,8,B5,F7,00,0E,30,00,DE,10,
2129865,00000197,false,Rx,0,4,09,0B,0E,C0,00,00,00,00,
2130072,00000199,false,Rx,0,6,FF,FF,86,7E,FF,3F,00,00,
2130280,0000019A,false,Rx,0,6,FF,FF,44,7F,FF,3F,00,00,
2130478,0000019F,false,Rx,0,6,FF,FF,00,80,FF,2F,00,00,
2130728,00000254,false,Rx,0,8,FF,7F,FF,7F,FF,7F,FF,7F,
2130853,00000258,false,Rx,0,2,11,11,00,00,00,00,00,00,
2131090,000002E8,false,Rx,0,8,C0,E8,C3,FF,FF,F4,FD,88,
2131319,00000301,false,Rx,0,7,FF,FF,28,83,FF,FF,CF,00,
2131558,000000C3,false,Rx,0,8,C9,75,00,40,00,7D,FF,FF,
2131786,00000302,false,Rx,0,7,FF,FF,AE,83,FE,FF,FF,00,
2132034,000007BD,false,Rx,0,8,00,00,00,40,FF,C0,01,00,
2132307,000007BE,false,Rx,0,8,0C,41,04,69,00,00,00,00,
2133566,000000A5,false,Rx,0,8,DD,F5,FF,F7,7F,00,00,C1,
2133692,000000AC,false,Rx,0,2,00,F0,00,00,00,00,00,00,
2133940,000000D9,false,Rx,0,8,91,F5,00,10,00,F0,7F,C0,
2134179,000000F3,false,Rx,0,8,BF,05,00,FF,F0,C0,FF,FF,
2134780,000002A7,false,Rx,0,5,E6,F6,FE,FF,14,00,00,00,
2137734,0000015F,false,Rx,0,8,F9,FC,00,7D,00,EE,00,7D,
2138458,00000100,false,Rx,0,8,C0,F2,7F,C0,5D,1B,87,70,
2138673,00000112,false,Rx,0,8,E4,24,2C,0E,F2,71,75,5B,
2139139,000002F5,false,Rx,0,8,BF,0F,E2,24,28,0A,06,10,
2139707,0000013A,false,Rx,0,8,0C,FB,00,00,00,0E,FF,FF,
2141503,000000C3,false,Rx,0,8,2E,76,00,40,00,7D,FF,FF,
2141823,00000348,false,Rx,0,8,A7,07,0A,FE,FE,5C,20,00,
2147726,000000EF,false,Rx,0,8,C3,FC,00,7D,21,00,7D,FF,
2148270,000001A1,false,Rx,0,5,88,CC,00,00,8A,00,00,00,
2148539,00000100,false,Rx,0,8,9D,F3,7F,C0,5D,1B,87,70,
2148757,00000112,false,Rx,0,8,E4,24,2D,0E,F2,71,75,5B,
2148995,00000140,false,Rx,0,8,9E,6C,40,9C,00,00,04,FF,
2149235,00000141,false,Rx,0,8,F2,7C,40,9C,00,00,F4,FF,
2149432,00000199,false,Rx,0,6,FF,FF,A4,7E,FF,3F,00,00,
2149639,0000019A,false,Rx,0,6,FF,FF,3A,7F,FF,3F,00,00,
2149856,0000019F,false,Rx,0,6,FF,FF,F9,7F,FF,2F,00,00,
2150093,00000254,false,Rx,0,8,FF,7F,FF,7F,FF,7F,FF,7F,
2150230,00000258,false,Rx,0,2,11,11,00,00,00,00,00,00,
2151529,00000206,false,Rx,0,8,3E,26,7F,FF,FF,FF,FF,FF,
2151777,000000C3,false,Rx,0,8,73,77,00,40,00,7D,FF,FF,
2153329,000002C4,false,Rx,0,8,00,00,FF,00,C8,64,FF,CF,
2153567,000000A5,false,Rx,0,8,3A,F6,FF,F7,7F,00,00,C1,
2153704,000000AC,false,Rx,0,2,00,F0,00,00,00,00,00,00,
2153940,000000D9,false,Rx,0,8,76,F6,00,10,00,F0,7F,C0,
2154179,000000F3,false,Rx,0,8,58,06,00,FF,F0,C0,FF,FF,
2157724,0000015F,false,Rx,0,8,A4,FD,00,7D,00,EE,00,7D,
2158526,00000100,false,Rx,0,8,13,F4,7F,C0,5D,1B,87,70,
2158754,00000112,false,Rx,0,8,E5,24,2D,0E,F2,71,75,5B,
2158982,00000197,false,Rx,0,4,83,0C,0E,C0,00,00,00,00,
2159705,0000013A,false,Rx,0,8,DF,FD,00,00,00,0E,FF,FF,
2161503,000000C3,false,Rx,0,8,2F,78,00,40,00,7D,FF,FF,
2161731,0000043D,false,Rx,0,8,0A,50,E2,FF,21,07,08,F0,
2165584,0000012F,false,Rx,0,8,31,28,86,1B,F1,35,30,00,
2166313,000003B4,false,Rx,0,8,00,00,0D,F4,BD,FF,09,B2,
2167722,000000EF,false,Rx,0,8,9E,FD,00,7D,21,00,7D,FF,
2168282,000001A1,false,Rx,0,5,AF,CE,00,00,8A,00,00,00,
2168550,00000100,false,Rx,0,8,4E,F5,7F,C0,5D,1B,87,70,
2168768,00000112,false,Rx,0,8,E4,24,2C,0E,F2,71,75,5B,
2169007,00000140,false,Rx,0,8,24,6E,40,9C,00,00,04,FF,
2169247,00000141,false,Rx,0,8,48,7E,40,9C,00,00,F4,FF,
2169444,00000199,false,Rx,0,6,FF,FF,86,7E,FF,3F,00,00,
2169659,0000019A,false,Rx,0,6,FF,FF,3A,7F,FF,3F,00,00,
2169867,0000019F,false,Rx,0,6,FF,FF,F8,7F,FF,2F,00,00,
2170115,00000254,false,Rx,0,8,FF,7F,FF,7F,FF,7F,FF,7F,
2170242,00000258,false,Rx,0,2,11,11,00,00,00,00,00,00,
2170468,00000302,false,Rx,0,7,FF,FF,AE,83,FE,FF,FF,00,
2171501,000000C3,false,Rx,0,8,72,79,00,40,00,7D,FF,FF,
2171745,00000201,false,Rx,0,8,4C,EC,EA,3B,FF,FF,FF,FF,
2173375,000000A5,false,Rx,0,8,67,F7,FF,F7,7F,00,00,C1,
2173510,000000AC,false,Rx,0,2,00,F0,00,00,00,00,00,00,
2173748,000000D9,false,Rx,0,8,2B,F7,00,10,00,F0,7F,C0,
2173986,000000F3,false,Rx,0,8,05,07,00,FF,F0,C0,FF,FF,
2177737,0000015F,false,Rx,0,8,43,FE,00,7D,00,EE,00,7D,
2178365,00000100,false,Rx,0,8,A9,F6,7F,C0,5D,1B,87,70,
2178593,00000112,false,Rx,0,8,E3,24,2C,0E,F2,71,75,5B,
2179707,0000013A,false,Rx,0,8,39,F0,00,00,00,0E,FF,FF,
2179926,000002C5,false,Rx,0,7,64,F1,00,60,06,70,C8,00,
2180196,000007BD,false,Rx,0,8,10,00,00,00,00,00,00,00,
2180465,000007BE,false,Rx,0,8,00,C0,FA,1C,02,00,00,00,
2181498,000000C3,false,Rx,0,8,95,7A,00,40,00,7D,FF,FF,
2181746,0000043C,false,Rx,0,8,FE,FE,FF,FF,FF,FF,FF,FF,
2186747,000001D6,false,Rx,0,2,F0,C0,00,00,00,00,00,00,
2187721,000000EF,false,Rx,0,8,79,FE,00,7D,21,00,7D,FF,
2188270,000001A1,false,Rx,0,5,C7,C1,00,00,8A,00,00,00,
2188518,00000100,false,Rx,0,8,F4,F7,7F,C0,5D,1B,87,70,
2188736,00000112,false,Rx,0,8,E4,24,2C,0E,F2,71,75,5B,
2188977,00000140,false,Rx,0,8,78,61,40,9C,00,00,04,FF,
2189216,00000141,false,Rx,0,8,14,71,40,9C,00,00,F4,FF,
2189372,00000197,false,Rx,0,4,0C,0D,0E,C0,00,00,00,00,
2189579,00000199,false,Rx,0,6,FF,FF,9A,7E,FF,3F,00,00,
2189787,0000019A,false,Rx,0,6,FF,FF,3A,7F,FF,3F,00,00,
2189994,0000019F,false,Rx,0,6,FF,FF,FE,7F,FF,2F,00,00,
2190243,00000254,false,Rx,0,8,FF,7F,FF,7F,FF,7F,FF,7F,
2190368,00000258,false,Rx,0,2,11,11,00,00,00,00,00,00,
2191430,0000029E,false,Rx,0,8,47,88,13,E2,04,FF,FF,FF,
2191678,00000206,false,Rx,0,8,63,27,7F,FF,FF,FF,FF,FF,
2191927,000000C3,false,Rx,0,8,C8,7B,00,40,00,7D,FF,FF,
2193414,000000A5,false,Rx,0,8,3B,F8,FF,F7,7F,00,00,C1,
2193550,000000AC,false,Rx,0,2,00,F0,00,00,00,00,00,00,
2193798,000000D9,false,Rx,0,8,77,F8,00,10,00,F0,7F,C0,
2194036,000000F3,false,Rx,0,8,59,08,00,FF,F0,C0,FF,FF,
2197724,0000015F,false,Rx,0,8,42,F0,00,7D,00,EE,00,7D,
2198443,00000100,false,Rx,0,8,A8,F8,7F,C0,5D,1B,87,70,
2198661,00000112,false,Rx,0,8,E3,24,2C,0E,F2,71,75,5B,
2199713,0000013A,false,Rx,0,8,83,F2,00,00,00,0E,FF,FF,
2201437,000002B2,false,Rx,0,8,29,0E,D7,04,FF,0F,FF,FF,
2201686,000000C3,false,Rx,0,8,46,7C,00,40,00,7D,FF,FF,
2206347,00000272,false,Rx,0,8,BD,F8,05,12,FF,FF,FF,FF,
2207726,000000EF,false,Rx,0,8,78,F0,00,7D,21,00,7D,FF,
2208274,000001A1,false,Rx,0,5,E0,C3,00,00,8A,00,00,00,
2208530,00000100,false,Rx,0,8,F5,F9,7F,C0,5D,1B,87,70,
2208748,00000112,false,Rx,0,8,E4,24,2C,0E,F2,71,85,5B,
2208987,00000140,false,Rx,0,8,C2,63,40,9C,00,00,04,FF,
2209227,00000141,false,Rx,0,8,AE,73,40,9C,00,00,F4,FF,
2209424,00000199,false,Rx,0,6,FF,FF,86,7E,FF,3F,00,00,
2209630,0000019A,false,Rx,0,6,FF,FF,44,7F,FF,3F,00,00,
2209839,0000019F,false,Rx,0,6,FF,FF,E5,7F,FF,2F,00,00,
2210087,00000254,false,Rx,0,8,FF,7F,FF,7F,FF,7F,FF,7F,
2210245,000000FF,false,Rx,0,4,CE,24,F0,00,00,00,00,00,
2210380,00000258,false,Rx,0,2,11,11,00,00,00,00,00,00,
2210611,00000302,false,Rx,0,7,FF,FF,AE,83,FE,FF,FF,00,
2211447,000003FD,false,Rx,0,5,92,0B,00,00,FF,00,00,00,
2211685,00000108,false,Rx,0,8,00,7D,FF,FF,47,F1,FF,FF,
2211933,000000C3,false,Rx,0,8,1B,7D,00,40,00,7D,FF,FF,
2212162,000002EF,false,Rx,0,8,F4,01,00,40,1F,00,C0,C8,
2212412,00000212,false,Rx,0,8,91,FC,F9,FF,FF,FF,FF,FF,
2212656,000002DB,false,Rx,0,8,FF,FF,FF,FF,BF,FF,FF,FF,
2212906,000002F1,false,Rx,0,8,37,10,7D,7A,01,64,00,A0,
2213484,000000A5,false,Rx,0,8,66,F9,FF,F7,7F,00,00,C1,
2213611,000000AC,false,Rx,0,2,00,F0,00,00,00,00,00,00,
2213858,000000D9,false,Rx,0,8,2A,F9,00,10,00,F0,7F,C0,
2214096,000000F3,false,Rx,0,8,04,09,00,FF,F0,C0,FF,FF,
2214856,000002A7,false,Rx,0,5,7B,F7,FE,FF,14,00,00,00,
2217245,00000239,false,Rx,0,8,3B,5A,44,55,04,FF,FF,FF,
2217721,0000015F,false,Rx,0,8,1F,F1,00,7D,00,EE,00,7D,
2218331,00000100,false,Rx,0,8,12,FA,7F,C0,5D,1B,87,70,
2218549,00000112,false,Rx,0,8,E4,24,2C,0E,F2,71,85,5B,
2218994,00000197,false,Rx,0,4,80,0E,0E,C0,00,00,00,00,
2219768,0000013A,false,Rx,0,8,50,F4,00,00,00,0E,FF,FF,
2220615,000002ED,false,Rx,0,3,C2,0C,02,00,00,00,00,00,
2221512,000000C3,false,Rx,0,8,FC,7E,00,40,00,7D,FF,FF,
2221750,00000201,false,Rx,0,8,58,EC,F5,3B,FF,FF,FF,FF,
2224524,0000003C,false,Rx,0,8,FF,5F,00,00,00,00,FF,FF,
2224881,000001AE,false,Rx,0,2,F7,FF,00,00,00,00,00,00,
2225358,000002BB,false,Rx,0,5,F9,F5,87,88,F2,00,00,00,
2225596,00000289,false,Rx,0,8,54,F0,E0,FF,FD,00,EC,01,
2225751,000003CB,false,Rx,0,4,DE,AD,C8,AB,00,00,00,00,
2226908,00000314,false,Rx,0,3,50,00,FF,00,00,00,00,00,
2227723,000000EF,false,Rx,0,8,25,F1,00,7D,21,00,7D,FF,
2228272,000001A1,false,Rx,0,5,89,C5,00,00,8A,00,00,00,
2228510,00000100,false,Rx,0,8,4F,FB,7F,C0,5D,1B,87,70,
2228790,00000140,false,Rx,0,8,11,65,40,9C,00,00,04,FF,
2229019,00000112,false,Rx,0,8,E5,24,2C,0E,F2,71,85,5B,
2229248,00000141,false,Rx,0,8,7D,75,40,9C,00,00,F4,FF,
2229497,00000163,false,Rx,0,8,FF,FF,16,25,FF,FF,FF,FF,
2229726,00000173,false,Rx,0,8,81,F2,00,0E,30,00,DE,10,
2229933,00000199,false,Rx,0,6,FF,FF,90,7E,FF,3F,00,00,
2230140,0000019A,false,Rx,0,6,FF,FF,44,7F,FF,3F,00,00,
2230348,0000019F,false,Rx,0,6,FF,FF,10,80,FF,2F,00,00,
2230618,00000254,false,Rx,0,8,FF,7F,FF,7F,FF,7F,FF,7F,
2230723,00000258,false,Rx,0,2,11,11,00,00,00,00,00,00,
2230960,000002E8,false,Rx,0,8,C0,E8,C3,FF,FF,F4,FE,AF,
2231147,00000369,false,Rx,0,5,FF,F3,FF,FF,FF,00,00,00,
2231397,000007BD,false,Rx,0,8,00,00,00,40,FF,C0,01,00,
2231645,00000206,false,Rx,0,8,3F,28,7F,FF,FF,FF,FF,FF,
2231894,000007BE,false,Rx,0,8,05,00,00,00,00,00,00,E0,
2232133,000000C3,false,Rx,0,8,FD,70,00,40,00,7D,FF,FF,
2233629,000000A5,false,Rx,0,8,81,FA,FF,F7,7F,00,00,C1,
2233754,000000AC,false,Rx,0,2,00,F0,00,00,00,00,00,00,
2234002,000000D9,false,Rx,0,8,CD,FA,00,10,00,F0,7F,C0,
2234241,000000F3,false,Rx,0,8,E3,0A,00,FF,F0,C0,FF,FF,
2235728,0000031C,false,Rx,0,8,FF,FF,FF,FF,FF,FF,FF,FF,
2235936,0000033B,false,Rx,0,6,DC,FE,DC,FF,FF,FF,00,00,
2236154,000003A7,false,Rx,0,7,D0,F1,00,00,1F,11,F0,00,
2236290,000003E6,false,Rx,0,2,50,00,00,00,00,00,00,00,
2237724,0000015F,false,Rx,0,8,F8,F2,00,7D,00,EE,00,7D,
2238447,00000100,false,Rx,0,8,C1,FC,7F,C0,5D,1B,87,70,
2238665,00000112,false,Rx,0,8,E4,24,2C,0E,F2,71,85,5B,
2239131,000002F5,false,Rx,0,8,BF,0F,E2,24,28,0A,06,10,
2239545,00000300,false,Rx,0,8,38,32,59,96,65,59,96,65,
2239784,0000013A,false,Rx,0,8,EA,F6,00,00,00,0E,FF,FF,
2241519,000000C3,false,Rx,0,8,A0,71,00,40,00,7D,FF,FF,
2245114,00000297,false,Rx,0,7,06,E6,F0,E0,F2,92,EA,00,
2247722,000000EF,false,Rx,0,8,0C,F2,00,7D,21,FC,7C,FF,
2248266,000001A1,false,Rx,0,5,AE,C7,00,00,8A,00,00,00,
2248514,00000100,false,Rx,0,8,9C,FD,7F,C0,5D,1B,87,70,
2248742,00000112,false,Rx,0,8,E5,24,2D,0E,F2,71,85,5B,
2248971,00000140,false,Rx,0,8,AB,67,40,9C,00,00,04,FF,
2249211,00000141,false,Rx,0,8,C7,77,40,9C,00,00,F4,FF,
2249377,00000197,false,Rx,0,4,89,00,0E,C0,00,00,00,00,
2249573,00000199,false,Rx,0,6,FF,FF,9A,7E,FF,3F,00,00,
2249789,0000019A,false,Rx,0,6,FF,FF,4E,7F,FF,3F,00,00,
2249986,0000019F,false,Rx,0,6,FF,FF,10,80,FF,2F,00,00,
2250235,00000254,false,Rx,0,8,FF,7F,FF,7F,FF,7F,FF,7F,
2250360,00000258,false,Rx,0,2,11,11,00,00,00,00,00,00,
2250599,00000302,false,Rx,0,7,FF,FF,AE,83,FE,FF,FF,00,
2250837,0000021F,false,Rx,0,8,00,00,00,00,00,EE,F0,FF,
2251498,000000C3,false,Rx,0,8,47,72,00,40,00,7D,FF,FF,
2252332,000003D8,false,Rx,0,8,03,FF,FF,FF,FF,FF,FF,FF,
2253395,000002C4,false,Rx,0,8,00,00,FF,00,C8,64,FF,CF,
2253634,000000A5,false,Rx,0,8,DC,FB,FF,F7,7F,00,00,C1,
2253770,000000AC,false,Rx,0,2,00,F0,00,00,00,00,00,00,
2254008,000000D9,false,Rx,0,8,90,FB,00,10,00,F0,7F,C0,
2254249,000000F3,false,Rx,0,8,BE,0B,00,FF,F0,C0,FF,FF,
2254456,00000304,false,Rx,0,6,FF,FF,D7,38,FF,FF,00,00,
2254694,000003F9,false,Rx,0,8,7C,FE,80,E0,A6,30,C3,FF,
2254870,0000036E,false,Rx,0,5,87,F4,FE,FF,14,00,00,00,
2257721,0000015F,false,Rx,0,8,A5,F3,00,7D,00,EE,00,7D,
2258450,00000100,false,Rx,0,8,7B,FE,7F,C0,5D,1B,87,70,
2258678,00000112,false,Rx,0,8,E4,24,2D,0E,F2,71,85,5B,
2258907,00000239,false,Rx,0,8,3B,5A,44,55,04,FF,FF,FF,
2259714,0000013A,false,Rx,0,8,EB,F8,00,00,00,0E,FF,FF,
2261491,00000201,false,Rx,0,8,61,EC,FE,3B,FF,FF,FF,FF,
2261750,000000C3,false,Rx,0,8,1A,73,00,40,00,7D,FF,FF,
2261977,000000F5,false,Rx,0,7,DC,DC,00,82,00,82,00,00,
2262143,000000FF,false,Rx,0,4,CE,24,F0,00,00,00,00,00,
2265584,0000012F,false,Rx,0,8,6C,29,86,1B,F1,35,30,00,
2267715,000000EF,false,Rx,0,8,9F,F3,00,7D,21,00,7D,FF,
2268270,000001A1,false,Rx,0,5,5B,C9,00,00,8A,00,00,00,
2268548,00000100,false,Rx,0,8,7A,F0,7F,C0,5D,1B,87,70,
2268776,00000112,false,Rx,0,8,E5,24,2C,0E,F2,71,85,5B,
2269016,00000140,false,Rx,0,8,AA,69,40,9C,00,00,04,FF,
2269245,00000141,false,Rx,0,8,C6,79,40,9C,00,00,F4,FF,
2269452,00000199,false,Rx,0,6,FF,FF,90,7E,FF,3F,00,00,
2269661,0000019A,false,Rx,0,6,FF,FF,4E,7F,FF,3F,00,00,
2269868,0000019F,false,Rx,0,6,FF,FF,08,80,FF,2F,00,00,
2270115,00000254,false,Rx,0,8,FF,7F,FF,7F,FF,7F,FF,7F,
2270242,00000258,false,Rx,0,2,11,11,00,00,00,00,00,00,
2271500,00000206,false,Rx,0,8,62,29,7F,FF,FF,FF,FF,FF,
2271758,000000C3,false,Rx,0,8,94,74,00,40,00,7D,FF,FF,
2271999,00000201,false,Rx,0,8,63,EC,01,3C,FF,FF,FF,FF,
