Time Stamp,ID,Extended,Dir,Bus,LEN,D1,D2,D3,D4,D5,D6,D7,D8
559065705,00000163,false,Rx,0,8,FF,FF,41,25,FF,FF,FF,FF,
559065939,00000173,false,Rx,0,8,11,F2,00,02,20,00,D2,10,
559067087,000000A5,false,Rx,0,8,0E,F3,FF,F7,7F,00,00,C1,
559067222,000000AC,false,Rx,0,2,00,F0,00,00,00,00,00,00,
559067460,000000D9,false,Rx,0,8,42,F3,00,10,00,F0,7F,C0,
559067699,000000F3,false,Rx,0,8,6C,03,00,FF,F0,C0,FF,FF,
559068149,00000100,false,Rx,0,8,17,FA,7F,C0,5D,1D,87,70,
559068419,00000112,false,Rx,0,8,BE,24,31,0E,CB,71,25,5B,
559070109,000000EF,false,Rx,0,8,F7,F9,00,7D,21,00,7D,FF,
559070677,000000C3,false,Rx,0,8,95,7A,00,40,00,7D,FF,FF,
559070864,000001A1,false,Rx,0,5,FC,C6,00,00,81,00,00,00,
559071144,00000140,false,Rx,0,8,8B,66,40,9C,00,00,94,FF,
559071383,00000141,false,Rx,0,8,9A,76,40,9C,00,00,F4,FF,
559073130,0000037F,false,Rx,0,2,FF,DA,00,00,00,00,00,00,
559074023,00000096,false,Rx,0,8,58,00,68,96,01,FF,FF,FF,
559075693,00000199,false,Rx,0,6,FF,FF,BF,7D,FF,3F,00,00,
559075908,0000019A,false,Rx,0,6,FF,FF,32,7F,FF,2F,00,00,
559076107,0000019F,false,Rx,0,6,FF,FF,F7,7F,FF,2F,00,00,
559076355,00000254,false,Rx,0,8,FF,7F,FF,7F,FF,7F,FF,7F,
559076480,00000258,false,Rx,0,2,11,11,00,00,00,00,00,00,
559077141,0000019B,false,Rx,0,8,15,4B,40,55,FD,FF,FF,FF,
559077410,00000348,false,Rx,0,8,00,00,0D,53,FE,E5,9A,CB,
559078036,00000100,false,Rx,0,8,4F,FB,7F,C0,5D,1B,87,70,
559078635,00000112,false,Rx,0,8,BE,24,31,0E,CB,71,25,5B,
559080017,000002E8,false,Rx,0,8,C0,E8,C3,FF,FF,F4,F8,E1,
559080255,0000015F,false,Rx,0,8,2A,FA,00,7D,00,EE,00,7D,
559080628,000003FD,false,Rx,0,5,A3,02,20,00,FF,00,00,00,
559080866,00000108,false,Rx,0,8,00,7D,FF,00,48,F1,FF,FF,
559081105,000000C3,false,Rx,0,8,C8,7B,00,40,00,7D,FF,FF,
559081344,000001B5,false,Rx,0,8,6D,4C,B2,71,FF,FF,FF,FF,
559081603,00000206,false,Rx,0,8,44,2B,CF,FF,FF,FF,FF,FF,
559081862,00000212,false,Rx,0,8,2A,F0,F9,FF,FF,FF,FF,FF,
559082093,0000013A,false,Rx,0,8,B7,F7,00,00,00,0E,FF,FF,
559082341,000002DB,false,Rx,0,8,FF,FF,FF,FF,BF,FF,FF,FF,
559082579,000002F1,false,Rx,0,8,37,10,7D,A4,01,92,00,A0,
559082838,0000032B,false,Rx,0,8,00,00,00,00,FF,FF,00,FF,
559083079,00000331,false,Rx,0,8,FF,FF,FF,EF,7F,FE,F7,FF,
559083286,00000350,false,Rx,0,6,F7,FF,FF,FF,FF,FF,00,00,
559083524,000003E9,false,Rx,0,8,5C,8F,21,C1,70,7D,20,4D,
559083999,00000314,false,Rx,0,3,11,02,FF,00,00,00,00,00,
559085617,00000302,false,Rx,0,7,FF,FF,C5,89,F1,FF,FF,00,
559086710,00000272,false,Rx,0,8,5A,FB,05,12,FF,FF,FF,FF,
559087350,000000A5,false,Rx,0,8,80,F4,FF,F7,7F,00,00,C1,
559087486,000000AC,false,Rx,0,2,00,F0,00,00,00,00,00,00,
559087723,000000D9,false,Rx,0,8,CC,F4,00,10,00,F0,7F,C0,
559087962,000000F3,false,Rx,0,8,E2,04,00,FF,F0,C0,FF,FF,
559088195,00000100,false,Rx,0,8,C4,FC,7F,C0,5D,1D,87,70,
559088403,00000297,false,Rx,0,7,46,EA,F0,ED,F2,92,EA,00,
559088631,00000112,false,Rx,0,8,BE,24,31,0E,CB,71,25,5B,
559089303,00000197,false,Rx,0,4,86,0A,0E,C0,00,00,00,00,
559090110,000000EF,false,Rx,0,8,10,FA,00,7D,21,00,7D,FF,
559090709,000000C3,false,Rx,0,8,46,7C,00,40,00,7D,FF,FF,
559090886,000001A1,false,Rx,0,5,09,C8,00,00,81,00,00,00,
559091124,00000140,false,Rx,0,8,8A,68,40,9C,00,00,94,FF,
559091364,00000141,false,Rx,0,8,9B,78,40,9C,00,00,F4,FF,
559091602,00000201,false,Rx,0,8,F8,35,6B,E0,FF,FF,FF,FF,
559092548,000007BD,false,Rx,0,8,00,00,00,40,FF,C0,03,08,
559092806,000007BE,false,Rx,0,8,07,1B,01,08,06,67,00,00,
559093819,000002A5,false,Rx,0,2,02,0B,00,00,00,00,00,00,
559094006,00000349,false,Rx,0,5,FE,FF,FE,FF,00,00,00,00,
559095697,00000199,false,Rx,0,6,FF,FF,C9,7D,FF,3F,00,00,
559095905,0000019A,false,Rx,0,6,FF,FF,28,7F,FF,2F,00,00,
559096111,0000019F,false,Rx,0,6,FF,FF,E8,7F,FF,2F,00,00,
559096359,00000254,false,Rx,0,8,FF,7F,FF,7F,FF,7F,FF,7F,
559096484,00000258,false,Rx,0,2,11,11,00,00,00,00,00,00,
559097289,0000043D,false,Rx,0,8,0D,FF,EB,FF,29,25,81,50,
559097528,000003CA,false,Rx,0,8,78,70,30,06,06,8E,FF,FF,
559097766,000002AE,false,Rx,0,8,FF,FF,FF,FF,FF,FF,FF,48,
559098036,0000036F,false,Rx,0,5,48,F4,FE,FF,14,00,00,00,
559098272,00000100,false,Rx,0,8,99,FD,7F,C0,5D,1D,87,70,
559098470,000001E1,false,Rx,0,6,00,F5,00,FF,FF,FF,00,00,
559098697,00000112,false,Rx,0,8,BE,24,31,0E,CB,71,25,5B,
559100122,0000015F,false,Rx,0,8,77,FB,00,7D,00,EE,00,7D,
559100682,000000C3,false,Rx,0,8,1B,7D,00,40,00,7D,FF,FF,
559102107,0000029E,false,Rx,0,8,47,7C,15,E2,04,FF,FF,FF,
559102344,0000013A,false,Rx,0,8,B6,F9,00,00,00,0E,FF,FF,
559104077,00000096,false,Rx,0,8,58,00,68,96,01,FF,FF,FF,
559107103,000000A5,false,Rx,0,8,DD,F5,FF,F7,7F,00,00,C1,
559107234,000000AC,false,Rx,0,2,00,F0,00,00,00,00,00,00,
559107482,000000D9,false,Rx,0,8,91,F5,00,10,00,F0,7F,C0,
559107721,000000F3,false,Rx,0,8,BF,05,00,FF,F0,C0,FF,FF,
559107969,00000289,false,Rx,0,8,3C,FA,E0,FF,FD,00,EC,01,
559108199,00000100,false,Rx,0,8,7E,FE,7F,C0,5D,1D,87,70,
559108427,000001FA,false,Rx,0,8,91,65,45,70,52,47,51,54,
559108665,00000239,false,Rx,0,8,7E,57,3D,A9,04,FF,FF,FF,
559108893,00000112,false,Rx,0,8,BE,24,31,0E,CB,71,25,5B,
559109072,000002BB,false,Rx,0,5,2D,FA,5E,25,F2,00,00,00,
559110105,000000EF,false,Rx,0,8,4D,FB,00,7D,21,00,7D,FF,
559110684,000000C3,false,Rx,0,8,FC,7E,00,40,00,7D,FF,FF,
559110870,000001A1,false,Rx,0,5,2E,CA,00,00,81,00,00,00,
559111140,00000140,false,Rx,0,8,30,6A,40,9C,00,00,94,FF,
559111381,00000141,false,Rx,0,8,21,7A,40,9C,00,00,F4,FF,
559111784,000002B2,false,Rx,0,8,42,0E,D8,04,FF,0F,FF,FF,
559115693,00000199,false,Rx,0,6,FF,FF,C9,7D,FF,3F,00,00,
559115897,0000019A,false,Rx,0,6,FF,FF,1E,7F,FF,2F,00,00,
559116116,0000019F,false,Rx,0,6,FF,FF,06,80,FF,2F,00,00,
559116353,00000254,false,Rx,0,8,FF,7F,FF,7F,FF,7F,FF,7F,
559116489,00000258,false,Rx,0,2,11,11,00,00,00,00,00,00,
559117324,0000043C,false,Rx,0,8,FE,FE,FF,FF,FF,FF,FF,FF,
559118082,00000100,false,Rx,0,8,7F,F0,7F,C0,5D,1D,87,70,
559118516,00000112,false,Rx,0,8,BE,24,31,0E,CB,71,25,5B,
559119293,00000197,false,Rx,0,4,09,0B,0E,C0,00,00,00,00,
559119417,000001AE,false,Rx,0,2,F7,FF,00,00,00,00,00,00,
559120120,0000015F,false,Rx,0,8,F9,FC,00,7D,00,EE,00,7D,
559120678,00000206,false,Rx,0,8,8C,2C,CE,FF,FF,FF,FF,FF,
559120937,000000C3,false,Rx,0,8,FD,70,00,40,00,7D,FF,FF,
559121794,000002EF,false,Rx,0,8,00,00,00,80,0C,C8,C0,B6,
559122127,0000013A,false,Rx,0,8,0C,FB,00,00,00,0E,FF,FF,
559125526,000000C0,false,Rx,0,2,FB,40,00,00,00,00,00,00,
559125773,0000003C,false,Rx,0,8,FF,7F,00,01,00,00,FF,FF,
559126001,00000302,false,Rx,0,7,FF,FF,C5,89,F1,FF,FF,00,
559127094,000002C4,false,Rx,0,8,00,00,FF,00,C8,64,FF,CF,
559127333,000000A5,false,Rx,0,8,3A,F6,FF,F7,7F,00,00,C1,
559127572,000000D9,false,Rx,0,8,76,F6,00,10,00,F0,7F,C0,
559127707,000000AC,false,Rx,0,2,00,F0,00,00,00,00,00,00,
559127948,000000F3,false,Rx,0,8,58,06,00,FF,F0,C0,FF,FF,
559128179,0000019D,false,Rx,0,8,87,AA,90,01,FF,FF,FF,FF,
559128417,00000100,false,Rx,0,8,22,F1,7F,C0,5D,1D,87,70,
559128645,0000012F,false,Rx,0,8,4D,52,8A,DD,F1,35,30,88,
559128872,00000112,false,Rx,0,8,BE,24,31,0E,CB,71,25,5B,
559129092,000002C5,false,Rx,0,7,DA,FD,00,30,06,70,C8,00,
559129320,000002F5,false,Rx,0,8,BF,0F,E2,24,27,0A,06,10,
559129527,00000304,false,Rx,0,6,FF,FF,3A,38,FF,FF,00,00,
559130107,000000EF,false,Rx,0,8,C3,FC,00,7D,21,00,7D,FF,
559130696,00000201,false,Rx,0,8,05,36,9A,E0,FF,FF,FF,FF,
559130883,000001A1,false,Rx,0,5,47,CC,00,00,81,00,00,00,
559131133,000000C3,false,Rx,0,8,A0,71,00,40,00,7D,FF,FF,
559131362,00000140,false,Rx,0,8,E3,6C,40,9C,00,00,94,FF,
559131590,000000F5,false,Rx,0,7,DC,DC,00,82,00,82,00,00,
559131818,00000141,false,Rx,0,8,F2,7C,40,9C,00,00,F4,FF,
559131995,000000FF,false,Rx,0,4,D8,24,F0,00,00,00,00,00,
559134010,00000096,false,Rx,0,8,58,00,68,96,01,FF,FF,FF,
559135690,00000199,false,Rx,0,6,FF,FF,C9,7D,FF,3F,00,00,
559135906,0000019A,false,Rx,0,6,FF,FF,28,7F,FF,2F,00,00,
559136104,0000019F,false,Rx,0,6,FF,FF,23,80,FF,2F,00,00,
559136352,00000254,false,Rx,0,8,FF,7F,FF,7F,FF,7F,FF,7F,
559136478,00000258,false,Rx,0,2,11,11,00,00,00,00,00,00,
559137046,000002A7,false,Rx,0,5,E6,F6,FE,FF,14,00,00,00,
559138090,00000100,false,Rx,0,8,C5,F2,7F,C0,5D,1D,87,70,
559138330,0000034A,false,Rx,0,8,3F,4E,7B,FB,7D,F2,32,26,
559138547,00000112,false,Rx,0,8,BE,24,31,0E,CB,71,25,5B,
559140128,0000015F,false,Rx,0,8,A4,FD,00,7D,00,EE,00,7D,
559140706,000000C3,false,Rx,0,8,47,72,00,40,00,7D,FF,FF,
559140955,00000201,false,Rx,0,8,08,36,A6,E0,FF,FF,FF,FF,
559142164,0000013A,false,Rx,0,8,DF,FD,00,00,00,0E,FF,FF,
559142525,000007BE,false,Rx,0,8,00,C0,FA,1C,02,00,00,00,
559147087,000000A5,false,Rx,0,8,67,F7,FF,F7,7F,00,00,C1,
559147219,000000AC,false,Rx,0,2,00,F0,00,00,00,00,00,00,
559147457,000000D9,false,Rx,0,8,2B,F7,00,10,00,F0,7F,C0,
559147705,000000F3,false,Rx,0,8,05,07,00,FF,F0,C0,FF,FF,
559147944,000001B3,false,Rx,0,8,FC,00,00,FA,04,78,8A,B3,
559148174,00000100,false,Rx,0,8,98,F3,7F,C0,5D,1D,87,70,
559148391,00000112,false,Rx,0,8,BE,24,31,0E,CB,71,25,5B,
559148609,00000362,false,Rx,0,7,3C,B1,0B,3A,C3,0B,E5,00,
559149289,00000197,false,Rx,0,4,83,0C,0E,C0,00,00,00,00,
559150125,000000EF,false,Rx,0,8,9E,FD,00,7D,21,00,7D,FF,
559150683,000000C3,false,Rx,0,8,1A,73,00,40,00,7D,FF,FF,
559150869,000001A1,false,Rx,0,5,60,CE,00,00,81,00,00,00,
559151129,00000140,false,Rx,0,8,59,6E,40,9C,00,00,94,FF,
559151372,00000141,false,Rx,0,8,48,7E,40,9C,00,00,F4,FF,
559155699,00000199,false,Rx,0,6,FF,FF,BF,7D,FF,3F,00,00,
559155914,0000019A,false,Rx,0,6,FF,FF,14,7F,FF,2F,00,00,
559156122,0000019F,false,Rx,0,6,FF,FF,F3,7F,FF,2F,00,00,
559156370,00000254,false,Rx,0,8,FF,7F,FF,7F,FF,7F,FF,7F,
559156495,00000258,false,Rx,0,2,11,11,00,00,00,00,00,00,
559157414,000002F2,false,Rx,0,6,00,00,00,00,FF,FF,00,00,
559158151,00000100,false,Rx,0,8,16,F4,7F,C0,5D,1D,87,70,
559158389,0000034C,false,Rx,0,8,20,00,00,00,0A,03,F0,FF,
559158617,00000112,false,Rx,0,8,BE,24,31,0E,CB,71,25,5B,
559159227,00000239,false,Rx,0,8,7E,57,3D,A9,04,FF,FF,FF,
559160128,0000015F,false,Rx,0,8,43,FE,00,7D,00,EE,00,7D,
559160686,00000206,false,Rx,0,8,D1,2D,CE,FF,FF,FF,FF,FF,
559160934,000000C3,false,Rx,0,8,94,74,00,40,00,7D,FF,FF,
559162133,0000013A,false,Rx,0,8,39,F0,00,00,00,0E,FF,FF,
559164109,00000096,false,Rx,0,8,58,00,68,96,01,FF,FF,FF,
559165656,00000163,false,Rx,0,8,FF,FF,41,25,FF,FF,FF,FF,
559165893,00000173,false,Rx,0,8,10,FC,00,02,20,00,D2,10,
559166122,00000302,false,Rx,0,7,FF,FF,C5,89,F1,FF,FF,00,
559167113,000000A5,false,Rx,0,8,3B,F8,FF,F7,7F,00,00,C1,
559167248,000000AC,false,Rx,0,2,00,F0,00,00,00,00,00,00,
559167486,000000D9,false,Rx,0,8,77,F8,00,10,00,F0,7F,C0,
559167725,000000F3,false,Rx,0,8,59,08,00,FF,F0,C0,FF,FF,
559168052,00000100,false,Rx,0,8,4B,F5,7F,C0,5D,1D,87,70,
559168425,00000112,false,Rx,0,8,BE,24,31,0E,CB,71,25,5B,
559168880,000001FA,false,Rx,0,8,91,65,45,70,52,47,51,54,
559169120,00000431,false,Rx,0,8,C6,FD,46,00,0E,98,F7,4B,
559170113,000000EF,false,Rx,0,8,79,FE,00,7D,21,00,7D,FF,
559170681,000000C3,false,Rx,0,8,C9,75,00,40,00,7D,FF,FF,
559170868,000001A1,false,Rx,0,5,08,C1,00,00,81,00,00,00,
559171137,00000140,false,Rx,0,8,05,61,40,9C,00,00,94,FF,
559171377,00000141,false,Rx,0,8,14,71,40,9C,00,00,F4,FF,
559175688,00000199,false,Rx,0,6,FF,FF,C9,7D,FF,3F,00,00,
559175903,0000019A,false,Rx,0,6,FF,FF,0A,7F,FF,2F,00,00,
559176111,0000019F,false,Rx,0,6,FF,FF,FD,7F,FF,2F,00,00,
559176349,00000254,false,Rx,0,8,FF,7F,FF,7F,FF,7F,FF,7F,
559176484,00000258,false,Rx,0,2,11,11,00,00,00,00,00,00,
559177032,0000036E,false,Rx,0,5,87,F4,FE,FF,14,00,00,00,
559177476,00000100,false,Rx,0,8,AC,F6,7F,C0,5D,1D,87,70,
559178647,00000112,false,Rx,0,8,BE,24,31,0E,CB,71,25,5B,
559179288,00000197,false,Rx,0,4,0C,0D,0E,C0,00,00,00,00,
559179946,000002E8,false,Rx,0,8,C0,E8,C3,FF,FF,F4,F9,FC,
559180185,0000015F,false,Rx,0,8,42,F0,00,7D,00,EE,00,7D,
559180424,00000432,false,Rx,0,8,3C,DB,15,BD,55,7C,3E,BC,
559180652,000003FD,false,Rx,0,5,3E,03,20,00,FF,00,00,00,
559180890,00000108,false,Rx,0,8,00,7D,FF,00,48,F1,FF,FF,
559181140,000000C3,false,Rx,0,8,2E,76,00,40,00,7D,FF,FF,
559181389,00000212,false,Rx,0,8,77,F1,F9,FF,FF,FF,FF,FF,
559181638,000002DB,false,Rx,0,8,FF,FF,FF,FF,BF,FF,FF,FF,
559181886,000002F1,false,Rx,0,8,37,10,7D,A4,01,92,00,A0,
559182128,0000013A,false,Rx,0,8,83,F2,00,00,00,0E,FF,FF,
559187123,000000A5,false,Rx,0,8,66,F9,FF,F7,7F,00,00,C1,
559187255,000000AC,false,Rx,0,2,00,F0,00,00,00,00,00,00,
559187493,000000D9,false,Rx,0,8,2A,F9,00,10,00,F0,7F,C0,
559187731,000000F3,false,Rx,0,8,04,09,00,FF,F0,C0,FF,FF,
559188126,00000100,false,Rx,0,8,F1,F7,7F,C0,5D,1D,87,70,
559188405,00000112,false,Rx,0,8,BE,24,31,0E,CB,71,25,5B,
559190112,000000EF,false,Rx,0,8,78,F0,00,7D,21,00,7D,FF,
559190680,000000C3,false,Rx,0,8,73,77,00,40,00,7D,FF,FF,
559190867,000001A1,false,Rx,0,5,2F,C3,00,00,81,00,00,00,
559191116,00000201,false,Rx,0,8,18,36,E0,E0,FF,FF,FF,FF,
559191347,00000140,false,Rx,0,8,BF,63,40,9C,00,00,94,FF,
559191586,00000141,false,Rx,0,8,AE,73,40,9C,00,00,F4,FF,
559192525,000007BD,false,Rx,0,8,00,00,00,40,FF,C0,03,08,
559192795,000007BE,false,Rx,0,8,05,00,00,00,00,00,00,E0,
559194037,00000096,false,Rx,0,8,58,00,68,96,01,FF,FF,FF,
559195694,00000199,false,Rx,0,6,FF,FF,C9,7D,FF,3F,00,00,
559195902,0000019A,false,Rx,0,6,FF,FF,1E,7F,FF,2F,00,00,
559196110,0000019F,false,Rx,0,6,FF,FF,02,80,FF,2F,00,00,
559196358,00000254,false,Rx,0,8,FF,7F,FF,7F,FF,7F,FF,7F,
559196483,00000258,false,Rx,0,2,11,11,00,00,00,00,00,00,
559197487,000002AE,false,Rx,0,8,FF,FF,FF,FF,FF,FF,FF,48,
559198160,00000100,false,Rx,0,8,AD,F8,7F,C0,5D,1D,87,70,
559198604,00000112,false,Rx,0,8,BE,24,31,0E,CB,71,35,5B,
559200122,0000015F,false,Rx,0,8,1F,F1,00,7D,00,EE,00,7D,
559200680,00000206,false,Rx,0,8,36,2E,CE,FF,FF,FF,FF,FF,
559200939,000000C3,false,Rx,0,8,2F,78,00,40,00,7D,FF,FF,
559201869,0000029E,false,Rx,0,8,47,7C,15,E2,04,FF,FF,FF,
559202161,0000013A,false,Rx,0,8,50,F4,00,00,00,0E,FF,FF,
559203850,000001D6,false,Rx,0,2,F0,C0,00,00,00,00,00,00,
559205618,00000302,false,Rx,0,7,FF,FF,C5,89,F1,FF,FF,00,
559207125,000000A5,false,Rx,0,8,81,FA,FF,F7,7F,00,00,C1,
559207261,000000AC,false,Rx,0,2,00,F0,00,00,00,00,00,00,
559207498,000000D9,false,Rx,0,8,CD,FA,00,10,00,F0,7F,C0,
559207736,000000F3,false,Rx,0,8,E3,0A,00,FF,F0,C0,FF,FF,
559207974,00000289,false,Rx,0,8,61,FB,E0,FF,FD,00,EC,01,
559208205,00000100,false,Rx,0,8,F0,F9,7F,C0,5D,1D,87,70,
559208433,00000112,false,Rx,0,8,BE,24,31,0E,CB,71,35,5B,
559208671,00000239,false,Rx,0,8,8E,58,3D,A9,04,FF,FF,FF,
559208849,000002BB,false,Rx,0,5,45,F5,5E,25,F2,00,00,00,
559209293,00000197,false,Rx,0,4,80,0E,0E,C0,00,00,00,00,
559210118,000000EF,false,Rx,0,8,25,F1,00,7D,21,00,7D,FF,
559210676,000000C3,false,Rx,0,8,72,79,00,40,00,7D,FF,FF,
559210863,000001A1,false,Rx,0,5,46,C5,00,00,81,00,00,00,
559211154,00000140,false,Rx,0,8,6C,65,40,9C,00,00,94,FF,
559211384,00000141,false,Rx,0,8,7D,75,40,9C,00,00,F4,FF,
559211891,000002B2,false,Rx,0,8,42,0E,D8,04,FF,0F,FF,FF,
559215695,00000199,false,Rx,0,6,FF,FF,C9,7D,FF,3F,00,00,
559215909,0000019A,false,Rx,0,6,FF,FF,00,7F,FF,2F,00,00,
559216117,0000019F,false,Rx,0,6,FF,FF,F3,7F,FF,2F,00,00,
559216365,00000254,false,Rx,0,8,FF,7F,FF,7F,FF,7F,FF,7F,
559216492,00000258,false,Rx,0,2,11,11,00,00,00,00,00,00,
559216677,000006F1,false,Rx,0,5,60,03,22,42,0C,00,00,00,
559217050,000002A7,false,Rx,0,5,7B,F7,FE,FF,14,00,00,00,
559217289,00000100,false,Rx,0,8,17,FA,7F,C0,5D,1D,87,70,
559218092,0000031C,false,Rx,0,8,FF,FF,FF,FF,FF,FF,FF,FF,
559218299,0000033B,false,Rx,0,6,03,FB,DC,FF,FF,FF,00,00,
559218567,00000112,false,Rx,0,8,BE,24,31,0E,CB,71,35,5B,
559219373,000001AE,false,Rx,0,2,F7,FF,00,00,00,00,00,00,
559220118,0000015F,false,Rx,0,8,F8,F2,00,7D,00,EE,00,7D,
559220706,000000C3,false,Rx,0,8,95,7A,00,40,00,7D,FF,FF,
559222211,0000013A,false,Rx,0,8,EA,F6,00,00,00,0E,FF,FF,
559222449,000002EF,false,Rx,0,8,00,00,00,80,0C,C8,C0,B6,
559224007,00000096,false,Rx,0,8,58,00,68,96,01,FF,FF,FF,
559225677,0000003C,false,Rx,0,8,FF,7F,00,01,00,00,FF,FF,
559227069,000002C4,false,Rx,0,8,00,00,FF,00,C8,64,FF,CF,
559227309,000000A5,false,Rx,0,8,DC,FB,FF,F7,7F,00,00,C1,
559227547,000000D9,false,Rx,0,8,90,FB,00,10,00,F0,7F,C0,
559227682,000000AC,false,Rx,0,2,00,F0,00,00,00,00,00,00,
559227921,000000F3,false,Rx,0,8,BE,0B,00,FF,F0,C0,FF,FF,
559228151,00000100,false,Rx,0,8,4A,FB,7F,C0,5D,1D,87,70,
559228369,000002C5,false,Rx,0,7,10,FE,00,30,06,70,C8,00,
559228597,0000012F,false,Rx,0,8,10,53,8A,DD,F1,35,30,88,
559228815,00000112,false,Rx,0,8,BE,24,31,0E,CB,71,35,5B,
559229055,00000660,false,Rx,0,8,F1,10,0B,62,42,0C,00,65,
559229344,000002F5,false,Rx,0,8,BF,0F,E2,24,27,0A,06,10,
559229625,000006F1,false,Rx,0,4,60,30,00,02,00,00,00,00,
559230120,000000EF,false,Rx,0,8,C2,F2,00,7D,21,00,7D,FF,
559230699,000000C3,false,Rx,0,8,C8,7B,00,40,00,7D,FF,FF,
559230886,000001A1,false,Rx,0,5,61,C7,00,00,81,00,00,00,
559231126,00000140,false,Rx,0,8,D6,67,40,9C,00,00,94,FF,
559231354,00000141,false,Rx,0,8,C7,77,40,9C,00,00,F4,FF,
559232390,00000660,false,Rx,0,8,F1,21,00,55,00,55,00,68,
559236274,00000199,false,Rx,0,6,FF,FF,B5,7D,FF,3F,00,00,
559236478,0000019A,false,Rx,0,6,FF,FF,0A,7F,FF,2F,00,00,
559236685,0000019F,false,Rx,0,6,FF,FF,EB,7F,FF,2F,00,00,
559236933,00000254,false,Rx,0,8,FF,7F,FF,7F,FF,7F,FF,7F,
559237059,00000258,false,Rx,0,2,11,11,00,00,00,00,00,00,
559238153,00000100,false,Rx,0,8,C4,FC,7F,C0,5D,1D,87,70,
559238590,00000112,false,Rx,0,8,BE,24,31,0E,CB,71,35,5B,
559239293,00000197,false,Rx,0,4,89,00,0E,C0,00,00,00,00,
559240118,0000015F,false,Rx,0,8,A5,F3,00,7D,00,EE,00,7D,
559240686,00000206,false,Rx,0,8,37,20,CE,FF,FF,FF,FF,FF,
559240914,00000301,false,Rx,0,7,FF,FF,24,88,FF,FF,2F,00,
559241155,000000C3,false,Rx,0,8,46,7C,00,40,00,7D,FF,FF,
559241403,00000201,false,Rx,0,8,29,36,1A,E1,FF,FF,FF,FF,
559242096,0000013A,false,Rx,0,8,EB,F8,00,00,00,0E,FF,FF,
559242513,000007BE,false,Rx,0,8,0B,00,00,00,00,00,00,00,
559243895,00000314,false,Rx,0,3,11,02,FF,00,00,00,00,00,
559245625,00000302,false,Rx,0,7,FF,FF,C5,89,F1,FF,FF,00,
559246767,00000337,false,Rx,0,2,FF,FF,00,00,00,00,00,00,
559247046,000003B4,false,Rx,0,8,00,00,0D,F4,BD,FF,09,B2,
559247285,000000A5,false,Rx,0,8,52,FC,FF,F7,7F,00,00,C1,
559247534,000000D9,false,Rx,0,8,1E,FC,00,10,00,F0,7F,C0,
559247669,000000AC,false,Rx,0,2,00,F0,00,00,00,00,00,00,
559247906,000000F3,false,Rx,0,8,30,0C,00,FF,F0,C0,FF,FF,
559248147,000001B3,false,Rx,0,8,FC,00,00,FB,04,78,8A,B4,
559248375,00000100,false,Rx,0,8,99,FD,7F,C0,5D,1D,87,70,
559248602,00000112,false,Rx,0,8,BE,24,31,0E,CB,71,35,5B,
559250109,000000EF,false,Rx,0,8,9F,F3,00,7D,21,00,7D,FF,
559250685,000000C3,false,Rx,0,8,1B,7D,00,40,00,7D,FF,FF,
559250872,000001A1,false,Rx,0,5,94,C9,00,00,81,00,00,00,
559251133,00000140,false,Rx,0,8,D7,69,40,9C,00,00,94,FF,
559251371,00000141,false,Rx,0,8,C6,79,40,9C,00,00,F4,FF,
559254094,00000096,false,Rx,0,8,58,00,68,96,01,FF,FF,FF,
559255690,00000199,false,Rx,0,6,FF,FF,DD,7D,FF,3F,00,00,
559255897,0000019A,false,Rx,0,6,FF,FF,14,7F,FF,2F,00,00,
559256115,0000019F,false,Rx,0,6,FF,FF,06,80,FF,2F,00,00,
559256353,00000254,false,Rx,0,8,FF,7F,FF,7F,FF,7F,FF,7F,
559256481,00000258,false,Rx,0,2,11,11,00,00,00,00,00,00,
559257419,000002F2,false,Rx,0,6,00,00,00,00,FF,FF,00,00,
559258050,00000100,false,Rx,0,8,7E,FE,7F,C0,5D,1D,87,70,
559258237,0000036F,false,Rx,0,5,D5,F5,FE,FF,14,00,00,00,
559258496,00000112,false,Rx,0,8,BE,24,31,0E,CB,71,35,5B,
559260128,0000015F,false,Rx,0,8,2B,F4,00,7D,00,EE,00,7D,
559260694,000000C3,false,Rx,0,8,FC,7E,00,40,00,7D,FF,FF,
559262170,0000013A,false,Rx,0,8,51,FA,00,00,00,0E,FF,FF,
559265639,00000163,false,Rx,0,8,FF,FF,41,25,FF,FF,FF,FF,
559265873,00000173,false,Rx,0,8,25,F7,00,02,20,00,D2,10,
559267091,000000A5,false,Rx,0,8,0F,FD,FF,F7,7F,00,00,C1,
559267218,000000AC,false,Rx,0,2,00,F0,00,00,00,00,00,00,
559267465,000000D9,false,Rx,0,8,43,FD,00,10,00,F0,7F,C0,
559267695,000000F3,false,Rx,0,8,6D,0D,00,FF,F0,C0,FF,FF,
559268141,00000100,false,Rx,0,8,7A,F0,7F,C0,5D,1B,87,70,
559268430,00000112,false,Rx,0,8,BE,24,31,0E,CB,71,35,5B,
559269298,00000197,false,Rx,0,4,06,01,0E,C0,00,00,00,00,
559270115,000000EF,false,Rx,0,8,11,F4,00,7D,21,00,7D,FF,
559270704,000000C3,false,Rx,0,8,FD,70,00,40,00,7D,FF,FF,
559270890,000001A1,false,Rx,0,5,B3,CB,00,00,81,00,00,00,
559271151,00000140,false,Rx,0,8,6D,6B,40,9C,00,00,94,FF,
559271389,00000141,false,Rx,0,8,7C,7B,40,9C,00,00,F4,FF,
559273138,0000037F,false,Rx,0,2,FF,DB,00,00,00,00,00,00,
559275700,00000199,false,Rx,0,6,FF,FF,BF,7D,FF,3F,00,00,
559275903,0000019A,false,Rx,0,6,FF,FF,0A,7F,FF,2F,00,00,
559276111,0000019F,false,Rx,0,6,FF,FF,00,80,FF,2F,00,00,
559276359,00000254,false,Rx,0,8,FF,7F,FF,7F,FF,7F,FF,7F,
559276485,00000258,false,Rx,0,2,11,11,00,00,00,00,00,00,
559277218,0000019B,false,Rx,0,8,9B,4C,40,55,FD,FF,FF,FF,
559278048,00000100,false,Rx,0,8,27,F1,7F,C0,5D,1B,87,70,
559278719,00000112,false,Rx,0,8,BE,24,31,0E,CB,71,35,5B,
559280099,000002E8,false,Rx,0,8,C0,E8,C3,FF,FF,F4,FA,DB,
559280339,0000015F,false,Rx,0,8,76,F5,00,7D,00,EE,00,7D,
559280618,000003FD,false,Rx,0,5,CA,04,20,00,FF,00,00,00,
559280866,00000108,false,Rx,0,8,00,7D,FF,00,48,F1,FF,FF,
559281106,000000C3,false,Rx,0,8,A0,71,00,40,00,7D,FF,FF,
559281355,000001B5,false,Rx,0,8,30,4D,B2,71,FF,FF,FF,FF,
559281603,00000206,false,Rx,0,8,6A,21,CE,FF,FF,FF,FF,FF,
559281851,00000212,false,Rx,0,8,90,F2,F9,FF,FF,FF,FF,FF,
559282101,000002DB,false,Rx,0,8,FF,FF,FF,FF,BF,FF,FF,FF,
559282349,0000013A,false,Rx,0,8,82,FC,00,00,00,0E,FF,FF,
559282578,000002F1,false,Rx,0,8,37,10,7D,A4,01,92,00,A0,
559282837,0000032B,false,Rx,0,8,00,00,00,00,FF,FF,00,FF,
559283076,00000331,false,Rx,0,8,FF,FF,FF,EF,7F,FE,F7,FF,
559283316,000003E9,false,Rx,0,8,5C,8F,21,C1,70,7D,20,4D,
559284036,00000096,false,Rx,0,8,58,00,68,96,01,FF,FF,FF,
559285625,00000302,false,Rx,0,7,FF,FF,C5,89,F1,FF,FF,00,
559286912,00000272,false,Rx,0,8,D4,FC,05,12,FF,FF,FF,FF,
559287327,000000A5,false,Rx,0,8,E8,FE,FF,F7,7F,00,00,C1,
559287452,000000AC,false,Rx,0,2,00,F0,00,00,00,00,00,00,
559287699,000000D9,false,Rx,0,8,A4,FE,00,10,00,F0,7F,C0,
559287930,000000F3,false,Rx,0,8,8A,0E,00,FF,F0,C0,FF,FF,
559288169,00000100,false,Rx,0,8,C5,F2,7F,C0,5D,1D,87,70,
559288397,00000239,false,Rx,0,8,8E,5A,3D,A8,04,FF,FF,FF,
559288625,00000112,false,Rx,0,8,BE,24,31,0E,CB,71,35,5B,
559288834,00000297,false,Rx,0,7,00,EB,F0,ED,F2,92,EA,00,
559290117,000000EF,false,Rx,0,8,4C,F5,00,7D,21,00,7D,FF,
559290686,000000C3,false,Rx,0,8,47,72,00,40,00,7D,FF,FF,
559290872,000001A1,false,Rx,0,5,DA,CD,00,00,81,00,00,00,
559291102,00000201,false,Rx,0,8,39,36,55,E1,FF,FF,FF,FF,
559291351,00000140,false,Rx,0,8,BE,6D,40,9C,00,00,94,FF,
559291589,00000141,false,Rx,0,8,AF,7D,40,9C,00,00,F4,FF,
559292525,000007BD,false,Rx,0,8,00,00,00,40,FF,C0,03,08,
559292794,000007BE,false,Rx,0,8,0C,0F,04,6A,00,00,00,00,
559293785,000002A5,false,Rx,0,2,02,0B,00,00,00,00,00,00,
559293970,00000349,false,Rx,0,5,FE,FF,FE,FF,00,00,00,00,
559294128,00000346,false,Rx,0,4,3C,DD,70,F0,00,00,00,00,
559295694,00000199,false,Rx,0,6,FF,FF,BF,7D,FF,3F,00,00,
559295901,0000019A,false,Rx,0,6,FF,FF,28,7F,FF,2F,00,00,
559296110,0000019F,false,Rx,0,6,FF,FF,06,80,FF,2F,00,00,
559296360,00000254,false,Rx,0,8,FF,7F,FF,7F,FF,7F,FF,7F,
559296485,00000258,false,Rx,0,2,11,11,00,00,00,00,00,00,
559297031,000002A7,false,Rx,0,5,13,F8,FE,FF,14,00,00,00,
559297578,000002AE,false,Rx,0,8,FF,FF,FF,FF,FF,FF,FF,48,
559298079,00000100,false,Rx,0,8,98,F3,7F,C0,5D,1D,87,70,
559298296,000002F9,false,Rx,0,7,00,33,22,08,78,C0,F0,00,
559298524,00000112,false,Rx,0,8,BE,24,31,0E,CB,71,35,5B,
559298733,000001E1,false,Rx,0,6,BE,F6,00,FF,FF,FF,00,00,
559299290,00000197,false,Rx,0,4,8A,02,0E,C0,00,00,00,00,
559300119,0000015F,false,Rx,0,8,91,F6,00,7D,00,EE,00,7D,
559300688,000000C3,false,Rx,0,8,1A,73,00,40,00,7D,FF,FF,
559301977,0000029E,false,Rx,0,8,47,7C,15,E2,04,FF,FF,FF,
559302239,0000013A,false,Rx,0,8,38,FE,00,00,00,0E,FF,FF,
559307107,000000A5,false,Rx,0,8,E9,F0,FF,F7,7F,00,00,C1,
559307238,000000AC,false,Rx,0,2,00,F0,00,00,00,00,00,00,
559307486,000000D9,false,Rx,0,8,A5,F0,00,10,00,F0,7F,C0,
559307724,000000F3,false,Rx,0,8,8B,00,00,FF,F0,C0,FF,FF,
559307963,00000289,false,Rx,0,8,EF,FC,E0,FF,FD,00,EC,01,
559308192,00000100,false,Rx,0,8,16,F4,7F,C0,5D,1D,87,70,
559308420,00000112,false,Rx,0,8,BE,24,31,0E,CB,71,35,5B,
559308597,000002BB,false,Rx,0,5,96,F0,5E,25,F2,00,00,00,
559310121,000000EF,false,Rx,0,8,AB,F6,00,7D,21,00,7D,FF,
559310710,000000C3,false,Rx,0,8,94,74,00,40,00,7D,FF,FF,
559310897,000001A1,false,Rx,0,5,95,C0,00,00,81,00,00,00,
559311147,00000140,false,Rx,0,8,58,60,40,9C,00,00,94,FF,
559311387,00000141,false,Rx,0,8,49,70,40,9C,00,00,F4,FF,
559311997,000002B2,false,Rx,0,8,42,0E,D8,04,FF,0F,FF,FF,
559314059,00000096,false,Rx,0,8,58,00,68,96,01,FF,FF,FF,
559315705,00000199,false,Rx,0,6,FF,FF,BF,7D,FF,3F,00,00,
559315912,0000019A,false,Rx,0,6,FF,FF,0A,7F,FF,2F,00,00,
559316120,0000019F,false,Rx,0,6,FF,FF,EC,7F,FF,2F,00,00,
559316369,00000254,false,Rx,0,8,FF,7F,FF,7F,FF,7F,FF,7F,
559316495,00000258,false,Rx,0,2,11,11,00,00,00,00,00,00,
559316958,000003C3,false,Rx,0,8,89,04,C8,B0,08,C1,00,18,
559318059,00000100,false,Rx,0,8,4B,F5,7F,C0,5D,1D,87,70,
559318492,00000112,false,Rx,0,8,BE,24,31,0E,CB,71,35,5B,
559319348,000001AE,false,Rx,0,2,F7,FF,00,00,00,00,00,00,
559320121,0000015F,false,Rx,0,8,CC,F7,00,7D,00,EE,00,7D,
559320679,00000206,false,Rx,0,8,8D,22,CE,FF,FF,FF,FF,FF,
559320939,000000C3,false,Rx,0,8,C9,75,00,40,00,7D,FF,FF,
559322005,000002EF,false,Rx,0,8,00,00,00,80,0C,C8,C0,B6,
559322243,0000013A,false,Rx,0,8,64,F1,00,00,00,0E,FF,FF,
559323819,000001EE,false,Rx,0,2,00,FC,00,00,00,00,00,00,
559325619,00000302,false,Rx,0,7,FF,FF,C5,89,F1,FF,FF,00,
559326084,000000C0,false,Rx,0,2,FC,40,00,00,00,00,00,00,
559326333,0000003C,false,Rx,0,8,FF,7F,00,01,00,00,FF,FF,
559327077,000002C4,false,Rx,0,8,00,00,FF,00,C8,64,FF,CF,
559327317,000000A5,false,Rx,0,8,B4,F1,FF,F7,7F,00,00,C1,
559327555,000000D9,false,Rx,0,8,F8,F1,00,10,00,F0,7F,C0,
559327690,000000AC,false,Rx,0,2,00,F0,00,00,00,00,00,00,
559327929,000000F3,false,Rx,0,8,D6,01,00,FF,F0,C0,FF,FF,
559328137,000002C5,false,Rx,0,7,93,F0,00,30,06,70,C8,00,
559328375,00000100,false,Rx,0,8,AC,F6,7F,C0,5D,1D,87,70,
559328593,0000012F,false,Rx,0,8,9E,54,8A,DD,F1,35,30,88,
559328822,00000112,false,Rx,0,8,BE,24,31,0E,CB,71,35,5B,
559329030,00000304,false,Rx,0,6,FF,FF,39,38,FF,FF,00,00,
559329258,000002F5,false,Rx,0,8,BF,0F,E2,24,27,0A,06,10,
559329419,00000197,false,Rx,0,4,05,03,0E,C0,00,00,00,00,
559330099,000000EF,false,Rx,0,8,F6,F7,00,7D,21,00,7D,FF,
559330688,000000C3,false,Rx,0,8,2E,76,00,40,00,7D,FF,FF,
559330865,000001A1,false,Rx,0,5,B2,C2,00,00,81,00,00,00,
559331115,00000140,false,Rx,0,8,E2,62,40,9C,00,00,94,FF,
559331357,00000141,false,Rx,0,8,F3,72,40,9C,00,00,F4,FF,
559335705,00000199,false,Rx,0,6,FF,FF,BF,7D,FF,3F,00,00,
559335907,0000019A,false,Rx,0,6,FF,FF,14,7F,FF,2F,00,00,
559336116,0000019F,false,Rx,0,6,FF,FF,20,80,FF,2F,00,00,
559336365,00000254,false,Rx,0,8,FF,7F,FF,7F,FF,7F,FF,7F,
559336490,00000258,false,Rx,0,2,11,11,00,00,00,00,00,00,
559337048,0000036E,false,Rx,0,5,1A,F5,FE,FF,14,00,00,00,
559338154,00000100,false,Rx,0,8,F1,F7,7F,C0,5D,1D,87,70,
559338589,00000112,false,Rx,0,8,BE,24,31,0E,CB,71,35,5B,
559339229,00000239,false,Rx,0,8,8E,5A,3D,A8,04,FF,FF,FF,
559340118,0000015F,false,Rx,0,8,90,F8,00,7D,00,EE,00,7D,
559340686,000000C3,false,Rx,0,8,73,77,00,40,00,7D,FF,FF,
559340925,00000201,false,Rx,0,8,4A,36,8F,E1,FF,FF,FF,FF,
559342174,0000013A,false,Rx,0,8,DE,F3,00,00,00,0E,FF,FF,
559342537,000007BD,false,Rx,0,8,10,00,00,00,00,00,00,00,
559342806,000007BE,false,Rx,0,8,00,C0,FA,1C,02,00,00,00,
559344005,00000096,false,Rx,0,8,58,00,68,96,01,FF,FF,FF,
559347083,000000A5,false,Rx,0,8,53,F2,FF,F7,7F,00,00,C1,
559347219,000000AC,false,Rx,0,2,00,F0,00,00,00,00,00,00,
559347456,000000D9,false,Rx,0,8,1F,F2,00,10,00,F0,7F,C0,
559347704,000000F3,false,Rx,0,8,31,02,00,FF,F0,C0,FF,FF,
559347937,000001B3,false,Rx,0,8,FC,00,00,FC,04,78,8A,B5,
559348166,00000100,false,Rx,0,8,AD,F8,7F,C0,5D,1D,87,70,
559348394,00000112,false,Rx,0,8,BE,24,31,0E,CB,71,35,5B,
559348602,00000362,false,Rx,0,7,3C,B1,0B,3A,C3,0B,E5,00,
559350121,000000EF,false,Rx,0,8,AA,F8,00,7D,21,00,7D,FF,
559350698,000000C3,false,Rx,0,8,2F,78,00,40,00,7D,FF,FF,
559350887,000001A1,false,Rx,0,5,DB,C4,00,00,81,00,00,00,
559351136,00000140,false,Rx,0,8,31,64,40,9C,00,00,94,FF,
559351374,00000141,false,Rx,0,8,20,74,40,9C,00,00,F4,FF,
559355687,00000199,false,Rx,0,6,FF,FF,D3,7D,FF,3F,00,00,
559355900,0000019A,false,Rx,0,6,FF,FF,14,7F,FF,2F,00,00,
559356108,0000019F,false,Rx,0,6,FF,FF,09,80,FF,2F,00,00,
559356347,00000254,false,Rx,0,8,FF,7F,FF,7F,FF,7F,FF,7F,
559356483,00000258,false,Rx,0,2,11,11,00,00,00,00,00,00,
559357411,000002F2,false,Rx,0,6,00,00,00,00,FF,FF,00,00,
559358056,00000100,false,Rx,0,8,F0,F9,7F,C0,5D,1D,87,70,
559358489,00000112,false,Rx,0,8,BE,24,31,0E,CB,71,35,5B,
559359295,00000197,false,Rx,0,4,8F,04,0E,C0,00,00,00,00,
559360122,0000015F,false,Rx,0,8,CD,F9,00,7D,00,EE,00,7D,
559360709,00000206,false,Rx,0,8,D0,23,CE,FF,FF,FF,FF,FF,
559360959,000000C3,false,Rx,0,8,72,79,00,40,00,7D,FF,FF,
559362105,0000013A,false,Rx,0,8,0D,F5,00,00,00,0E,FF,FF,
559365658,00000163,false,Rx,0,8,FF,FF,41,25,FF,FF,FF,FF,
559365892,00000173,false,Rx,0,8,11,F2,00,02,20,00,D2,10,
559366112,00000302,false,Rx,0,7,FF,FF,C5,89,F1,FF,FF,00,
559367104,000000A5,false,Rx,0,8,0E,F3,FF,F7,7F,00,00,C1,
559367239,000000AC,false,Rx,0,2,00,F0,00,00,00,00,00,00,
559367476,000000D9,false,Rx,0,8,42,F3,00,10,00,F0,7F,C0,
559367714,000000F3,false,Rx,0,8,6C,03,00,FF,F0,C0,FF,FF,
559368125,00000100,false,Rx,0,8,17,FA,7F,C0,5D,1D,87,70,
559368580,00000112,false,Rx,0,8,BE,24,31,0E,CB,71,35,5B,
559368819,00000431,false,Rx,0,8,C6,FD,46,00,0E,98,F7,4B,
559370120,000000EF,false,Rx,0,8,F7,F9,00,7D,21,00,7D,FF,
559370687,000000C3,false,Rx,0,8,95,7A,00,40,00,7D,FF,FF,
559370865,000001A1,false,Rx,0,5,FC,C6,00,00,81,00,00,00,
559371144,00000140,false,Rx,0,8,8B,66,40,9C,00,00,94,FF,
559371383,00000141,false,Rx,0,8,9A,76,40,9C,00,00,F4,FF,
559374080,00000096,false,Rx,0,8,58,00,68,96,01,FF,FF,FF,
559375695,00000199,false,Rx,0,6,FF,FF,C9,7D,FF,3F,00,00,
559375902,0000019A,false,Rx,0,6,FF,FF,1E,7F,FF,2F,00,00,
559376110,0000019F,false,Rx,0,6,FF,FF,FB,7F,FF,2F,00,00,
559376359,00000254,false,Rx,0,8,FF,7F,FF,7F,FF,7F,FF,7F,
559376484,00000258,false,Rx,0,2,11,11,00,00,00,00,00,00,
559377042,000002A7,false,Rx,0,5,8E,F9,FE,FF,14,00,00,00,
559377732,00000246,false,Rx,0,6,3F,FB,00,FF,FF,FF,00,00,
559378054,00000100,false,Rx,0,8,4A,FB,7F,C0,5D,1D,87,70,
559378295,00000299,false,Rx,0,8,FF,00,30,00,00,64,F0,00,
559378535,0000032E,false,Rx,0,8,FF,FF,8F,7B,7E,FF,FF,17,
559378752,00000112,false,Rx,0,8,BE,24,31,0E,CB,71,35,5B,
559379537,00000432,false,Rx,0,8,3C,DB,15,BD,55,7C,3E,BC,
559380054,000002E8,false,Rx,0,8,C0,E8,C3,FF,FF,F4,FB,C6,
559380298,0000015F,false,Rx,0,8,2A,FA,00,7D,00,EE,00,7D,
559380629,000003FD,false,Rx,0,5,57,05,20,00,FF,00,00,00,
559380867,00000108,false,Rx,0,8,00,7D,FF,00,48,F1,FF,FF,
559381107,000000C3,false,Rx,0,8,C8,7B,00,40,00,7D,FF,FF,
559381335,000000F5,false,Rx,0,7,DC,DC,00,82,00,82,00,00,
559381511,000000FF,false,Rx,0,4,D8,24,F0,00,00,00,00,00,
559381760,00000201,false,Rx,0,8,57,36,BE,E1,FF,FF,FF,FF,
559382010,00000212,false,Rx,0,8,CD,F3,F9,FF,FF,FF,FF,FF,
559382248,0000013A,false,Rx,0,8,B7,F7,00,00,00,0E,FF,FF,
559382487,000002DB,false,Rx,0,8,FF,FF,FF,FF,BF,FF,FF,FF,
559382736,00000200,false,Rx,0,8,00,00,84,00,00,00,00,FF,
559382974,000002F1,false,Rx,0,8,37,10,7D,A4,01,92,00,A0,
559383215,0000030B,false,Rx,0,8,33,F8,FF,FF,F1,FF,FF,FF,
559387120,000000A5,false,Rx,0,8,80,F4,FF,F7,7F,00,00,C1,
559387252,000000AC,false,Rx,0,2,00,F0,00,00,00,00,00,00,
559387489,000000D9,false,Rx,0,8,CC,F4,00,10,00,F0,7F,C0,
559387727,000000F3,false,Rx,0,8,E2,04,00,FF,F0,C0,FF,FF,
559388153,00000100,false,Rx,0,8,C4,FC,7F,C0,5D,1D,87,70,
559388598,00000112,false,Rx,0,8,BE,24,31,0E,CB,71,35,5B,
559389305,00000197,false,Rx,0,4,00,05,0E,C0,00,00,00,00,
559390110,000000EF,false,Rx,0,8,10,FA,00,7D,21,00,7D,FF,
559390687,000000C3,false,Rx,0,8,46,7C,00,40,00,7D,FF,FF,
559390875,000001A1,false,Rx,0,5,09,C8,00,00,81,00,00,00,
559391114,00000201,false,Rx,0,8,5A,36,CA,E1,FF,FF,FF,FF,
559391345,00000140,false,Rx,0,8,8A,68,40,9C,00,00,94,FF,
559391585,00000141,false,Rx,0,8,9B,78,40,9C,00,00,F4,FF,
559392514,000007BD,false,Rx,0,8,00,00,00,40,FF,C0,03,08,
559392793,000007BE,false,Rx,0,8,05,00,00,00,00,00,00,E0,
559395706,00000199,false,Rx,0,6,FF,FF,D3,7D,FF,3F,00,00,
559395909,0000019A,false,Rx,0,6,FF,FF,1E,7F,FF,2F,00,00,
559396118,0000019F,false,Rx,0,6,FF,FF,00,80,FF,2F,00,00,
559396367,00000254,false,Rx,0,8,FF,7F,FF,7F,FF,7F,FF,7F,
559396492,00000258,false,Rx,0,2,11,11,00,00,00,00,00,00,
559397502,000002AE,false,Rx,0,8,FF,FF,FF,FF,FF,FF,FF,48,
559398137,00000100,false,Rx,0,8,99,FD,7F,C0,5D,1D,87,70,
559398571,00000112,false,Rx,0,8,BE,24,31,0E,CB,71,35,5B,
559400128,0000015F,false,Rx,0,8,77,FB,00,7D,00,EE,00,7D,
559400705,00000206,false,Rx,0,8,18,24,CF,FF,FF,FF,FF,FF,
559400955,00000510,false,Rx,0,8,40,10,80,00,00,01,00,00,
559401194,000000C3,false,Rx,0,8,1B,7D,00,40,00,7D,FF,FF,
559402156,0000013A,false,Rx,0,8,B6,F9,00,00,00,0E,FF,FF,
559402395,0000029E,false,Rx,0,8,47,7C,15,E2,04,FF,FF,FF,
559403951,00000314,false,Rx,0,3,11,02,FF,00,00,00,00,00,
559404189,00000096,false,Rx,0,8,58,00,68,96,01,FF,FF,FF,
559405633,00000302,false,Rx,0,7,FF,FF,C5,89,F1,FF,FF,00,
559407119,000000A5,false,Rx,0,8,DD,F5,FF,F7,7F,00,00,C1,
559407254,000000AC,false,Rx,0,2,00,F0,00,00,00,00,00,00,
559407491,000000D9,false,Rx,0,8,91,F5,00,10,00,F0,7F,C0,
559407741,000000F3,false,Rx,0,8,BF,05,00,FF,F0,C0,FF,FF,
559407970,00000289,false,Rx,0,8,B2,FD,E0,FF,FD,00,EC,01,
559408210,00000100,false,Rx,0,8,7E,FE,7F,C0,5D,1D,87,70,
559408448,00000239,false,Rx,0,8,8E,5B,3D,A8,04,FF,FF,FF,
559408667,00000112,false,Rx,0,8,BE,24,31,0E,CB,71,35,5B,
559408843,000002BB,false,Rx,0,5,2D,FA,5E,25,F2,00,00,00,
559410107,000000EF,false,Rx,0,8,4D,FB,00,7D,21,00,7D,FF,
559410695,000000C3,false,Rx,0,8,FC,7E,00,40,00,7D,FF,FF,
559410872,000001A1,false,Rx,0,5,2E,CA,00,00,81,00,00,00,
559411153,00000140,false,Rx,0,8,30,6A,40,9C,00,00,94,FF,
559411392,00000141,false,Rx,0,8,21,7A,40,9C,00,00,F4,FF,
559412089,000002B2,false,Rx,0,8,42,0E,D8,04,FF,0F,FF,FF,
559415692,00000199,false,Rx,0,6,FF,FF,C9,7D,FF,3F,00,00,
559415905,0000019A,false,Rx,0,6,FF,FF,28,7F,FF,2F,00,00,
559416103,0000019F,false,Rx,0,6,FF,FF,10,80,FF,2F,00,00,
559416353,00000254,false,Rx,0,8,FF,7F,FF,7F,FF,7F,FF,7F,
559416478,00000258,false,Rx,0,2,11,11,00,00,00,00,00,00,
559418036,0000036F,false,Rx,0,5,6F,F6,FE,FF,14,00,00,00,
559418274,00000100,false,Rx,0,8,7F,F0,7F,C0,5D,1D,87,70,
559418523,0000031C,false,Rx,0,8,FF,FF,FF,FF,FF,FF,FF,FF,
559418751,00000112,false,Rx,0,8,BE,24,31,0E,CB,71,35,5B,
559418959,0000033B,false,Rx,0,6,08,FC,DC,FF,FF,FF,00,00,
559419292,00000197,false,Rx,0,4,8C,06,0E,C0,00,00,00,00,
559419426,000001AE,false,Rx,0,2,F7,FF,00,00,00,00,00,00,
559420125,0000015F,false,Rx,0,8,F9,FC,00,7D,00,EE,00,7D,
559420692,000000C3,false,Rx,0,8,FD,70,00,40,00,7D,FF,FF,
559422104,000002EF,false,Rx,0,8,00,00,00,80,0C,C8,C0,B6,
559422343,0000013A,false,Rx,0,8,0C,FB,00,00,00,0E,FF,FF,
559426230,0000003C,false,Rx,0,8,FF,7F,00,01,00,00,FF,FF,
559427052,000002C4,false,Rx,0,8,00,00,FF,00,C8,64,FF,CF,
559427290,000000A5,false,Rx,0,8,3A,F6,FF,F7,7F,00,00,C1,
559427426,000000AC,false,Rx,0,2,00,F0,00,00,00,00,00,00,
559427663,000000D9,false,Rx,0,8,76,F6,00,10,00,F0,7F,C0,
559427902,000000F3,false,Rx,0,8,58,06,00,FF,F0,C0,FF,FF,
559428141,00000100,false,Rx,0,8,22,F1,7F,C0,5D,1D,87,70,
559428375,0000019D,false,Rx,0,8,87,AA,90,01,FF,FF,FF,FF,
559428604,00000112,false,Rx,0,8,BE,24,31,0E,CB,71,35,5B,
559428832,0000012F,false,Rx,0,8,C3,55,8A,DD,F1,35,30,88,
559429041,000002C5,false,Rx,0,7,D5,F1,00,30,06,70,C8,00,
559429270,000002F5,false,Rx,0,8,BF,0F,E2,24,27,0A,06,10,
559429405,000002CA,false,Rx,0,2,72,7E,00,00,00,00,00,00,
559429621,000002F7,false,Rx,0,6,02,D8,49,0B,11,F1,00,00,
559430170,000000EF,false,Rx,0,8,C3,FC,00,7D,21,00,7D,FF,
559430685,000000C3,false,Rx,0,8,A0,71,00,40,00,7D,FF,FF,
559430873,000001A1,false,Rx,0,5,47,CC,00,00,81,00,00,00,
559431184,00000140,false,Rx,0,8,E3,6C,40,9C,00,00,94,FF,
559431412,00000141,false,Rx,0,8,F2,7C,40,9C,00,00,F4,FF,
559434023,00000096,false,Rx,0,8,58,00,68,96,01,FF,FF,FF,
559435690,00000199,false,Rx,0,6,FF,FF,D3,7D,FF,3F,00,00,
559435896,0000019A,false,Rx,0,6,FF,FF,28,7F,FF,2F,00,00,
559436105,0000019F,false,Rx,0,6,FF,FF,E5,7F,FF,2F,00,00,
559436364,00000254,false,Rx,0,8,FF,7F,FF,7F,FF,7F,FF,7F,
559436479,00000258,false,Rx,0,2,11,11,00,00,00,00,00,00,
559438066,00000100,false,Rx,0,8,C5,F2,7F,C0,5D,1D,87,70,
559438501,00000112,false,Rx,0,8,BE,24,31,0E,CB,71,35,5B,
559440120,0000015F,false,Rx,0,8,A4,FD,00,7D,00,EE,00,7D,
559440706,00000206,false,Rx,0,8,45,25,CF,FF,FF,FF,FF,FF,
559440935,00000301,false,Rx,0,7,FF,FF,24,88,FF,FF,2F,00,
559441174,000000C3,false,Rx,0,8,47,72,00,40,00,7D,FF,FF,
559441423,00000201,false,Rx,0,8,6A,36,04,E2,FF,FF,FF,FF,
559442095,0000013A,false,Rx,0,8,DF,FD,00,00,00,0E,FF,FF,
559442534,000007BD,false,Rx,0,8,11,00,00,00,00,00,00,00,
559442813,000007BE,false,Rx,0,8,0B,00,00,00,00,00,00,00,
559445617,00000302,false,Rx,0,7,FF,FF,C5,89,F1,FF,FF,00,
559447078,000003B4,false,Rx,0,8,00,00,0D,F4,BD,FF,09,B2,
559447327,000000A5,false,Rx,0,8,67,F7,FF,F7,7F,00,00,C1,
559447452,000000AC,false,Rx,0,2,00,F0,00,00,00,00,00,00,
559447700,000000D9,false,Rx,0,8,2B,F7,00,10,00,F0,7F,C0,
559447939,000000F3,false,Rx,0,8,05,07,00,FF,F0,C0,FF,FF,
559448168,00000100,false,Rx,0,8,98,F3,7F,C0,5D,1D,87,70,
559448406,000001B3,false,Rx,0,8,FC,00,00,FD,04,78,8A,B6,
559448633,00000112,false,Rx,0,8,BE,24,31,0E,CB,71,35,5B,
559449305,00000197,false,Rx,0,4,03,07,0E,C0,00,00,00,00,
559450110,000000EF,false,Rx,0,8,9E,FD,00,7D,21,00,7D,FF,
559450708,000000C3,false,Rx,0,8,1A,73,00,40,00,7D,FF,FF,
559450895,000001A1,false,Rx,0,5,60,CE,00,00,81,00,00,00,
559451134,00000140,false,Rx,0,8,59,6E,40,9C,00,00,94,FF,
559451372,00000141,false,Rx,0,8,48,7E,40,9C,00,00,F4,FF,
559455701,00000199,false,Rx,0,6,FF,FF,BF,7D,FF,3F,00,00,
559455903,0000019A,false,Rx,0,6,FF,FF,28,7F,FF,2F,00,00,
559456113,0000019F,false,Rx,0,6,FF,FF,ED,7F,FF,2F,00,00,
559456361,00000254,false,Rx,0,8,FF,7F,FF,7F,FF,7F,FF,7F,
559456487,00000258,false,Rx,0,2,11,11,00,00,00,00,00,00,
559457024,000002A7,false,Rx,0,5,34,FA,FE,FF,14,00,00,00,
559457426,000002F2,false,Rx,0,6,00,00,00,00,FF,FF,00,00,
559458134,00000100,false,Rx,0,8,16,F4,7F,C0,5D,1D,87,70,
559458578,00000112,false,Rx,0,8,BE,24,31,0E,CB,71,35,5B,
559459220,00000239,false,Rx,0,8,8E,5B,3D,A8,04,FF,FF,FF,
559460128,0000015F,false,Rx,0,8,43,FE,00,7D,00,EE,00,7D,
559460685,000000C3,false,Rx,0,8,94,74,00,40,00,7D,FF,FF,
559462170,0000013A,false,Rx,0,8,39,F0,00,00,00,0E,FF,FF,
559464208,00000096,false,Rx,0,8,58,00,68,96,01,FF,FF,FF,
559465652,00000163,false,Rx,0,8,FF,FF,41,25,FF,FF,FF,FF,
559465888,00000173,false,Rx,0,8,10,FC,00,02,20,00,D2,10,
559467077,000000A5,false,Rx,0,8,3B,F8,FF,F7,7F,00,00,C1,
559467212,000000AC,false,Rx,0,2,00,F0,00,00,00,00,00,00,
559467460,000000D9,false,Rx,0,8,77,F8,00,10,00,F0,7F,C0,
559467699,000000F3,false,Rx,0,8,59,08,00,FF,F0,C0,FF,FF,
559468077,00000100,false,Rx,0,8,4B,F5,7F,C0,5D,1D,87,70,
559468450,00000112,false,Rx,0,8,BE,24,31,0E,CB,71,35,5B,
559470109,000000EF,false,Rx,0,8,79,FE,00,7D,21,00,7D,FF,
559470687,000000C3,false,Rx,0,8,C9,75,00,40,00,7D,FF,FF,
559470874,000001A1,false,Rx,0,5,08,C1,00,00,81,00,00,00,
559471154,00000140,false,Rx,0,8,05,61,40,9C,00,00,94,FF,
559471392,00000141,false,Rx,0,8,14,71,40,9C,00,00,F4,FF,
559473151,0000037F,false,Rx,0,2,FF,DC,00,00,00,00,00,00,
559475691,00000199,false,Rx,0,6,FF,FF,D3,7D,FF,3F,00,00,
559475904,0000019A,false,Rx,0,6,FF,FF,32,7F,FF,2F,00,00,
559476103,0000019F,false,Rx,0,6,FF,FF,F2,7F,FF,2F,00,00,
559476351,00000254,false,Rx,0,8,FF,7F,FF,7F,FF,7F,FF,7F,
559476476,00000258,false,Rx,0,2,11,11,00,00,00,00,00,00,
559477147,0000019B,false,Rx,0,8,C6,4D,40,55,FD,FF,FF,FF,
559477447,00000348,false,Rx,0,8,00,00,0D,53,FE,E5,9A,CB,
559478022,00000100,false,Rx,0,8,AC,F6,7F,C0,5D,1D,87,70,
559478641,00000112,false,Rx,0,8,BE,24,31,0E,CB,71,35,5B,
559479293,00000197,false,Rx,0,4,85,08,0E,C0,00,00,00,00,
559480119,0000015F,false,Rx,0,8,42,F0,00,7D,00,EE,00,7D,
559480347,000002E8,false,Rx,0,8,C0,E8,C3,FF,FF,F4,FC,95,
559480636,000003FD,false,Rx,0,5,ED,06,20,00,FF,00,00,00,
559480875,00000108,false,Rx,0,8,00,7D,FF,00,48,F1,FF,FF,
559481115,000000C3,false,Rx,0,8,2E,76,00,40,00,7D,FF,FF,
559481353,000001B5,false,Rx,0,8,AF,4E,D2,71,FF,FF,FF,FF,
559481623,00000206,false,Rx,0,8,E4,26,CE,FF,FF,FF,FF,FF,
559481871,00000212,false,Rx,0,8,43,F4,F9,FF,FF,FF,FF,FF,
559482121,0000013A,false,Rx,0,8,83,F2,00,00,00,0E,FF,FF,
559482371,000002DB,false,Rx,0,8,FF,FF,FF,FF,BF,FF,FF,FF,
559482609,000002F1,false,Rx,0,8,37,10,7D,A4,01,92,00,A0,
559482857,0000032B,false,Rx,0,8,00,00,00,00,FF,FF,00,FF,
559483098,00000331,false,Rx,0,8,FF,FF,FF,EF,7F,FE,F7,FF,
559483346,000003E9,false,Rx,0,8,5C,8F,21,C1,70,7D,20,4D,
559485622,00000302,false,Rx,0,7,FF,FF,C5,89,F1,FF,FF,00,
559487115,00000272,false,Rx,0,8,89,FD,05,12,FF,FF,FF,FF,
559487353,000000A5,false,Rx,0,8,66,F9,FF,F7,7F,00,00,C1,
559487488,000000AC,false,Rx,0,2,00,F0,00,00,00,00,00,00,
559487726,000000D9,false,Rx,0,8,2A,F9,00,10,00,F0,7F,C0,
559487975,000000F3,false,Rx,0,8,04,09,00,FF,F0,C0,FF,FF,
559488198,00000100,false,Rx,0,8,F1,F7,7F,C0,5D,1D,87,70,
559488417,00000297,false,Rx,0,7,CF,EC,F0,ED,F2,92,EA,00,
559488645,00000112,false,Rx,0,8,BE,24,31,0E,CB,71,35,5B,
559490121,000000EF,false,Rx,0,8,78,F0,00,7D,21,00,7D,FF,
559490699,000000C3,false,Rx,0,8,73,77,00,40,00,7D,FF,FF,
559490886,000001A1,false,Rx,0,5,2F,C3,00,00,81,00,00,00,
559491125,00000201,false,Rx,0,8,7B,36,3E,E2,FF,FF,FF,FF,
559491363,00000140,false,Rx,0,8,BF,63,40,9C,00,00,94,FF,
559491592,00000141,false,Rx,0,8,AE,73,40,9C,00,00,F4,FF,
559492394,00000560,false,Rx,0,8,00,00,00,00,FE,00,00,60,
559492663,000007BD,false,Rx,0,8,00,00,00,40,FF,C0,03,08,
559493809,000002A5,false,Rx,0,2,02,0B,00,00,00,00,00,00,
559493995,00000349,false,Rx,0,5,FE,FF,FE,FF,00,00,00,00,
559494234,00000096,false,Rx,0,8,58,00,68,96,01,FF,FF,FF,
559495689,00000199,false,Rx,0,6,FF,FF,C9,7D,FF,3F,00,00,
559495896,0000019A,false,Rx,0,6,FF,FF,32,7F,FF,2F,00,00,
559496105,0000019F,false,Rx,0,6,FF,FF,06,80,FF,2F,00,00,
559496353,00000254,false,Rx,0,8,FF,7F,FF,7F,FF,7F,FF,7F,
559496478,00000258,false,Rx,0,2,11,11,00,00,00,00,00,00,
559497036,0000036E,false,Rx,0,5,A0,F6,FE,FF,14,00,00,00,
559497563,000002AE,false,Rx,0,8,FF,FF,FF,FF,FF,FF,FF,48,
559497801,0000043D,false,Rx,0,8,0D,FF,EB,FF,29,25,81,50,
559498081,00000100,false,Rx,0,8,AD,F8,7F,C0,5D,1D,87,70,
559498369,000001E1,false,Rx,0,6,D4,F7,00,FF,FF,FF,00,00,
559498597,00000112,false,Rx,0,8,BE,24,31,0E,CB,71,45,5B,
559500124,0000015F,false,Rx,0,8,1F,F1,00,7D,00,EE,00,7D,
559500692,000000C3,false,Rx,0,8,2F,78,00,40,00,7D,FF,FF,
559502184,0000029E,false,Rx,0,8,47,7C,15,E2,04,FF,FF,FF,
559502423,0000013A,false,Rx,0,8,50,F4,00,00,00,0E,FF,FF,
559503836,00000540,false,Rx,0,8,00,00,00,00,FE,31,FF,40,
559507110,000000A5,false,Rx,0,8,81,FA,FF,F7,7F,00,00,C1,
559507241,000000AC,false,Rx,0,2,00,F0,00,00,00,00,00,00,
559507478,000000D9,false,Rx,0,8,CD,FA,00,10,00,F0,7F,C0,
559507718,000000F3,false,Rx,0,8,E3,0A,00,FF,F0,C0,FF,FF,
559507956,00000289,false,Rx,0,8,55,FE,E0,FF,FD,00,EC,01,
559508195,00000100,false,Rx,0,8,F0,F9,7F,C0,5D,1D,87,70,
559508414,00000112,false,Rx,0,8,BE,24,31,0E,CB,71,45,5B,
559508652,00000239,false,Rx,0,8,8E,5C,3D,A8,04,FF,FF,FF,
559508828,000002BB,false,Rx,0,5,45,F5,5E,25,F2,00,00,00,
559509294,00000197,false,Rx,0,4,0A,09,0E,C0,00,00,00,00,
559510120,000000EF,false,Rx,0,8,25,F1,00,7D,21,00,7D,FF,
559510688,000000C3,false,Rx,0,8,72,79,00,40,00,7D,FF,FF,
559510864,000001A1,false,Rx,0,5,46,C5,00,00,81,00,00,00,
559511144,00000140,false,Rx,0,8,6C,65,40,9C,00,00,94,FF,
559511387,00000141,false,Rx,0,8,7D,75,40,9C,00,00,F4,FF,
559512203,000002B2,false,Rx,0,8,42,0E,D8,04,FF,0F,FF,FF,
559515708,00000199,false,Rx,0,6,FF,FF,BF,7D,FF,3F,00,00,
559515911,0000019A,false,Rx,0,6,FF,FF,32,7F,FF,2F,00,00,
559516120,0000019F,false,Rx,0,6,FF,FF,14,80,FF,2F,00,00,
559516358,00000254,false,Rx,0,8,FF,7F,FF,7F,FF,7F,FF,7F,
559516494,00000258,false,Rx,0,2,11,11,00,00,00,00,00,00,
559517319,0000043C,false,Rx,0,8,FE,FE,FF,FF,FF,FF,FF,FF,
559518148,00000100,false,Rx,0,8,17,FA,7F,C0,5D,1D,87,70,
559518593,00000112,false,Rx,0,8,BE,24,31,0E,CB,71,45,5B,
559519347,000001AE,false,Rx,0,2,F7,FF,00,00,00,00,00,00,
559520110,0000015F,false,Rx,0,8,F8,F2,00,7D,00,EE,00,7D,
559520689,00000206,false,Rx,0,8,B9,27,CE,FF,FF,FF,FF,FF,
559520937,000000C3,false,Rx,0,8,95,7A,00,40,00,7D,FF,FF,
559522115,0000013A,false,Rx,0,8,EA,F6,00,00,00,0E,FF,FF,
559522487,000002EF,false,Rx,0,8,00,00,00,80,0C,C8,C0,B6,
559522623,000003BB,false,Rx,0,2,03,FF,00,00,00,00,00,00,
559522870,00000512,false,Rx,0,8,00,00,00,00,00,00,00,12,
559524009,00000096,false,Rx,0,8,58,00,68,96,01,FF,FF,FF,
559525628,00000302,false,Rx,0,7,FF,FF,C5,89,F1,FF,FF,00,
559526082,000000C0,false,Rx,0,2,FD,40,00,00,00,00,00,00,
559526329,0000003C,false,Rx,0,8,FF,7F,00,01,00,00,FF,FF,
559527073,000002C4,false,Rx,0,8,00,00,FF,00,C8,64,FF,CF,
559527311,000000A5,false,Rx,0,8,DC,FB,FF,F7,7F,00,00,C1,
559527561,000000D9,false,Rx,0,8,90,FB,00,10,00,F0,7F,C0,
559527686,000000AC,false,Rx,0,2,00,F0,00,00,00,00,00,00,
559527928,000000F3,false,Rx,0,8,BE,0B,00,FF,F0,C0,FF,FF,
559528147,000002C5,false,Rx,0,7,1F,F2,00,30,06,70,C8,00,
559528376,00000100,false,Rx,0,8,4A,FB,7F,C0,5D,1D,87,70,
559528604,0000012F,false,Rx,0,8,24,56,8A,DD,F1,35,30,88,
559528811,00000304,false,Rx,0,6,FF,FF,3A,38,FF,FF,00,00,
559529040,00000112,false,Rx,0,8,BE,24,31,0E,CB,71,45,5B,
559529351,000002F5,false,Rx,0,8,BF,0F,E2,24,27,0A,06,10,
559530104,000000EF,false,Rx,0,8,C2,F2,00,7D,21,00,7D,FF,
559530641,000001A1,false,Rx,0,5,61,C7,00,00,81,00,00,00,
559530879,000000C3,false,Rx,0,8,C8,7B,00,40,00,7D,FF,FF,
559531118,00000140,false,Rx,0,8,D6,67,40,9C,00,00,94,FF,
559531346,00000141,false,Rx,0,8,C7,77,40,9C,00,00,F4,FF,
559535690,00000199,false,Rx,0,6,FF,FF,C9,7D,FF,3F,00,00,
559535903,0000019A,false,Rx,0,6,FF,FF,1E,7F,FF,2F,00,00,
559536112,0000019F,false,Rx,0,6,FF,FF,F1,7F,FF,2F,00,00,
559536360,00000254,false,Rx,0,8,FF,7F,FF,7F,FF,7F,FF,7F,
559536485,00000258,false,Rx,0,2,11,11,00,00,00,00,00,00,
559537043,000002A7,false,Rx,0,5,A9,FB,FE,FF,14,00,00,00,
559538098,00000100,false,Rx,0,8,C4,FC,7F,C0,5D,1D,87,70,
559538502,00000112,false,Rx,0,8,BE,24,31,0E,CB,71,45,5B,
559539308,00000197,false,Rx,0,4,86,0A,0E,C0,00,00,00,00,
559540123,0000015F,false,Rx,0,8,A5,F3,00,7D,00,EE,00,7D,
559540712,000000C3,false,Rx,0,8,46,7C,00,40,00,7D,FF,FF,
559540960,00000201,false,Rx,0,8,8B,36,78,E2,FF,FF,FF,FF,
559542160,0000013A,false,Rx,0,8,EB,F8,00,00,00,0E,FF,FF,
559547080,000000A5,false,Rx,0,8,52,FC,FF,F7,7F,00,00,C1,
559547211,000000AC,false,Rx,0,2,00,F0,00,00,00,00,00,00,
559547459,000000D9,false,Rx,0,8,1E,FC,00,10,00,F0,7F,C0,
559547698,000000F3,false,Rx,0,8,30,0C,00,FF,F0,C0,FF,FF,
559547936,000001B3,false,Rx,0,8,FC,00,00,FE,04,78,8A,B7,
559548176,00000100,false,Rx,0,8,99,FD,7F,C0,5D,1D,87,70,
559548384,00000362,false,Rx,0,7,3C,B1,0B,3A,C3,0B,E5,00,
559548612,00000112,false,Rx,0,8,BE,24,31,0E,CB,71,45,5B,
559550106,000000EF,false,Rx,0,8,9F,F3,00,7D,21,00,7D,FF,
559550695,000000C3,false,Rx,0,8,1B,7D,00,40,00,7D,FF,FF,
559550871,000001A1,false,Rx,0,5,94,C9,00,00,81,00,00,00,
559551151,00000140,false,Rx,0,8,D7,69,40,9C,00,00,94,FF,
559551380,00000141,false,Rx,0,8,C6,79,40,9C,00,00,F4,FF,
559554079,00000096,false,Rx,0,8,58,00,68,96,01,FF,FF,FF,
559555685,00000199,false,Rx,0,6,FF,FF,D3,7D,FF,3F,00,00,
559555892,0000019A,false,Rx,0,6,FF,FF,28,7F,FF,2F,00,00,
559556102,0000019F,false,Rx,0,6,FF,FF,02,80,FF,2F,00,00,
559556350,00000254,false,Rx,0,8,FF,7F,FF,7F,FF,7F,FF,7F,
559556475,00000258,false,Rx,0,2,11,11,00,00,00,00,00,00,
559557406,000002F2,false,Rx,0,6,00,00,00,00,FF,FF,00,00,
559558078,00000100,false,Rx,0,8,7E,FE,7F,C0,5D,1D,87,70,
559558513,00000112,false,Rx,0,8,BE,24,31,0E,CB,71,45,5B,
559559144,00000239,false,Rx,0,8,8E,5C,3D,A8,04,FF,FF,FF,
559560126,0000015F,false,Rx,0,8,2B,F4,00,7D,00,EE,00,7D,
559560684,00000206,false,Rx,0,8,A3,28,CF,FF,FF,FF,FF,FF,
559560943,000000C3,false,Rx,0,8,FC,7E,00,40,00,7D,FF,FF,
559562101,0000013A,false,Rx,0,8,51,FA,00,00,00,0E,FF,FF,
559563941,00000314,false,Rx,0,3,11,02,FF,00,00,00,00,00,
559565648,00000163,false,Rx,0,8,FF,FF,41,25,FF,FF,FF,FF,
559565887,00000173,false,Rx,0,8,25,F7,00,02,20,00,D2,10,
559566107,00000302,false,Rx,0,7,FF,FF,C5,89,F1,FF,FF,00,
559567108,000000A5,false,Rx,0,8,0F,FD,FF,F7,7F,00,00,C1,
559567243,000000AC,false,Rx,0,2,00,F0,00,00,00,00,00,00,
559567485,000000D9,false,Rx,0,8,43,FD,00,10,00,F0,7F,C0,
559567723,000000F3,false,Rx,0,8,6D,0D,00,FF,F0,C0,FF,FF,
559568169,00000100,false,Rx,0,8,7F,F0,7F,C0,5D,1D,87,70,
559568460,00000112,false,Rx,0,8,BE,24,31,0E,CB,71,45,5B,
559568688,00000431,false,Rx,0,8,C6,FD,46,00,0E,98,F7,4B,
559569315,00000197,false,Rx,0,4,09,0B,0E,C0,00,00,00,00,
559570119,000000EF,false,Rx,0,8,11,F4,00,7D,21,00,7D,FF,
559570688,000000C3,false,Rx,0,8,FD,70,00,40,00,7D,FF,FF,
559570874,000001A1,false,Rx,0,5,B3,CB,00,00,81,00,00,00,
559571144,00000140,false,Rx,0,8,6D,6B,40,9C,00,00,94,FF,
559571387,00000141,false,Rx,0,8,7C,7B,40,9C,00,00,F4,FF,
559575693,00000199,false,Rx,0,6,FF,FF,D3,7D,FF,3F,00,00,
559575907,0000019A,false,Rx,0,6,FF,FF,28,7F,FF,2F,00,00,
559576115,0000019F,false,Rx,0,6,FF,FF,0D,80,FF,2F,00,00,
559576352,00000254,false,Rx,0,8,FF,7F,FF,7F,FF,7F,FF,7F,
559576488,00000258,false,Rx,0,2,11,11,00,00,00,00,00,00,
559577344,00000328,false,Rx,0,6,61,AD,C9,04,AB,1E,00,00,
559578040,0000036F,false,Rx,0,5,F2,F7,FE,FF,14,00,00,00,
559578269,00000100,false,Rx,0,8,22,F1,7F,C0,5D,1D,87,70,
559578733,00000112,false,Rx,0,8,BE,24,31,0E,CB,71,45,5B,
559580035,00000432,false,Rx,0,8,3C,DB,15,BD,55,7C,3E,BC,
559580273,0000015F,false,Rx,0,8,76,F5,00,7D,00,EE,00,7D,
559580513,000002E8,false,Rx,0,8,C0,E8,C3,FF,FF,F4,FD,88,
559580751,00000108,false,Rx,0,8,00,7D,FF,00,48,F1,FF,FF,
559580938,000003FD,false,Rx,0,5,70,07,20,00,FF,00,00,00,
559581187,000000C3,false,Rx,0,8,A0,71,00,40,00,7D,FF,FF,
559581436,00000212,false,Rx,0,8,1E,F5,F9,FF,FF,FF,FF,FF,
559581716,000002DB,false,Rx,0,8,FF,FF,FF,FF,BF,FF,FF,FF,
559581954,000002F1,false,Rx,0,8,37,10,7D,A4,01,92,00,A0,
559582196,0000013A,false,Rx,0,8,82,FC,00,00,00,0E,FF,FF,
559583966,00000096,false,Rx,0,8,58,00,68,96,01,FF,FF,FF,
559587108,000000A5,false,Rx,0,8,E8,FE,FF,F7,7F,00,00,C1,
559587243,000000AC,false,Rx,0,2,00,F0,00,00,00,00,00,00,
559587482,000000D9,false,Rx,0,8,A4,FE,00,10,00,F0,7F,C0,
559587720,000000F3,false,Rx,0,8,8A,0E,00,FF,F0,C0,FF,FF,
559588053,00000100,false,Rx,0,8,C5,F2,7F,C0,5D,1D,87,70,
559588437,00000112,false,Rx,0,8,BE,24,31,0E,CB,71,45,5B,
559590106,000000EF,false,Rx,0,8,4C,F5,00,7D,21,00,7D,FF,
559590684,000000C3,false,Rx,0,8,47,72,00,40,00,7D,FF,FF,
559590871,000001A1,false,Rx,0,5,DA,CD,00,00,81,00,00,00,
559591110,00000201,false,Rx,0,8,9B,36,B3,E2,FF,FF,FF,FF,
559591349,00000140,false,Rx,0,8,BE,6D,40,9C,00,00,94,FF,
559591587,00000141,false,Rx,0,8,AF,7D,40,9C,00,00,F4,FF,
559592523,000007BD,false,Rx,0,8,00,00,00,40,FF,C0,03,08,
559592803,000007BE,false,Rx,0,8,05,00,00,00,00,00,00,E0,
559595688,00000199,false,Rx,0,6,FF,FF,C9,7D,FF,3F,00,00,
559595902,0000019A,false,Rx,0,6,FF,FF,14,7F,FF,2F,00,00,
559596110,0000019F,false,Rx,0,6,FF,FF,0E,80,FF,2F,00,00,
559596348,00000254,false,Rx,0,8,FF,7F,FF,7F,FF,7F,FF,7F,
559596483,00000258,false,Rx,0,2,11,11,00,00,00,00,00,00,
559597484,000002AE,false,Rx,0,8,FF,FF,FF,FF,FF,FF,FF,48,
559598148,00000100,false,Rx,0,8,98,F3,7F,C0,5D,1D,87,70,
559598593,00000112,false,Rx,0,8,BE,24,31,0E,CB,71,45,5B,
559599297,00000197,false,Rx,0,4,83,0C,0E,C0,00,00,00,00,
559600122,0000015F,false,Rx,0,8,91,F6,00,7D,00,EE,00,7D,
559600690,00000206,false,Rx,0,8,B8,29,CE,FF,FF,FF,FF,FF,
559600939,000000C3,false,Rx,0,8,1A,73,00,40,00,7D,FF,FF,
559602168,0000013A,false,Rx,0,8,38,FE,00,00,00,0E,FF,FF,
559602396,0000029E,false,Rx,0,8,47,7C,15,E2,04,FF,FF,FF,
559605623,00000302,false,Rx,0,7,FF,FF,C5,89,F1,FF,FF,00,
559605862,0000051A,false,Rx,0,8,00,00,00,00,50,00,00,1A,
559607119,000000A5,false,Rx,0,8,E9,F0,FF,F7,7F,00,00,C1,
559607254,000000AC,false,Rx,0,2,00,F0,00,00,00,00,00,00,
559607493,000000D9,false,Rx,0,8,A5,F0,00,10,00,F0,7F,C0,
559607731,000000F3,false,Rx,0,8,8B,00,00,FF,F0,C0,FF,FF,
559607969,00000289,false,Rx,0,8,54,F0,E0,FF,FD,00,EC,01,
559608203,00000100,false,Rx,0,8,16,F4,7F,C0,5D,1D,87,70,
559608431,00000112,false,Rx,0,8,BE,24,31,0E,CB,71,45,5B,
559608669,00000239,false,Rx,0,8,8E,5D,3D,A8,04,FF,FF,FF,
559608845,000002BB,false,Rx,0,5,96,F0,5E,25,F2,00,00,00,
559610107,000000EF,false,Rx,0,8,AB,F6,00,7D,21,00,7D,FF,
559610685,000000C3,false,Rx,0,8,94,74,00,40,00,7D,FF,FF,
559610872,000001A1,false,Rx,0,5,95,C0,00,00,81,00,00,00,
559611153,00000140,false,Rx,0,8,58,60,40,9C,00,00,94,FF,
559611393,00000141,false,Rx,0,8,49,70,40,9C,00,00,F4,FF,
559612295,000002B2,false,Rx,0,8,42,0E,D8,04,FF,0F,FF,FF,
559614118,00000096,false,Rx,0,8,58,00,68,96,01,FF,FF,FF,
559616259,00000199,false,Rx,0,6,FF,FF,BF,7D,FF,3F,00,00,
559616466,0000019A,false,Rx,0,6,FF,FF,0A,7F,FF,2F,00,00,
559616675,0000019F,false,Rx,0,6,FF,FF,FB,7F,FF,2F,00,00,
559616923,00000254,false,Rx,0,8,FF,7F,FF,7F,FF,7F,FF,7F,
559617049,00000258,false,Rx,0,2,11,11,00,00,00,00,00,00,
559617234,000002A7,false,Rx,0,5,5D,FC,FE,FF,14,00,00,00,
559618061,00000100,false,Rx,0,8,4B,F5,7F,C0,5D,1D,87,70,
559618307,0000031C,false,Rx,0,8,FF,FF,FF,FF,FF,FF,FF,FF,
559618535,00000112,false,Rx,0,8,BE,24,31,0E,CB,71,45,5B,
559618742,0000033B,false,Rx,0,6,62,FD,DC,FF,FF,FF,00,00,
559619383,000001AE,false,Rx,0,2,F7,FF,00,00,00,00,00,00,
559620128,0000015F,false,Rx,0,8,CC,F7,00,7D,00,EE,00,7D,
559620706,000000C3,false,Rx,0,8,C9,75,00,40,00,7D,FF,FF,
559622170,0000013A,false,Rx,0,8,64,F1,00,00,00,0E,FF,FF,
559622408,000002EF,false,Rx,0,8,00,00,00,80,0C,C8,C0,B6,
559623903,0000038E,false,Rx,0,8,00,00,19,19,79,08,C1,F7,
559625072,0000038E,false,Rx,0,8,00,00,19,19,79,08,C2,F7,
559627037,000002C4,false,Rx,0,8,00,00,FF,00,C8,64,FF,CF,
559627286,0000003C,false,Rx,0,8,FF,7F,00,01,00,00,FF,FF,
559627525,000000A5,false,Rx,0,8,B4,F1,FF,F7,7F,00,00,C1,
559627661,000000AC,false,Rx,0,2,00,F0,00,00,00,00,00,00,
559627898,000000D9,false,Rx,0,8,F8,F1,00,10,00,F0,7F,C0,
559628138,000000F3,false,Rx,0,8,D6,01,00,FF,F0,C0,FF,FF,
559628372,00000100,false,Rx,0,8,AC,F6,7F,C0,5D,1D,87,70,
559628590,00000112,false,Rx,0,8,BE,24,31,0E,CB,71,45,5B,
559628818,0000012F,false,Rx,0,8,79,57,8A,DD,F1,35,30,88,
559629038,000002C5,false,Rx,0,7,59,F3,00,30,06,70,C8,00,
559629265,000002F5,false,Rx,0,8,BF,0F,E2,24,27,0A,06,10,
559629432,00000197,false,Rx,0,4,0C,0D,0E,C0,00,00,00,00,
559630103,000000EF,false,Rx,0,8,F6,F7,00,7D,21,00,7D,FF,
559630679,00000201,false,Rx,0,8,A8,36,E1,E2,FF,FF,FF,FF,
559630866,000001A1,false,Rx,0,5,B2,C2,00,00,81,00,00,00,
559631105,000000C3,false,Rx,0,8,2E,76,00,40,00,7D,FF,FF,
559631344,00000140,false,Rx,0,8,E2,62,40,9C,00,00,94,FF,
559631562,000000F5,false,Rx,0,7,DC,DC,00,82,00,82,00,00,
559631800,00000141,false,Rx,0,8,F3,72,40,9C,00,00,F4,FF,
559631968,000000FF,false,Rx,0,4,D8,24,F0,00,00,00,00,00,
559636254,00000199,false,Rx,0,6,FF,FF,C9,7D,FF,3F,00,00,
559636467,0000019A,false,Rx,0,6,FF,FF,00,7F,FF,2F,00,00,
559636675,0000019F,false,Rx,0,6,FF,FF,19,80,FF,2F,00,00,
559636923,00000254,false,Rx,0,8,FF,7F,FF,7F,FF,7F,FF,7F,
559637050,00000258,false,Rx,0,2,11,11,00,00,00,00,00,00,
559638133,00000100,false,Rx,0,8,F1,F7,7F,C0,5D,1D,87,70,
559638580,00000112,false,Rx,0,8,BE,24,31,0E,CB,71,45,5B,
559640118,0000015F,false,Rx,0,8,90,F8,00,7D,00,EE,00,7D,
559640694,00000206,false,Rx,0,8,5F,2A,CE,FF,FF,FF,FF,FF,
559640912,00000301,false,Rx,0,7,FF,FF,24,88,FF,FF,2F,00,
559641151,000000C3,false,Rx,0,8,73,77,00,40,00,7D,FF,FF,
559641390,00000201,false,Rx,0,8,AC,36,ED,E2,FF,FF,FF,FF,
559642104,0000013A,false,Rx,0,8,DE,F3,00,00,00,0E,FF,FF,
559642511,000007BD,false,Rx,0,8,01,2D,55,7F,4A,57,57,00,
559642791,000007BE,false,Rx,0,8,0C,0F,04,6A,00,00,00,00,
559644060,00000096,false,Rx,0,8,58,00,68,96,01,FF,FF,FF,
559645638,00000302,false,Rx,0,7,FF,FF,C5,89,F1,FF,FF,00,
559647100,000000A5,false,Rx,0,8,53,F2,FF,F7,7F,00,00,C1,
559647235,000000AC,false,Rx,0,2,00,F0,00,00,00,00,00,00,
559647473,000000D9,false,Rx,0,8,1F,F2,00,10,00,F0,7F,C0,
559647711,000000F3,false,Rx,0,8,31,02,00,FF,F0,C0,FF,FF,
559647949,000001B3,false,Rx,0,8,FC,00,00,F0,04,78,8A,A9,
559648180,00000100,false,Rx,0,8,AD,F8,7F,C0,5D,1D,87,70,
559648404,00000112,false,Rx,0,8,BE,24,31,0E,CB,71,45,5B,
559648642,000003B4,false,Rx,0,8,00,00,0D,F4,BD,FF,09,B2,
559650118,000000EF,false,Rx,0,8,AA,F8,00,7D,21,00,7D,FF,
559650687,000000C3,false,Rx,0,8,2F,78,00,40,00,7D,FF,FF,
559650873,000001A1,false,Rx,0,5,DB,C4,00,00,81,00,00,00,
559651143,00000140,false,Rx,0,8,31,64,40,9C,00,00,94,FF,
559651382,00000141,false,Rx,0,8,20,74,40,9C,00,00,F4,FF,
559656270,00000199,false,Rx,0,6,FF,FF,DD,7D,FF,3F,00,00,
559656473,0000019A,false,Rx,0,6,FF,FF,00,7F,FF,2F,00,00,
559656691,0000019F,false,Rx,0,6,FF,FF,F2,7F,FF,2F,00,00,
559656929,00000254,false,Rx,0,8,FF,7F,FF,7F,FF,7F,FF,7F,
559657066,00000258,false,Rx,0,2,11,11,00,00,00,00,00,00,
559657242,0000036E,false,Rx,0,5,3D,F7,FE,FF,14,00,00,00,
559657460,000002F2,false,Rx,0,6,00,00,00,00,FF,FF,00,00,
559658069,00000100,false,Rx,0,8,F0,F9,7F,C0,5D,1D,87,70,
559658490,00000112,false,Rx,0,8,BE,24,31,0E,CB,71,45,5B,
559659306,00000197,false,Rx,0,4,80,0E,0E,C0,00,00,00,00,
559660142,0000015F,false,Rx,0,8,CD,F9,00,7D,00,EE,00,7D,
559660710,000000C3,false,Rx,0,8,72,79,00,40,00,7D,FF,FF,
559662165,0000013A,false,Rx,0,8,0D,F5,00,00,00,0E,FF,FF,
559665654,00000163,false,Rx,0,8,FF,FF,41,25,FF,FF,FF,FF,
559665889,00000173,false,Rx,0,8,11,F2,00,02,20,00,D2,10,
559667077,000000A5,false,Rx,0,8,0E,F3,FF,F7,7F,00,00,C1,
559667212,000000AC,false,Rx,0,2,00,F0,00,00,00,00,00,00,
559667450,000000D9,false,Rx,0,8,42,F3,00,10,00,F0,7F,C0,
559667688,000000F3,false,Rx,0,8,6C,03,00,FF,F0,C0,FF,FF,
559668138,00000100,false,Rx,0,8,17,FA,7F,C0,5D,1D,87,70,
559668438,00000112,false,Rx,0,8,BE,24,31,0E,CB,71,45,5B,
559670117,000000EF,false,Rx,0,8,F7,F9,00,7D,21,00,7D,FF,
559670706,000000C3,false,Rx,0,8,95,7A,00,40,00,7D,FF,FF,
559670893,000001A1,false,Rx,0,5,FC,C6,00,00,81,00,00,00,
559671144,00000140,false,Rx,0,8,8B,66,40,9C,00,00,94,FF,
559671383,00000141,false,Rx,0,8,9A,76,40,9C,00,00,F4,FF,
559673130,0000037F,false,Rx,0,2,FF,DD,00,00,00,00,00,00,
559674094,00000096,false,Rx,0,8,58,00,68,96,01,FF,FF,FF,
559674333,00000300,false,Rx,0,8,38,56,59,86,01,00,00,00,
559675694,00000199,false,Rx,0,6,FF,FF,BF,7D,FF,3F,00,00,
559675902,0000019A,false,Rx,0,6,FF,FF,F6,7E,FF,2F,00,00,
559676110,0000019F,false,Rx,0,6,FF,FF,FA,7F,FF,2F,00,00,
559676358,00000254,false,Rx,0,8,FF,7F,FF,7F,FF,7F,FF,7F,
559676483,00000258,false,Rx,0,2,11,11,00,00,00,00,00,00,
559677205,0000019B,false,Rx,0,8,21,4E,40,55,FD,FF,FF,FF,
559678025,00000100,false,Rx,0,8,4A,FB,7F,C0,5D,1D,87,70,
559678644,00000112,false,Rx,0,8,BE,24,31,0E,CB,71,45,5B,
559680027,000002E8,false,Rx,0,8,C0,E8,C3,FF,FF,F4,FE,AF,
559680265,0000015F,false,Rx,0,8,2A,FA,00,7D,00,EE,00,7D,
559680638,000003FD,false,Rx,0,5,18,08,20,00,FF,00,00,00,
559680876,00000108,false,Rx,0,8,00,7D,FF,00,48,F1,FF,FF,
559681116,000000C3,false,Rx,0,8,C8,7B,00,40,00,7D,FF,FF,
559681365,000001B5,false,Rx,0,8,AE,40,D2,71,FF,FF,FF,FF,
559681613,00000206,false,Rx,0,8,02,2B,CE,FF,FF,FF,FF,FF,
559681870,00000212,false,Rx,0,8,F9,F6,F9,FF,FF,FF,FF,FF,
559682111,0000013A,false,Rx,0,8,B7,F7,00,00,00,0E,FF,FF,
559682359,000002DB,false,Rx,0,8,FF,FF,FF,FF,BF,FF,FF,FF,
559682597,000002F1,false,Rx,0,8,37,10,7D,A4,01,92,00,A0,
559682857,0000032B,false,Rx,0,8,00,00,00,00,FF,FF,00,FF,
559683097,00000331,false,Rx,0,8,FF,FF,FF,EF,7F,FE,F7,FF,
559683335,000003E9,false,Rx,0,8,5C,8F,21,C1,70,7D,20,4D,
559685622,00000302,false,Rx,0,7,FF,FF,C5,89,F1,FF,FF,00,
559687311,000000A5,false,Rx,0,8,80,F4,FF,F7,7F,00,00,C1,
559687447,000000AC,false,Rx,0,2,00,F0,00,00,00,00,00,00,
559687683,000000D9,false,Rx,0,8,CC,F4,00,10,00,F0,7F,C0,
559687921,000000F3,false,Rx,0,8,E2,04,00,FF,F0,C0,FF,FF,
559688152,00000100,false,Rx,0,8,C4,FC,7F,C0,5D,1D,87,70,
559688400,00000272,false,Rx,0,8,6E,FE,05,12,FF,FF,FF,FF,
559688618,00000112,false,Rx,0,8,BE,24,31,0E,CB,71,45,5B,
559688836,00000297,false,Rx,0,7,89,ED,F0,ED,F2,92,EA,00,
559689313,00000197,false,Rx,0,4,89,00,0E,C0,00,00,00,00,
559690114,000000EF,false,Rx,0,8,10,FA,00,7D,21,00,7D,FF,
559690692,000000C3,false,Rx,0,8,46,7C,00,40,00,7D,FF,FF,
559690879,000001A1,false,Rx,0,5,09,C8,00,00,81,00,00,00,
559691119,00000201,false,Rx,0,8,BC,36,28,E3,FF,FF,FF,FF,
559691347,00000140,false,Rx,0,8,8A,68,40,9C,00,00,94,FF,
559691585,00000141,false,Rx,0,8,9B,78,40,9C,00,00,F4,FF,
559692510,000007BD,false,Rx,0,8,00,00,00,40,FF,C0,03,08,
559692780,000007BE,false,Rx,0,8,07,1B,01,0B,06,67,00,00,
559693874,000002A5,false,Rx,0,2,02,0B,00,00,00,00,00,00,
559694061,00000349,false,Rx,0,5,FE,FF,FE,FF,00,00,00,00,
559694310,000002FC,false,Rx,0,8,81,00,00,FF,FF,FF,FF,FF,
559694445,000003AC,false,Rx,0,2,FE,CF,00,00,00,00,00,00,
559695702,00000199,false,Rx,0,6,FF,FF,C9,7D,FF,3F,00,00,
559695910,0000019A,false,Rx,0,6,FF,FF,0A,7F,FF,2F,00,00,
559696121,0000019F,false,Rx,0,6,FF,FF,02,80,FF,2F,00,00,
559696359,00000254,false,Rx,0,8,FF,7F,FF,7F,FF,7F,FF,7F,
559696496,00000258,false,Rx,0,2,11,11,00,00,00,00,00,00,
559697042,000002A7,false,Rx,0,5,C0,FD,FE,FF,14,00,00,00,
559697579,000002AE,false,Rx,0,8,FF,FF,FF,FF,FF,FF,FF,48,
559698162,00000100,false,Rx,0,8,99,FD,7F,C0,5D,1D,87,70,
559698390,000001E1,false,Rx,0,6,A8,F8,00,FF,FF,FF,00,00,
559698617,00000112,false,Rx,0,8,BE,24,31,0E,CB,71,45,5B,
559700114,0000015F,false,Rx,0,8,77,FB,00,7D,00,EE,00,7D,
559700693,000000C3,false,Rx,0,8,1B,7D,00,40,00,7D,FF,FF,
559702229,0000013A,false,Rx,0,8,B6,F9,00,00,00,0E,FF,FF,
559702663,0000029E,false,Rx,0,8,47,7C,15,E2,04,FF,FF,FF,
559704064,00000096,false,Rx,0,8,58,00,68,96,01,FF,FF,FF,
559707102,000000A5,false,Rx,0,8,DD,F5,FF,F7,7F,00,00,C1,
559707229,000000AC,false,Rx,0,2,00,F0,00,00,00,00,00,00,
559707476,000000D9,false,Rx,0,8,91,F5,00,10,00,F0,7F,C0,
559707714,000000F3,false,Rx,0,8,BF,05,00,FF,F0,C0,FF,FF,
559707952,00000289,false,Rx,0,8,09,F1,E0,FF,FD,00,EC,01,
559708186,00000100,false,Rx,0,8,7B,FE,7F,C0,5D,1B,87,70,
559708424,00000239,false,Rx,0,8,8E,5E,3D,A8,04,FF,FF,FF,
559708652,00000112,false,Rx,0,8,BE,24,31,0E,CB,71,45,5B,
559708830,000002BB,false,Rx,0,5,2D,FA,5E,25,F2,00,00,00,
559709058,000002F5,false,Rx,0,8,BF,0F,E2,24,26,0A,06,10,
559710115,000000EF,false,Rx,0,8,4D,FB,00,7D,21,00,7D,FF,
559710714,000000C3,false,Rx,0,8,FC,7E,00,40,00,7D,FF,FF,
559710901,000001A1,false,Rx,0,5,2E,CA,00,00,81,00,00,00,
559711151,00000140,false,Rx,0,8,30,6A,40,9C,00,00,94,FF,
559711389,00000141,false,Rx,0,8,21,7A,40,9C,00,00,F4,FF,
559712404,000002B2,false,Rx,0,8,42,0E,D8,04,FF,0F,FF,FF,
559715700,00000199,false,Rx,0,6,FF,FF,E7,7D,FF,3F,00,00,
559715907,0000019A,false,Rx,0,6,FF,FF,00,7F,FF,2F,00,00,
559716115,0000019F,false,Rx,0,6,FF,FF,06,80,FF,2F,00,00,
559716362,00000254,false,Rx,0,8,FF,7F,FF,7F,FF,7F,FF,7F,
559716489,00000258,false,Rx,0,2,11,11,00,00,00,00,00,00,
559718066,00000100,false,Rx,0,8,7F,F0,7F,C0,5D,1D,87,70,
559718499,00000112,false,Rx,0,8,BE,24,31,0E,CB,71,45,5B,
559719305,00000197,false,Rx,0,4,06,01,0E,C0,00,00,00,00,
559719440,000001AE,false,Rx,0,2,F7,FF,00,00,00,00,00,00,
559720121,0000015F,false,Rx,0,8,F9,FC,00,7D,00,EE,00,7D,
559720690,00000206,false,Rx,0,8,8C,2C,CE,FF,FF,FF,FF,FF,
559720939,000000C3,false,Rx,0,8,FD,70,00,40,00,7D,FF,FF,
559722108,0000013A,false,Rx,0,8,0C,FB,00,00,00,0E,FF,FF,
559722418,000002EF,false,Rx,0,8,00,00,00,80,0C,C8,C0,B6,
559723882,00000314,false,Rx,0,3,11,02,FF,00,00,00,00,00,
559725622,00000302,false,Rx,0,7,FF,FF,C5,89,F1,FF,FF,00,
559727063,000002C4,false,Rx,0,8,00,00,FF,00,C8,64,FF,CF,
559727302,000000A5,false,Rx,0,8,3A,F6,FF,F7,7F,00,00,C1,
559727428,000000AC,false,Rx,0,2,00,F0,00,00,00,00,00,00,
559727665,000000D9,false,Rx,0,8,76,F6,00,10,00,F0,7F,C0,
559727913,000000F3,false,Rx,0,8,58,06,00,FF,F0,C0,FF,FF,
559728143,0000019D,false,Rx,0,8,87,AA,90,01,FF,FF,FF,FF,
559728388,00000100,false,Rx,0,8,22,F1,7F,C0,5D,1D,87,70,
559728615,0000012F,false,Rx,0,8,25,58,8A,DD,F1,35,30,88,
559728834,00000112,false,Rx,0,8,BE,24,31,0E,CB,71,45,5B,
559729053,000002C5,false,Rx,0,7,96,F4,00,30,06,70,C8,00,
559729188,000000C0,false,Rx,0,2,FE,40,00,00,00,00,00,00,
559729435,0000003C,false,Rx,0,8,FF,7F,00,01,00,00,FF,FF,
559729644,00000304,false,Rx,0,6,FF,FF,3B,38,FF,FF,00,00,
559729882,000003F9,false,Rx,0,8,9B,FD,80,E0,A6,30,C3,FF,
559730338,000000EF,false,Rx,0,8,C3,FC,00,7D,21,00,7D,FF,
559730689,000000C3,false,Rx,0,8,A0,71,00,40,00,7D,FF,FF,
559730876,000001A1,false,Rx,0,5,47,CC,00,00,81,00,00,00,
559731342,00000140,false,Rx,0,8,E3,6C,40,9C,00,00,94,FF,
559731570,00000141,false,Rx,0,8,F2,7C,40,9C,00,00,F4,FF,
559734029,00000096,false,Rx,0,8,58,00,68,96,01,FF,FF,FF,
559735696,00000199,false,Rx,0,6,FF,FF,DD,7D,FF,3F,00,00,
559735903,0000019A,false,Rx,0,6,FF,FF,0A,7F,FF,2F,00,00,
559736112,0000019F,false,Rx,0,6,FF,FF,F2,7F,FF,2F,00,00,
559736360,00000254,false,Rx,0,8,FF,7F,FF,7F,FF,7F,FF,7F,
559736486,00000258,false,Rx,0,2,11,11,00,00,00,00,00,00,
559738033,0000036F,false,Rx,0,5,9A,F8,FE,FF,14,00,00,00,
559738271,00000100,false,Rx,0,8,C5,F2,7F,C0,5D,1D,87,70,
559738520,00000112,false,Rx,0,8,BE,24,31,0E,CB,71,45,5B,
559739151,000002F5,false,Rx,0,8,BF,0F,E2,24,26,0A,06,10,
559740123,0000015F,false,Rx,0,8,A4,FD,00,7D,00,EE,00,7D,
559740691,000000C3,false,Rx,0,8,47,72,00,40,00,7D,FF,FF,
559740939,00000201,false,Rx,0,8,CC,36,62,E3,FF,FF,FF,FF,
559742159,0000013A,false,Rx,0,8,DF,FD,00,00,00,0E,FF,FF,
559742531,000007BD,false,Rx,0,8,04,00,00,00,00,00,00,80,
559742801,000007BE,false,Rx,0,8,00,C0,FA,1C,02,00,00,00,
559747082,000000A5,false,Rx,0,8,67,F7,FF,F7,7F,00,00,C1,
559747214,000000AC,false,Rx,0,2,00,F0,00,00,00,00,00,00,
559747451,000000D9,false,Rx,0,8,2B,F7,00,10,00,F0,7F,C0,
559747700,000000F3,false,Rx,0,8,05,07,00,FF,F0,C0,FF,FF,
559747929,000001B3,false,Rx,0,8,FC,00,00,F1,04,78,8A,AA,
559748159,00000100,false,Rx,0,8,98,F3,7F,C0,5D,1D,87,70,
559748377,00000362,false,Rx,0,7,3C,B1,0B,3A,C3,0B,E5,00,
559748594,00000112,false,Rx,0,8,BE,24,31,0E,CB,71,45,5B,
559749305,00000197,false,Rx,0,4,8A,02,0E,C0,00,00,00,00,
559750110,000000EF,false,Rx,0,8,9E,FD,00,7D,21,00,7D,FF,
559750709,000000C3,false,Rx,0,8,1A,73,00,40,00,7D,FF,FF,
559750895,000001A1,false,Rx,0,5,60,CE,00,00,81,00,00,00,
559751135,00000140,false,Rx,0,8,59,6E,40,9C,00,00,94,FF,
559751377,00000141,false,Rx,0,8,48,7E,40,9C,00,00,F4,FF,
559755695,00000199,false,Rx,0,6,FF,FF,C9,7D,FF,3F,00,00,
559755908,0000019A,false,Rx,0,6,FF,FF,14,7F,FF,2F,00,00,
559756116,0000019F,false,Rx,0,6,FF,FF,F6,7F,FF,2F,00,00,
559756354,00000254,false,Rx,0,8,FF,7F,FF,7F,FF,7F,FF,7F,
559756491,00000258,false,Rx,0,2,11,11,00,00,00,00,00,00,
559757418,000002F2,false,Rx,0,6,00,00,00,00,FF,FF,00,00,
559758135,00000100,false,Rx,0,8,16,F4,7F,C0,5D,1D,87,70,
559758568,00000112,false,Rx,0,8,BE,24,31,0E,CB,71,45,5B,
559759220,00000239,false,Rx,0,8,8E,5E,3D,A8,04,FF,FF,FF,
559760119,0000015F,false,Rx,0,8,43,FE,00,7D,00,EE,00,7D,
559760707,00000206,false,Rx,0,8,97,2D,CF,FF,FF,FF,FF,FF,
559760966,000000C3,false,Rx,0,8,94,74,00,40,00,7D,FF,FF,
559762093,000001D0,false,Rx,0,8,6D,FE,DF,FF,FF,FF,FF,FF,
559762331,0000013A,false,Rx,0,8,39,F0,00,00,00,0E,FF,FF,
559762518,000001B9,false,Rx,0,5,FF,FF,FF,14,FF,00,00,00,
559764098,00000096,false,Rx,0,8,58,00,68,96,01,FF,FF,FF,
559765656,00000163,false,Rx,0,8,FF,FF,41,25,FF,FF,FF,FF,
559765902,00000173,false,Rx,0,8,10,FC,00,02,20,00,D2,10,
559766121,00000302,false,Rx,0,7,FF,FF,C5,89,F1,FF,FF,00,
559767112,000000A5,false,Rx,0,8,3B,F8,FF,F7,7F,00,00,C1,
559767249,000000AC,false,Rx,0,2,00,F0,00,00,00,00,00,00,
559767486,000000D9,false,Rx,0,8,77,F8,00,10,00,F0,7F,C0,
559767724,000000F3,false,Rx,0,8,59,08,00,FF,F0,C0,FF,FF,
559768166,00000100,false,Rx,0,8,4B,F5,7F,C0,5D,1D,87,70,
559768609,00000112,false,Rx,0,8,BE,24,31,0E,CB,71,45,5B,
559768838,00000431,false,Rx,0,8,C6,FD,46,00,0E,98,F7,4B,
559770108,000000EF,false,Rx,0,8,79,FE,00,7D,21,00,7D,FF,
559770686,000000C3,false,Rx,0,8,C9,75,00,40,00,7D,FF,FF,
559770873,000001A1,false,Rx,0,5,08,C1,00,00,81,00,00,00,
559771144,00000140,false,Rx,0,8,05,61,40,9C,00,00,94,FF,
559771382,00000141,false,Rx,0,8,14,71,40,9C,00,00,F4,FF,
559775685,00000199,false,Rx,0,6,FF,FF,C9,7D,FF,3F,00,00,
559775898,0000019A,false,Rx,0,6,FF,FF,14,7F,FF,2F,00,00,
559776106,0000019F,false,Rx,0,6,FF,FF,10,80,FF,2F,00,00,
559776345,00000254,false,Rx,0,8,FF,7F,FF,7F,FF,7F,FF,7F,
559776481,00000258,false,Rx,0,2,11,11,00,00,00,00,00,00,
559777037,000002A7,false,Rx,0,5,7A,FE,FE,FF,14,00,00,00,
559778042,00000100,false,Rx,0,8,AC,F6,7F,C0,5D,1D,87,70,
559778661,00000112,false,Rx,0,8,BE,24,31,0E,CB,71,45,5B,
559779302,00000197,false,Rx,0,4,05,03,0E,C0,00,00,00,00,
559779961,000002E8,false,Rx,0,8,C0,E8,C3,FF,FF,F4,F0,09,
559780202,0000015F,false,Rx,0,8,42,F0,00,7D,00,EE,00,7D,
559780430,00000432,false,Rx,0,8,3C,DB,15,BD,55,7C,3E,BC,
559780627,000003FD,false,Rx,0,5,85,09,20,00,FF,00,00,00,
559780875,00000108,false,Rx,0,8,00,7D,FF,00,48,F1,FF,FF,
559781115,000000C3,false,Rx,0,8,2E,76,00,40,00,7D,FF,FF,
559781364,00000212,false,Rx,0,8,A4,F7,F9,FF,FF,FF,FF,FF,
559781612,000002DB,false,Rx,0,8,FF,FF,FF,FF,BF,FF,FF,FF,
559781852,000002F1,false,Rx,0,8,37,10,7D,A4,01,92,00,A0,
559782112,0000013A,false,Rx,0,8,83,F2,00,00,00,0E,FF,FF,
559787107,000000A5,false,Rx,0,8,66,F9,FF,F7,7F,00,00,C1,
559787238,000000AC,false,Rx,0,2,00,F0,00,00,00,00,00,00,
559787486,000000D9,false,Rx,0,8,2A,F9,00,10,00,F0,7F,C0,
559787724,000000F3,false,Rx,0,8,04,09,00,FF,F0,C0,FF,FF,
559788149,00000100,false,Rx,0,8,F1,F7,7F,C0,5D,1D,87,70,
559788583,00000112,false,Rx,0,8,BE,24,31,0E,CB,71,45,5B,
559789568,000003D8,false,Rx,0,8,03,FF,FF,FF,FF,FF,FF,FF,
559790105,000000EF,false,Rx,0,8,78,F0,00,7D,21,00,7D,FF,
559790684,000000C3,false,Rx,0,8,73,77,00,40,00,7D,FF,FF,
559790871,000001A1,false,Rx,0,5,2F,C3,00,00,81,00,00,00,
559791111,00000201,false,Rx,0,8,DD,36,9C,E3,FF,FF,FF,FF,
559791353,00000140,false,Rx,0,8,BF,63,40,9C,00,00,94,FF,
559791581,00000141,false,Rx,0,8,AE,73,40,9C,00,00,F4,FF,
559792511,000007BD,false,Rx,0,8,00,00,00,40,FF,C0,03,08,
559792790,000007BE,false,Rx,0,8,05,00,00,00,00,00,00,E0,
559793990,00000096,false,Rx,0,8,58,00,68,96,01,FF,FF,FF,
559794147,00000346,false,Rx,0,4,3C,DD,70,F0,00,00,00,00,
559795691,00000199,false,Rx,0,6,FF,FF,BF,7D,FF,3F,00,00,
559795898,0000019A,false,Rx,0,6,FF,FF,1E,7F,FF,2F,00,00,
559796106,0000019F,false,Rx,0,6,FF,FF,29,80,FF,2F,00,00,
559796345,00000254,false,Rx,0,8,FF,7F,FF,7F,FF,7F,FF,7F,
559796480,00000258,false,Rx,0,2,11,11,00,00,00,00,00,00,
559797494,000002AE,false,Rx,0,8,FF,FF,FF,FF,FF,FF,FF,48,
559798053,00000100,false,Rx,0,8,AD,F8,7F,C0,5D,1D,87,70,
559798486,00000112,false,Rx,0,8,BE,24,31,0E,CB,71,55,5B,
559800117,0000015F,false,Rx,0,8,1F,F1,00,7D,00,EE,00,7D,
559800706,00000206,false,Rx,0,8,70,2E,CF,FF,FF,FF,FF,FF,
559800966,000000C3,false,Rx,0,8,2F,78,00,40,00,7D,FF,FF,
559802153,0000013A,false,Rx,0,8,50,F4,00,00,00,0E,FF,FF,
559802485,0000029E,false,Rx,0,8,47,7C,15,E2,04,FF,FF,FF,
559802992,000002ED,false,Rx,0,3,EF,08,02,00,00,00,00,00,
559805611,00000302,false,Rx,0,7,FF,FF,C5,89,F1,FF,FF,00,
559807114,000000A5,false,Rx,0,8,81,FA,FF,F7,7F,00,00,C1,
559807249,000000AC,false,Rx,0,2,00,F0,00,00,00,00,00,00,
559807496,000000D9,false,Rx,0,8,CD,FA,00,10,00,F0,7F,C0,
559807734,000000F3,false,Rx,0,8,E3,0A,00,FF,F0,C0,FF,FF,
559807963,00000289,false,Rx,0,8,EE,F2,E0,FF,FD,00,EC,01,
559808203,00000100,false,Rx,0,8,F0,F9,7F,C0,5D,1D,87,70,
559808379,000002BB,false,Rx,0,5,45,F5,5E,25,F2,00,00,00,
559808608,00000112,false,Rx,0,8,BE,24,31,0E,CB,71,55,5B,
559808836,00000239,false,Rx,0,8,8E,60,3D,A8,04,FF,FF,FF,
559809301,00000197,false,Rx,0,4,8F,04,0E,C0,00,00,00,00,
559809612,0000031E,false,Rx,0,8,33,00,00,FF,78,FF,FF,FF,
559810118,000000EF,false,Rx,0,8,25,F1,00,7D,21,00,7D,FF,
559810686,000000C3,false,Rx,0,8,72,79,00,40,00,7D,FF,FF,
559810873,000001A1,false,Rx,0,5,46,C5,00,00,81,00,00,00,
559811154,00000140,false,Rx,0,8,6C,65,40,9C,00,00,94,FF,
559811392,00000141,false,Rx,0,8,7D,75,40,9C,00,00,F4,FF,
559812504,000002B2,false,Rx,0,8,42,0E,D8,04,FF,0F,FF,FF,
559813134,0000021F,false,Rx,0,8,00,00,00,00,00,EE,F0,FF,
559815699,00000199,false,Rx,0,6,FF,FF,C9,7D,FF,3F,00,00,
559815912,0000019A,false,Rx,0,6,FF,FF,1E,7F,FF,2F,00,00,
559816110,0000019F,false,Rx,0,6,FF,FF,02,80,FF,2F,00,00,
559816359,00000254,false,Rx,0,8,FF,7F,FF,7F,FF,7F,FF,7F,
559816484,00000258,false,Rx,0,2,11,11,00,00,00,00,00,00,
559817031,0000036E,false,Rx,0,5,55,F8,FE,FF,14,00,00,00,
559818087,0000031C,false,Rx,0,8,FF,FF,FF,FF,FF,FF,FF,FF,
559818325,00000100,false,Rx,0,8,17,FA,7F,C0,5D,1D,87,70,
559818522,0000033B,false,Rx,0,6,DC,FE,DC,FF,FF,FF,00,00,
559818751,00000112,false,Rx,0,8,BE,24,31,0E,CB,71,55,5B,
559819298,000001AE,false,Rx,0,2,F7,FF,00,00,00,00,00,00,
559820118,0000015F,false,Rx,0,8,F8,F2,00,7D,00,EE,00,7D,
559820686,000000C3,false,Rx,0,8,95,7A,00,40,00,7D,FF,FF,
559822181,0000013A,false,Rx,0,8,EA,F6,00,00,00,0E,FF,FF,
559822790,000002EF,false,Rx,0,8,00,00,00,80,0C,C8,C0,B6,
559824018,00000096,false,Rx,0,8,58,00,68,96,01,FF,FF,FF,
559827056,000002C4,false,Rx,0,8,00,00,FF,00,C8,64,FF,CF,
559827284,000000A5,false,Rx,0,8,DC,FB,FF,F7,7F,00,00,C1,
559827419,000000AC,false,Rx,0,2,00,F0,00,00,00,00,00,00,
559827656,000000D9,false,Rx,0,8,90,FB,00,10,00,F0,7F,C0,
559827908,000000F3,false,Rx,0,8,BE,0B,00,FF,F0,C0,FF,FF,
559828137,00000100,false,Rx,0,8,4A,FB,7F,C0,5D,1D,87,70,
559828272,0000024D,false,Rx,0,2,C0,FF,00,00,00,00,00,00,
559828499,0000012F,false,Rx,0,8,78,59,8A,DD,F1,35,30,88,
559828707,000002C5,false,Rx,0,7,D0,F5,00,30,06,70,C8,00,
559828935,00000112,false,Rx,0,8,BE,24,31,0E,CB,71,55,5B,
559829092,000003CB,false,Rx,0,4,DE,AD,C8,AB,00,00,00,00,
559829341,0000003C,false,Rx,0,8,FF,7F,00,01,00,00,FF,FF,
559829579,000002F5,false,Rx,0,8,BF,0F,E2,24,26,0A,06,10,
559829807,00000431,false,Rx,0,8,C6,FD,45,00,0E,98,F7,4B,
559830134,000000EF,false,Rx,0,8,C2,F2,00,7D,21,00,7D,FF,
559830690,000000C3,false,Rx,0,8,C8,7B,00,40,00,7D,FF,FF,
559830878,000001A1,false,Rx,0,5,61,C7,00,00,81,00,00,00,
559831138,00000140,false,Rx,0,8,D6,67,40,9C,00,00,94,FF,
559831366,00000141,false,Rx,0,8,C7,77,40,9C,00,00,F4,FF,
559833093,00000369,false,Rx,0,5,FF,FD,FF,FF,FF,00,00,00,
559835686,00000199,false,Rx,0,6,FF,FF,B5,7D,FF,3F,00,00,
559835893,0000019A,false,Rx,0,6,FF,FF,28,7F,FF,2F,00,00,
559836099,0000019F,false,Rx,0,6,FF,FF,EE,7F,FF,2F,00,00,
559836348,00000254,false,Rx,0,8,FF,7F,FF,7F,FF,7F,FF,7F,
559836473,00000258,false,Rx,0,2,11,11,00,00,00,00,00,00,
559838061,00000100,false,Rx,0,8,C4,FC,7F,C0,5D,1D,87,70,
559838289,000003A7,false,Rx,0,7,D0,F1,00,00,1F,11,F0,00,
559838506,00000112,false,Rx,0,8,BE,24,31,0E,CB,71,55,5B,
559838643,000003E6,false,Rx,0,2,50,00,00,00,00,00,00,00,
559839365,000003E9,false,Rx,0,8,5C,8F,21,C1,70,7D,20,4C,
559839531,00000197,false,Rx,0,4,00,05,0E,C0,00,00,00,00,
559839779,000002FA,false,Rx,0,8,45,00,30,FF,FF,FF,FF,FF,
559840120,0000015F,false,Rx,0,8,A5,F3,00,7D,00,EE,00,7D,
559840707,00000206,false,Rx,0,8,37,20,CE,FF,FF,FF,FF,FF,
559840936,00000301,false,Rx,0,7,FF,FF,24,88,FF,FF,2F,00,
559841176,000000C3,false,Rx,0,8,46,7C,00,40,00,7D,FF,FF,
559841424,00000201,false,Rx,0,8,ED,36,D7,E3,FF,FF,FF,FF,
559842090,0000013A,false,Rx,0,8,EB,F8,00,00,00,0E,FF,FF,
559842494,000007BE,false,Rx,0,8,0B,00,00,00,00,00,00,00,
559845616,00000302,false,Rx,0,7,FF,FF,C5,89,F1,FF,FF,00,
559847129,000000A5,false,Rx,0,8,52,FC,FF,F7,7F,00,00,C1,
559847264,000000AC,false,Rx,0,2,00,F0,00,00,00,00,00,00,
559847501,000000D9,false,Rx,0,8,1E,FC,00,10,00,F0,7F,C0,
559847750,000000F3,false,Rx,0,8,30,0C,00,FF,F0,C0,FF,FF,
559847979,000001B3,false,Rx,0,8,FC,00,00,F2,04,78,8A,AB,
559848212,00000100,false,Rx,0,8,99,FD,7F,C0,5D,1D,87,70,
559848440,00000112,false,Rx,0,8,BE,24,31,0E,CB,71,55,5B,
559848679,000003B4,false,Rx,0,8,00,00,0D,F4,BD,FF,09,B2,
559850104,000000EF,false,Rx,0,8,9F,F3,00,7D,21,00,7D,FF,
559850712,000000C3,false,Rx,0,8,1B,7D,00,40,00,7D,FF,FF,
559850900,000001A1,false,Rx,0,5,94,C9,00,00,81,00,00,00,
559851139,00000140,false,Rx,0,8,D7,69,40,9C,00,00,94,FF,
559851377,00000141,false,Rx,0,8,C6,79,40,9C,00,00,F4,FF,
559854084,00000096,false,Rx,0,8,58,00,68,96,01,FF,FF,FF,
559855709,00000199,false,Rx,0,6,FF,FF,B5,7D,FF,3F,00,00,
559855916,0000019A,false,Rx,0,6,FF,FF,3C,7F,FF,2F,00,00,
559856132,0000019F,false,Rx,0,6,FF,FF,FB,7F,FF,2F,00,00,
559856371,00000254,false,Rx,0,8,FF,7F,FF,7F,FF,7F,FF,7F,
559856507,00000258,false,Rx,0,2,11,11,00,00,00,00,00,00,
559856734,00000459,false,Rx,0,8,1C,F8,A2,7E,71,C8,86,8B,
559857026,000002A7,false,Rx,0,5,8F,F0,FE,FF,14,00,00,00,
559857427,000002F2,false,Rx,0,6,00,00,00,00,FF,FF,00,00,
559858166,00000100,false,Rx,0,8,7E,FE,7F,C0,5D,1D,87,70,
559858601,00000112,false,Rx,0,8,BE,24,31,0E,CB,71,55,5B,
559860149,0000015F,false,Rx,0,8,2B,F4,00,7D,00,EE,00,7D,
559860695,000000C3,false,Rx,0,8,FC,7E,00,40,00,7D,FF,FF,
559862171,0000013A,false,Rx,0,8,51,FA,00,00,00,0E,FF,FF,
559865653,00000163,false,Rx,0,8,FF,FF,41,25,FF,FF,FF,FF,
559865887,00000173,false,Rx,0,8,25,F7,00,02,20,00,D2,10,
559867085,000000A5,false,Rx,0,8,0F,FD,FF,F7,7F,00,00,C1,
559867221,000000AC,false,Rx,0,2,00,F0,00,00,00,00,00,00,
559867458,000000D9,false,Rx,0,8,43,FD,00,10,00,F0,7F,C0,
559867709,000000F3,false,Rx,0,8,6D,0D,00,FF,F0,C0,FF,FF,
559868176,00000100,false,Rx,0,8,7F,F0,7F,C0,5D,1D,87,70,
559868621,00000112,false,Rx,0,8,BE,24,31,0E,CB,71,55,5B,
559869314,00000197,false,Rx,0,4,8C,06,0E,C0,00,00,00,00,
559870110,000000EF,false,Rx,0,8,11,F4,00,7D,21,00,7D,FF,
559870688,000000C3,false,Rx,0,8,FD,70,00,40,00,7D,FF,FF,
559870876,000001A1,false,Rx,0,5,B3,CB,00,00,81,00,00,00,
559871145,00000140,false,Rx,0,8,6D,6B,40,9C,00,00,94,FF,
559871383,00000141,false,Rx,0,8,7C,7B,40,9C,00,00,F4,FF,
559871623,000003C0,false,Rx,0,8,DD,DD,DD,FD,FF,FF,FF,FF,
559873126,0000037F,false,Rx,0,2,FF,DE,00,00,00,00,00,00,
559875697,00000199,false,Rx,0,6,FF,FF,BF,7D,FF,3F,00,00,
559875899,0000019A,false,Rx,0,6,FF,FF,14,7F,FF,2F,00,00,
559876118,0000019F,false,Rx,0,6,FF,FF,FB,7F,FF,2F,00,00,
559876357,00000254,false,Rx,0,8,FF,7F,FF,7F,FF,7F,FF,7F,
559876492,00000258,false,Rx,0,2,11,11,00,00,00,00,00,00,
559876842,000002C3,false,Rx,0,8,06,15,0F,00,FF,70,FF,FF,
559877165,0000019B,false,Rx,0,8,20,40,40,55,FD,FF,FF,FF,
559877403,00000348,false,Rx,0,8,00,00,0D,53,FE,E5,9A,CB,
559878093,00000100,false,Rx,0,8,22,F1,7F,C0,5D,1D,87,70,
559878775,00000112,false,Rx,0,8,BE,24,31,0E,CB,71,55,5B,
559880116,0000015F,false,Rx,0,8,76,F5,00,7D,00,EE,00,7D,
559880344,00000431,false,Rx,0,8,C6,FD,45,00,0E,98,F7,4B,
559880644,000003FD,false,Rx,0,5,3F,0A,20,00,FF,00,00,00,
559880883,00000108,false,Rx,0,8,00,7D,FF,00,48,F1,FF,FF,
559881132,000000C3,false,Rx,0,8,A0,71,00,40,00,7D,FF,FF,
559881350,000000F5,false,Rx,0,7,DC,DC,00,82,00,82,00,00,
559881516,000000FF,false,Rx,0,4,D8,24,F0,00,00,00,00,00,
559881755,000002E8,false,Rx,0,8,C0,E8,C3,FF,FF,F4,F1,14,
559881994,000001B5,false,Rx,0,8,F3,41,D2,71,FF,FF,FF,FF,
559882232,0000013A,false,Rx,0,8,82,FC,00,00,00,0E,FF,FF,
559882471,00000201,false,Rx,0,8,FA,36,05,E4,FF,FF,FF,FF,
559882720,00000206,false,Rx,0,8,6A,21,CE,FF,FF,FF,FF,FF,
559882968,0000030B,false,Rx,0,8,6E,F9,FF,FF,F1,FF,FF,FF,
559883209,00000212,false,Rx,0,8,F8,F8,F9,FF,FF,FF,FF,FF,
559883467,000002DB,false,Rx,0,8,FF,FF,FF,FF,BF,FF,FF,FF,
559883726,000002F1,false,Rx,0,8,37,10,7D,9E,01,92,00,A0,
559883976,000002FA,false,Rx,0,8,45,00,30,FF,FF,FF,FF,FF,
559884216,00000096,false,Rx,0,8,58,00,68,96,01,FF,FF,FF,
559884362,00000314,false,Rx,0,3,11,02,FF,00,00,00,00,00,
559884609,0000032B,false,Rx,0,8,00,00,00,00,FF,FF,00,FF,
559884859,00000331,false,Rx,0,8,FF,FF,FF,EF,7F,FE,F7,FF,
559885005,0000038C,false,Rx,0,2,FD,FF,00,00,00,00,00,00,
559885253,000003AD,false,Rx,0,8,00,F0,FF,FF,FF,FF,FF,F9,
559885420,000003E5,false,Rx,0,3,FD,FF,FF,00,00,00,00,00,
559885555,000003E8,false,Rx,0,2,F1,FF,00,00,00,00,00,00,
559885781,00000302,false,Rx,0,7,FF,FF,C5,89,F1,FF,FF,00,
559886013,000003E9,false,Rx,0,8,5C,8F,21,C1,70,7D,20,4C,
559886283,0000041E,false,Rx,0,8,00,03,CF,FF,FF,FF,FF,FF,
559887489,000000A5,false,Rx,0,8,E8,FE,FF,F7,7F,00,00,C1,
559887614,000000AC,false,Rx,0,2,00,F0,00,00,00,00,00,00,
559887863,000000D9,false,Rx,0,8,A4,FE,00,10,00,F0,7F,C0,
559888096,000000F3,false,Rx,0,8,8A,0E,00,FF,F0,C0,FF,FF,
559888334,00000100,false,Rx,0,8,C5,F2,7F,C0,5D,1D,87,70,
559888553,00000112,false,Rx,0,8,BE,24,31,0E,CB,71,55,5B,
559888791,00000272,false,Rx,0,8,6F,F0,05,12,FF,FF,FF,FF,
559889000,00000297,false,Rx,0,7,43,EE,F0,ED,F2,92,EA,00,
559889516,0000059A,false,Rx,0,8,12,00,05,08,3B,00,00,00,
559890103,000000EF,false,Rx,0,8,4C,F5,00,7D,21,00,7D,FF,
559890639,000001A1,false,Rx,0,5,DA,CD,00,00,81,00,00,00,
559890878,000000C3,false,Rx,0,8,47,72,00,40,00,7D,FF,FF,
559891127,00000140,false,Rx,0,8,BE,6D,40,9C,00,00,94,FF,
559891366,00000141,false,Rx,0,8,AF,7D,40,9C,00,00,F4,FF,
559891595,00000201,false,Rx,0,8,FE,36,11,E4,FF,FF,FF,FF,
559893510,000007BD,false,Rx,0,8,00,00,00,40,FF,C0,03,08,
559893779,000007BE,false,Rx,0,8,0C,0F,04,6A,00,00,00,00,
559893915,000002A5,false,Rx,0,2,02,0B,00,00,00,00,00,00,
559894102,00000349,false,Rx,0,5,FE,FF,FE,FF,00,00,00,00,
559896252,00000199,false,Rx,0,6,FF,FF,BF,7D,FF,3F,00,00,
559896459,0000019A,false,Rx,0,6,FF,FF,0A,7F,FF,2F,00,00,
559896666,0000019F,false,Rx,0,6,FF,FF,FC,7F,FF,2F,00,00,
559896914,00000254,false,Rx,0,8,FF,7F,FF,7F,FF,7F,FF,7F,
559897042,00000258,false,Rx,0,2,11,11,00,00,00,00,00,00,
559897268,00000458,false,Rx,0,8,DC,F4,A2,7E,EB,C7,86,8B,
559897496,0000043D,false,Rx,0,8,0D,FF,EB,FF,29,25,81,50,
559897746,000002AE,false,Rx,0,8,FF,FF,FF,FF,FF,FF,FF,48,
559898036,0000036F,false,Rx,0,5,07,F9,FE,FF,14,00,00,00,
559898263,00000100,false,Rx,0,8,98,F3,7F,C0,5D,1D,87,70,
559898492,00000112,false,Rx,0,8,BE,24,31,0E,CB,71,55,5B,
559898690,000001E1,false,Rx,0,6,C2,F9,00,FF,FF,FF,00,00,
559899310,00000197,false,Rx,0,4,03,07,0E,C0,00,00,00,00,
559900118,0000015F,false,Rx,0,8,91,F6,00,7D,00,EE,00,7D,
559900685,000000C3,false,Rx,0,8,1A,73,00,40,00,7D,FF,FF,
559902221,0000013A,false,Rx,0,8,38,FE,00,00,00,0E,FF,FF,
559902594,0000029E,false,Rx,0,8,47,7C,15,E2,04,FF,FF,FF,
559903947,0000034F,false,Rx,0,2,FC,FF,00,00,00,00,00,00,
559907097,000000A5,false,Rx,0,8,E9,F0,FF,F7,7F,00,00,C1,
559907228,000000AC,false,Rx,0,2,00,F0,00,00,00,00,00,00,
559907475,000000D9,false,Rx,0,8,A5,F0,00,10,00,F0,7F,C0,
559907715,000000F3,false,Rx,0,8,8B,00,00,FF,F0,C0,FF,FF,
559907953,00000289,false,Rx,0,8,B3,F3,E0,FF,FD,00,EC,01,
559908182,00000100,false,Rx,0,8,16,F4,7F,C0,5D,1D,87,70,
559908420,00000239,false,Rx,0,8,8E,61,3D,A8,04,FF,FF,FF,
559908639,00000112,false,Rx,0,8,BE,24,31,0E,CB,71,55,5B,
559908815,000002BB,false,Rx,0,5,96,F0,5E,25,F2,00,00,00,
559910106,000000EF,false,Rx,0,8,AB,F6,00,7D,21,00,7D,FF,
559910693,000000C3,false,Rx,0,8,94,74,00,40,00,7D,FF,FF,
559910881,000001A1,false,Rx,0,5,95,C0,00,00,81,00,00,00,
559911161,00000140,false,Rx,0,8,58,60,40,9C,00,00,94,FF,
559911378,00000141,false,Rx,0,8,49,70,40,9C,00,00,F4,FF,
559912000,00000340,false,Rx,0,2,FC,FF,00,00,00,00,00,00,
559912134,00000389,false,Rx,0,2,FF,F0,00,00,00,00,00,00,
559912609,000002B2,false,Rx,0,8,42,0E,D8,04,FF,0F,FF,FF,
559914129,00000096,false,Rx,0,8,58,00,68,96,01,FF,FF,FF,
559915692,00000199,false,Rx,0,6,FF,FF,C9,7D,FF,3F,00,00,
559915899,0000019A,false,Rx,0,6,FF,FF,32,7F,FF,2F,00,00,
559916117,0000019F,false,Rx,0,6,FF,FF,FB,7F,FF,2F,00,00,
559916356,00000254,false,Rx,0,8,FF,7F,FF,7F,FF,7F,FF,7F,
559916492,00000258,false,Rx,0,2,11,11,00,00,00,00,00,00,
559917204,0000043C,false,Rx,0,8,FE,FE,FF,FF,FF,FF,FF,FF,
559918056,00000100,false,Rx,0,8,4B,F5,7F,C0,5D,1D,87,70,
559918490,00000112,false,Rx,0,8,BE,24,31,0E,CB,71,55,5B,
559919294,000001AE,false,Rx,0,2,F7,FF,00,00,00,00,00,00,
559920109,0000015F,false,Rx,0,8,CC,F7,00,7D,00,EE,00,7D,
559920686,00000206,false,Rx,0,8,8D,22,CE,FF,FF,FF,FF,FF,
559920936,000000C3,false,Rx,0,8,C9,75,00,40,00,7D,FF,FF,
559922094,0000013A,false,Rx,0,8,64,F1,00,00,00,0E,FF,FF,
559922621,000002EF,false,Rx,0,8,00,00,00,80,0C,C8,C0,B6,
559925611,00000302,false,Rx,0,7,FF,FF,C5,89,F1,FF,FF,00,
559927052,000002C4,false,Rx,0,8,00,00,FF,00,C8,64,FF,CF,
559927290,000000A5,false,Rx,0,8,B4,F1,FF,F7,7F,00,00,C1,
559927539,000000D9,false,Rx,0,8,F8,F1,00,10,00,F0,7F,C0,
559927665,000000AC,false,Rx,0,2,00,F0,00,00,00,00,00,00,
559927902,000000F3,false,Rx,0,8,D6,01,00,FF,F0,C0,FF,FF,
559928111,00000304,false,Rx,0,6,FF,FF,3B,38,FF,FF,00,00,
559928338,00000100,false,Rx,0,8,AC,F6,7F,C0,5D,1D,87,70,
559928567,00000112,false,Rx,0,8,BE,24,31,0E,CB,71,55,5B,
559928795,0000012F,false,Rx,0,8,9F,5A,8A,DD,F1,35,30,88,
559929004,000002C5,false,Rx,0,7,1A,F6,00,30,06,70,C8,00,
559929243,000002F5,false,Rx,0,8,BF,0F,E2,24,26,0A,06,10,
559929399,00000197,false,Rx,0,4,85,08,0E,C0,00,00,00,00,
559930093,000000EF,false,Rx,0,8,F6,F7,00,7D,21,00,7D,FF,
559930639,000001A1,false,Rx,0,5,B2,C2,00,00,81,00,00,00,
559930878,000000C3,false,Rx,0,8,2E,76,00,40,00,7D,FF,FF,
559931117,00000140,false,Rx,0,8,E2,62,40,9C,00,00,94,FF,
559931356,00000141,false,Rx,0,8,F3,72,40,9C,00,00,F4,FF,
559931595,0000003C,false,Rx,0,8,FF,7F,00,01,00,00,FF,FF,
559931737,000000C0,false,Rx,0,2,F0,40,00,00,00,00,00,00,
559936250,00000199,false,Rx,0,6,FF,FF,C9,7D,FF,3F,00,00,
559936452,0000019A,false,Rx,0,6,FF,FF,14,7F,FF,2F,00,00,
559936669,0000019F,false,Rx,0,6,FF,FF,F9,7F,FF,2F,00,00,
559936919,00000254,false,Rx,0,8,FF,7F,FF,7F,FF,7F,FF,7F,
559937046,00000258,false,Rx,0,2,11,11,00,00,00,00,00,00,
559937221,000002A7,false,Rx,0,5,12,F1,FE,FF,14,00,00,00,
559938139,00000100,false,Rx,0,8,F1,F7,7F,C0,5D,1D,87,70,
559938579,00000112,false,Rx,0,8,BE,24,31,0E,CB,71,55,5B,
559940138,0000015F,false,Rx,0,8,90,F8,00,7D,00,EE,00,7D,
559940683,000000C3,false,Rx,0,8,73,77,00,40,00,7D,FF,FF,
559940932,00000201,false,Rx,0,8,0E,37,4C,E4,FF,FF,FF,FF,
559942160,0000013A,false,Rx,0,8,DE,F3,00,00,00,0E,FF,FF,
559943471,000007BE,false,Rx,0,8,00,C0,FA,1C,02,00,00,00,
559944081,00000096,false,Rx,0,8,58,00,68,96,01,FF,FF,FF,
559947085,000000A5,false,Rx,0,8,53,F2,FF,F7,7F,00,00,C1,
559947216,000000AC,false,Rx,0,2,00,F0,00,00,00,00,00,00,
559947453,000000D9,false,Rx,0,8,1F,F2,00,10,00,F0,7F,C0,
559947692,000000F3,false,Rx,0,8,31,02,00,FF,F0,C0,FF,FF,
559948158,00000100,false,Rx,0,8,AD,F8,7F,C0,5D,1D,87,70,
559948397,000001B3,false,Rx,0,8,FC,00,00,F3,04,78,8A,AC,
559948615,00000112,false,Rx,0,8,BE,24,31,0E,CB,71,55,5B,
559948832,00000362,false,Rx,0,7,3C,B1,0B,3A,C3,0B,E5,00,
559950111,000000EF,false,Rx,0,8,AA,F8,00,7D,21,00,7D,FF,
559950689,000000C3,false,Rx,0,8,2F,78,00,40,00,7D,FF,FF,
559950876,000001A1,false,Rx,0,5,DB,C4,00,00,81,00,00,00,
559951135,00000140,false,Rx,0,8,31,64,40,9C,00,00,94,FF,
559951376,00000141,false,Rx,0,8,20,74,40,9C,00,00,F4,FF,
559955694,00000199,false,Rx,0,6,FF,FF,D3,7D,FF,3F,00,00,
559955896,0000019A,false,Rx,0,6,FF,FF,0A,7F,FF,2F,00,00,
559956106,0000019F,false,Rx,0,6,FF,FF,01,80,FF,2F,00,00,
559956354,00000254,false,Rx,0,8,FF,7F,FF,7F,FF,7F,FF,7F,
559956479,00000258,false,Rx,0,2,11,11,00,00,00,00,00,00,
559956726,000001B6,false,Rx,0,7,A2,82,02,04,77,C1,F0,00,
559957419,000002F2,false,Rx,0,6,00,00,00,00,FF,FF,00,00,
559958065,00000100,false,Rx,0,8,F0,F9,7F,C0,5D,1D,87,70,
559958510,00000112,false,Rx,0,8,BE,24,31,0E,CB,71,55,5B,
559959131,00000239,false,Rx,0,8,8E,61,3D,A8,04,FF,FF,FF,
559959307,00000197,false,Rx,0,4,0A,09,0E,C0,00,00,00,00,
559960114,0000015F,false,Rx,0,8,CD,F9,00,7D,00,EE,00,7D,
559960692,00000206,false,Rx,0,8,D0,23,CE,FF,FF,FF,FF,FF,
559960941,000000C3,false,Rx,0,8,72,79,00,40,00,7D,FF,FF,
559962087,0000013A,false,Rx,0,8,0D,F5,00,00,00,0E,FF,FF,
559966199,00000163,false,Rx,0,8,FF,FF,41,25,FF,FF,FF,FF,
559966433,00000173,false,Rx,0,8,11,F2,00,02,20,00,D2,10,
559966661,00000302,false,Rx,0,7,FF,FF,C5,89,F1,FF,FF,00,
559967118,000000A5,false,Rx,0,8,0E,F3,FF,F7,7F,00,00,C1,
559967243,000000AC,false,Rx,0,2,00,F0,00,00,00,00,00,00,
559967490,000000D9,false,Rx,0,8,42,F3,00,10,00,F0,7F,C0,
559967729,000000F3,false,Rx,0,8,6C,03,00,FF,F0,C0,FF,FF,
559968153,00000100,false,Rx,0,8,17,FA,7F,C0,5D,1D,87,70,
559968586,00000112,false,Rx,0,8,BE,24,31,0E,CB,71,55,5B,
559968824,00000431,false,Rx,0,8,C6,FD,45,00,0E,98,F7,4B,
559970105,000000EF,false,Rx,0,8,F7,F9,00,7D,21,00,7D,FF,
559970653,000001A1,false,Rx,0,5,FC,C6,00,00,81,00,00,00,
559970890,000000C3,false,Rx,0,8,95,7A,00,40,00,7D,FF,FF,
559971130,00000140,false,Rx,0,8,8B,66,40,9C,00,00,94,FF,
559971368,00000141,false,Rx,0,8,9A,76,40,9C,00,00,F4,FF,
559974052,00000096,false,Rx,0,8,58,00,68,96,01,FF,FF,FF,
559975697,00000199,false,Rx,0,6,FF,FF,BF,7D,FF,3F,00,00,
559975904,0000019A,false,Rx,0,6,FF,FF,0A,7F,FF,2F,00,00,
559976114,0000019F,false,Rx,0,6,FF,FF,10,80,FF,2F,00,00,
559976361,00000254,false,Rx,0,8,FF,7F,FF,7F,FF,7F,FF,7F,
559976486,00000258,false,Rx,0,2,11,11,00,00,00,00,00,00,
559977024,0000036E,false,Rx,0,5,C8,F9,FE,FF,14,00,00,00,
559977487,00000100,false,Rx,0,8,4A,FB,7F,C0,5D,1D,87,70,
559978645,00000112,false,Rx,0,8,BE,24,31,0E,CB,71,55,5B,
559979512,00000432,false,Rx,0,8,3C,DB,15,BD,55,7C,3E,BC,
559980010,000002E8,false,Rx,0,8,C0,E8,C3,FF,FF,F4,F2,33,
559980258,0000015F,false,Rx,0,8,2A,FA,00,7D,00,EE,00,7D,
559980654,000003FD,false,Rx,0,5,A2,0B,20,00,FF,00,00,00,
559980892,00000108,false,Rx,0,8,00,7D,FF,00,48,F1,FF,FF,
559981131,000000C3,false,Rx,0,8,C8,7B,00,40,00,7D,FF,FF,
559981390,00000212,false,Rx,0,8,A5,F9,F9,FF,FF,FF,FF,FF,
559981640,000002DB,false,Rx,0,8,FF,FF,FF,FF,BF,FF,FF,FF,
559981878,000002F1,false,Rx,0,8,37,10,7D,9E,01,92,00,A0,
559982170,0000013A,false,Rx,0,8,B7,F7,00,00,00,0E,FF,FF,
559987111,000000A5,false,Rx,0,8,80,F4,FF,F7,7F,00,00,C1,
559987242,000000AC,false,Rx,0,2,00,F0,00,00,00,00,00,00,
559987479,000000D9,false,Rx,0,8,CC,F4,00,10,00,F0,7F,C0,
559987719,000000F3,false,Rx,0,8,E2,04,00,FF,F0,C0,FF,FF,
559988133,00000100,false,Rx,0,8,C4,FC,7F,C0,5D,1D,87,70,
559988444,00000112,false,Rx,0,8,BE,24,31,0E,CB,71,55,5B,
559989325,00000197,false,Rx,0,4,86,0A,0E,C0,00,00,00,00,
559990110,000000EF,false,Rx,0,8,10,FA,00,7D,21,00,7D,FF,
559990699,000000C3,false,Rx,0,8,46,7C,00,40,00,7D,FF,FF,
559990875,000001A1,false,Rx,0,5,09,C8,00,00,81,00,00,00,
559991114,00000201,false,Rx,0,8,1E,37,86,E4,FF,FF,FF,FF,
559991356,00000140,false,Rx,0,8,8A,68,40,9C,00,00,94,FF,
559991585,00000141,false,Rx,0,8,9B,78,40,9C,00,00,F4,FF,
559993511,000007BD,false,Rx,0,8,00,00,00,40,FF,C0,03,08,
559993781,000007BE,false,Rx,0,8,05,00,00,00,00,00,00,E0,
559995698,00000199,false,Rx,0,6,FF,FF,C9,7D,FF,3F,00,00,
559995905,0000019A,false,Rx,0,6,FF,FF,0A,7F,FF,2F,00,00,
559996114,0000019F,false,Rx,0,6,FF,FF,06,80,FF,2F,00,00,
559996362,00000254,false,Rx,0,8,FF,7F,FF,7F,FF,7F,FF,7F,
559996487,00000258,false,Rx,0,2,11,11,00,00,00,00,00,00,
559997480,000002AE,false,Rx,0,8,FF,FF,FF,FF,FF,FF,FF,48,
559998153,00000100,false,Rx,0,8,99,FD,7F,C0,5D,1D,87,70,
559998588,00000112,false,Rx,0,8,BE,24,31,0E,CB,71,55,5B,
559999209,000001FA,false,Rx,0,8,91,65,45,70,52,47,51,54,
560000109,0000015F,false,Rx,0,8,77,FB,00,7D,00,EE,00,7D,
560000688,00000206,false,Rx,0,8,5E,24,CE,FF,FF,FF,FF,FF,
560000946,000000C3,false,Rx,0,8,1B,7D,00,40,00,7D,FF,FF,
560002166,0000013A,false,Rx,0,8,B6,F9,00,00,00,0E,FF,FF,
560002970,0000029E,false,Rx,0,8,47,7C,15,E2,04,FF,FF,FF,
560004012,00000096,false,Rx,0,8,58,00,68,96,01,FF,FF,FF,
560005616,00000302,false,Rx,0,7,FF,FF,C5,89,F1,FF,FF,00,
560007113,000000A5,false,Rx,0,8,DD,F5,FF,F7,7F,00,00,C1,
560007248,000000AC,false,Rx,0,2,00,F0,00,00,00,00,00,00,
560007495,000000D9,false,Rx,0,8,91,F5,00,10,00,F0,7F,C0,
560007734,000000F3,false,Rx,0,8,BF,05,00,FF,F0,C0,FF,FF,
560007972,00000289,false,Rx,0,8,3D,F4,E0,FF,FD,00,EC,01,
560008212,00000100,false,Rx,0,8,7E,FE,7F,C0,5D,1D,87,70,
560008389,000002BB,false,Rx,0,5,2D,FA,5E,25,F2,00,00,00,
560008606,00000112,false,Rx,0,8,BE,24,31,0E,CB,71,55,5B,
560008845,00000239,false,Rx,0,8,8E,62,3D,A8,04,FF,FF,FF,
560009219,00000363,false,Rx,0,8,DA,76,EE,0A,FF,FF,FF,FF,
560010128,000000EF,false,Rx,0,8,4D,FB,00,7D,21,00,7D,FF,
560010696,000000C3,false,Rx,0,8,FC,7E,00,40,00,7D,FF,FF,
560010883,000001A1,false,Rx,0,5,2E,CA,00,00,81,00,00,00,
560011152,00000140,false,Rx,0,8,30,6A,40,9C,00,00,94,FF,
560011383,00000141,false,Rx,0,8,21,7A,40,9C,00,00,F4,FF,
560012713,000002B2,false,Rx,0,8,42,0E,D8,04,FF,0F,FF,FF,
560015703,00000199,false,Rx,0,6,FF,FF,C9,7D,FF,3F,00,00,
560015906,0000019A,false,Rx,0,6,FF,FF,0A,7F,FF,2F,00,00,
560016116,0000019F,false,Rx,0,6,FF,FF,FB,7F,FF,2F,00,00,
560016364,00000254,false,Rx,0,8,FF,7F,FF,7F,FF,7F,FF,7F,
560016489,00000258,false,Rx,0,2,11,11,00,00,00,00,00,00,
560017026,000002A7,false,Rx,0,5,A8,F2,FE,FF,14,00,00,00,
560018071,00000100,false,Rx,0,8,7F,F0,7F,C0,5D,1D,87,70,
560018320,0000031C,false,Rx,0,8,FF,FF,FF,FF,FF,FF,FF,FF,
560018548,00000112,false,Rx,0,8,BE,24,31,0E,CB,71,55,5B,
560018745,0000033B,false,Rx,0,6,CA,F0,DC,FF,FF,FF,00,00,
560019304,00000197,false,Rx,0,4,09,0B,0E,C0,00,00,00,00,
560019439,000001AE,false,Rx,0,2,F7,FF,00,00,00,00,00,00,
560020136,0000015F,false,Rx,0,8,F9,FC,00,7D,00,EE,00,7D,
560020714,000000C3,false,Rx,0,8,FD,70,00,40,00,7D,FF,FF,
560022094,0000013A,false,Rx,0,8,0C,FB,00,00,00,0E,FF,FF,
560022724,000002EF,false,Rx,0,8,00,00,00,80,0C,C8,C0,B6,
560023807,000002A6,false,Rx,0,2,00,DA,00,00,00,00,00,00,
560027040,000002C4,false,Rx,0,8,00,00,FF,00,C8,64,FF,CF,
560027278,000000A5,false,Rx,0,8,3A,F6,FF,F7,7F,00,00,C1,
560027414,000000AC,false,Rx,0,2,00,F0,00,00,00,00,00,00,
560027652,000000D9,false,Rx,0,8,76,F6,00,10,00,F0,7F,C0,
560027892,000000F3,false,Rx,0,8,58,06,00,FF,F0,C0,FF,FF,
560028121,00000100,false,Rx,0,8,22,F1,7F,C0,5D,1D,87,70,
560028401,0000019D,false,Rx,0,8,87,AA,90,01,FF,FF,FF,FF,
560028619,00000112,false,Rx,0,8,BE,24,31,0E,CB,71,55,5B,
560028847,0000012F,false,Rx,0,8,C2,5B,8A,DD,F1,35,30,88,
560029057,000002C5,false,Rx,0,7,5C,F7,00,30,06,70,C8,00,
560029295,000002F5,false,Rx,0,8,BF,0F,E2,24,26,0A,06,10,
560030099,000000EF,false,Rx,0,8,C3,FC,00,7D,21,00,7D,FF,
560030688,000000C3,false,Rx,0,8,A0,71,00,40,00,7D,FF,FF,
560030875,000001A1,false,Rx,0,5,47,CC,00,00,81,00,00,00,
560031124,00000140,false,Rx,0,8,E3,6C,40,9C,00,00,94,FF,
560031373,0000003C,false,Rx,0,8,FF,7F,00,01,00,00,FF,FF,
560031612,00000141,false,Rx,0,8,F2,7C,40,9C,00,00,F4,FF,
560033959,00000096,false,Rx,0,8,58,00,68,96,01,FF,FF,FF,
560035687,00000199,false,Rx,0,6,FF,FF,E7,7D,FF,3F,00,00,
560035905,0000019A,false,Rx,0,6,FF,FF,00,7F,FF,2F,00,00,
560036112,0000019F,false,Rx,0,6,FF,FF,FA,7F,FF,2F,00,00,
560036360,00000254,false,Rx,0,8,FF,7F,FF,7F,FF,7F,FF,7F,
560036485,00000258,false,Rx,0,2,11,11,00,00,00,00,00,00,
560037589,00000100,false,Rx,0,8,C5,F2,7F,C0,5D,1D,87,70,
560038520,00000112,false,Rx,0,8,BE,24,31,0E,CB,71,55,5B,
560040115,0000015F,false,Rx,0,8,A4,FD,00,7D,00,EE,00,7D,
560040693,00000206,false,Rx,0,8,03,25,CE,FF,FF,FF,FF,FF,
560040911,00000301,false,Rx,0,7,FF,FF,24,88,FF,FF,2F,00,
560041160,000000C3,false,Rx,0,8,47,72,00,40,00,7D,FF,FF,
560041400,00000510,false,Rx,0,8,40,10,80,00,00,01,00,00,
560041638,00000201,false,Rx,0,8,2F,37,C0,E4,FF,FF,FF,FF,
560042091,0000013A,false,Rx,0,8,DF,FD,00,00,00,0E,FF,FF,
560043472,000007BE,false,Rx,0,8,0B,00,00,00,00,00,00,00,
560043896,00000314,false,Rx,0,3,11,02,FF,00,00,00,00,00,
560045638,00000302,false,Rx,0,7,FF,FF,C5,89,F1,FF,FF,00,
560047099,000000A5,false,Rx,0,8,67,F7,FF,F7,7F,00,00,C1,
560047225,000000AC,false,Rx,0,2,00,F0,00,00,00,00,00,00,
560047473,000000D9,false,Rx,0,8,2B,F7,00,10,00,F0,7F,C0,
560047711,000000F3,false,Rx,0,8,05,07,00,FF,F0,C0,FF,FF,
560047949,000003B4,false,Rx,0,8,00,00,0D,F4,BD,FF,09,B2,
560048182,00000100,false,Rx,0,8,98,F3,7F,C0,5D,1D,87,70,
560048411,000001B3,false,Rx,0,8,FC,00,00,F4,04,78,8A,AD,
560048639,00000112,false,Rx,0,8,BE,24,31,0E,CB,71,55,5B,
560049311,00000197,false,Rx,0,4,83,0C,0E,C0,00,00,00,00,
560050118,000000EF,false,Rx,0,8,9E,FD,00,7D,21,00,7D,FF,
560050686,000000C3,false,Rx,0,8,1A,73,00,40,00,7D,FF,FF,
560050873,000001A1,false,Rx,0,5,60,CE,00,00,81,00,00,00,
560051133,00000140,false,Rx,0,8,59,6E,40,9C,00,00,94,FF,
560051372,00000141,false,Rx,0,8,48,7E,40,9C,00,00,F4,FF,
560055744,00000199,false,Rx,0,6,FF,FF,D3,7D,FF,3F,00,00,
560055948,0000019A,false,Rx,0,6,FF,FF,F6,7E,FF,2F,00,00,
560056156,0000019F,false,Rx,0,6,FF,FF,02,80,FF,2F,00,00,
560056394,00000254,false,Rx,0,8,FF,7F,FF,7F,FF,7F,FF,7F,
560056529,00000258,false,Rx,0,2,11,11,00,00,00,00,00,00,
560057406,000002F2,false,Rx,0,6,00,00,00,00,FF,FF,00,00,
560058030,0000036F,false,Rx,0,5,BD,FA,FE,FF,14,00,00,00,
560058268,00000100,false,Rx,0,8,16,F4,7F,C0,5D,1D,87,70,
560058599,00000112,false,Rx,0,8,BE,24,31,0E,CB,71,55,5B,
560060118,0000015F,false,Rx,0,8,43,FE,00,7D,00,EE,00,7D,
560060717,000000C3,false,Rx,0,8,94,74,00,40,00,7D,FF,FF,
560062191,0000013A,false,Rx,0,8,39,F0,00,00,00,0E,FF,FF,
560064053,00000096,false,Rx,0,8,58,00,68,96,01,FF,FF,FF,
560065652,00000163,false,Rx,0,8,FF,FF,41,25,FF,FF,FF,FF,
560065899,00000173,false,Rx,0,8,10,FC,00,02,20,00,D2,10,
560067087,000000A5,false,Rx,0,8,3B,F8,FF,F7,7F,00,00,C1,
560067212,000000AC,false,Rx,0,2,00,F0,00,00,00,00,00,00,
560067460,000000D9,false,Rx,0,8,77,F8,00,10,00,F0,7F,C0,
560067698,000000F3,false,Rx,0,8,59,08,00,FF,F0,C0,FF,FF,
560068055,00000100,false,Rx,0,8,4B,F5,7F,C0,5D,1D,87,70,
560068448,00000112,false,Rx,0,8,BE,24,31,0E,CB,71,55,5B,
560070107,000000EF,false,Rx,0,8,79,FE,00,7D,21,00,7D,FF,
560070706,000000C3,false,Rx,0,8,C9,75,00,40,00,7D,FF,FF,
560070893,000001A1,false,Rx,0,5,08,C1,00,00,81,00,00,00,
560071142,00000140,false,Rx,0,8,05,61,40,9C,00,00,94,FF,
560071381,00000141,false,Rx,0,8,14,71,40,9C,00,00,F4,FF,
560073211,0000037F,false,Rx,0,2,FF,D0,00,00,00,00,00,00,
560075699,00000199,false,Rx,0,6,FF,FF,BF,7D,FF,3F,00,00,
560075908,0000019A,false,Rx,0,6,FF,FF,0A,7F,FF,2F,00,00,
560076113,0000019F,false,Rx,0,6,FF,FF,12,80,FF,2F,00,00,
560076362,00000254,false,Rx,0,8,FF,7F,FF,7F,FF,7F,FF,7F,
560076487,00000258,false,Rx,0,2,11,11,00,00,00,00,00,00,
560077209,0000019B,false,Rx,0,8,7D,41,40,55,FD,FF,FF,FF,
560078057,00000100,false,Rx,0,8,AC,F6,7F,C0,5D,1D,87,70,
560078739,00000112,false,Rx,0,8,BE,24,31,0E,CB,71,55,5B,
560079308,00000197,false,Rx,0,4,0C,0D,0E,C0,00,00,00,00,
560080113,0000015F,false,Rx,0,8,42,F0,00,7D,00,EE,00,7D,
560080351,000002E8,false,Rx,0,8,C0,E8,C3,FF,FF,F4,F3,2E,
560080631,000003FD,false,Rx,0,5,56,0C,20,00,FF,00,00,00,
560080869,00000108,false,Rx,0,8,00,7D,FF,00,48,F1,FF,FF,
560081108,000000C3,false,Rx,0,8,2E,76,00,40,00,7D,FF,FF,
560081358,000001B5,false,Rx,0,8,6C,42,B2,71,FF,FF,FF,FF,
560081606,00000206,false,Rx,0,8,A2,26,CF,FF,FF,FF,FF,FF,
560081855,00000212,false,Rx,0,8,42,FA,F9,FF,FF,FF,FF,FF,
560082106,000002DB,false,Rx,0,8,FF,FF,FF,FF,BF,FF,FF,FF,
560082354,0000013A,false,Rx,0,8,83,F2,00,00,00,0E,FF,FF,
560082593,000002F1,false,Rx,0,8,37,10,7D,9E,01,92,00,A0,
560082863,0000032B,false,Rx,0,8,00,00,00,00,FF,FF,00,FF,
560083071,00000350,false,Rx,0,6,F7,FF,FF,FF,FF,FF,00,00,
560083309,00000331,false,Rx,0,8,FF,FF,FF,EF,7F,FE,F7,FF,
560083548,000003E9,false,Rx,0,8,5C,8F,21,C1,70,7D,20,4C,
560085619,00000302,false,Rx,0,7,FF,FF,C5,89,F1,FF,FF,00,
560087306,000000A5,false,Rx,0,8,66,F9,FF,F7,7F,00,00,C1,
560087442,000000AC,false,Rx,0,2,00,F0,00,00,00,00,00,00,
560087680,000000D9,false,Rx,0,8,2A,F9,00,10,00,F0,7F,C0,
560087928,000000F3,false,Rx,0,8,04,09,00,FF,F0,C0,FF,FF,
560088160,00000100,false,Rx,0,8,F1,F7,7F,C0,5D,1D,87,70,
560088398,00000272,false,Rx,0,8,32,F1,05,12,FF,FF,FF,FF,
560088616,00000112,false,Rx,0,8,BE,24,31,0E,CB,71,55,5B,
560088833,00000297,false,Rx,0,7,C0,E0,F0,ED,F2,92,EA,00,
560090106,000000EF,false,Rx,0,8,78,F0,00,7D,21,00,7D,FF,
560090684,000000C3,false,Rx,0,8,73,77,00,40,00,7D,FF,FF,
560090871,000001A1,false,Rx,0,5,2F,C3,00,00,81,00,00,00,
560091120,00000201,false,Rx,0,8,3F,37,FB,E4,FF,FF,FF,FF,
560091359,00000140,false,Rx,0,8,BF,63,40,9C,00,00,94,FF,
560091587,00000141,false,Rx,0,8,AE,73,40,9C,00,00,F4,FF,
560093501,000007BD,false,Rx,0,8,00,00,00,40,FF,C0,03,08,
560093771,000007BE,false,Rx,0,8,07,1B,01,08,06,67,00,00,
560093907,000002A5,false,Rx,0,2,02,0B,00,00,00,00,00,00,
560094145,00000096,false,Rx,0,8,58,00,68,96,01,FF,FF,FF,
560094333,00000349,false,Rx,0,5,FE,FF,FE,FF,00,00,00,00,
560095693,00000199,false,Rx,0,6,FF,FF,BF,7D,FF,3F,00,00,
560095901,0000019A,false,Rx,0,6,FF,FF,14,7F,FF,2F,00,00,
560096121,0000019F,false,Rx,0,6,FF,FF,F8,7F,FF,2F,00,00,
560096359,00000254,false,Rx,0,8,FF,7F,FF,7F,FF,7F,FF,7F,
560096484,00000258,false,Rx,0,2,11,11,00,00,00,00,00,00,
560097031,000002A7,false,Rx,0,5,35,F3,FE,FF,14,00,00,00,
560097558,000002AE,false,Rx,0,8,FF,FF,FF,FF,FF,FF,FF,48,
560098085,00000100,false,Rx,0,8,AD,F8,7F,C0,5D,1D,87,70,
560098402,000003CA,false,Rx,0,8,78,70,30,0B,0B,3E,FF,FF,
560098630,00000112,false,Rx,0,8,BE,24,31,0E,CB,71,55,5B,
