Time Stamp,ID,Extended,Dir,Bus,LEN,D1,D2,D3,D4,D5,D6,D7,D8
4326954164,00000510,false,Rx,0,8,40,10,01,00,00,00,00,00,
4326957093,00000337,false,Rx,0,2,FF,FF,00,00,00,00,00,00,
4326957367,000003B4,false,Rx,0,8,00,00,0C,F0,B8,FF,00,FD,
4326981416,000001AE,false,Rx,0,2,FF,FF,00,00,00,00,00,00,
4326986644,000003A0,false,Rx,0,8,FF,FF,FF,FF,FF,FF,FF,FD,
4326990217,0000012F,false,Rx,0,8,50,01,0A,00,C0,00,38,00,
4326990719,0000003C,false,Rx,0,8,FF,7F,00,00,00,00,FF,FF,
4326991010,000001E1,false,Rx,0,6,0F,F1,03,FF,FF,FF,00,00,
4326994213,000002FC,false,Rx,0,8,FF,FF,FF,FF,FF,FF,FF,FF,
4326994849,000001F6,false,Rx,0,2,80,F0,00,00,00,00,00,00,
4326997216,00000272,false,Rx,0,8,71,F1,00,12,FF,FF,FF,FF,
4326997423,00000390,false,Rx,0,4,F0,FF,FF,FF,00,00,00,00,
4327009293,000003BE,false,Rx,0,3,FE,FF,FC,00,00,00,00,00,
4327009423,000003AC,false,Rx,0,2,FF,FF,00,00,00,00,00,00,
4327013241,000002A0,false,Rx,0,8,88,88,F8,FF,FF,FF,FF,FF,
4327013877,000003D8,false,Rx,0,8,A0,FF,FF,FF,FF,FF,FF,FF,
4327014970,0000012F,false,Rx,0,8,B7,02,0A,00,C0,00,38,00,
4327017569,000001D6,false,Rx,0,2,FF,FF,00,00,00,00,00,00,
4327017709,000001EE,false,Rx,0,2,FF,FF,00,00,00,00,00,00,
4327017844,000002A6,false,Rx,0,2,FF,FF,00,00,00,00,00,00,
4327017978,000002CF,false,Rx,0,2,FF,FF,00,00,00,00,00,00,
4327018165,00000349,false,Rx,0,5,FE,FF,FE,FF,00,00,00,00,
4327018299,00000252,false,Rx,0,2,CF,FF,00,00,00,00,00,00,
4327020496,00000314,false,Rx,0,3,FF,FF,FF,00,00,00,00,00,
4327020632,0000036A,false,Rx,0,2,F0,FF,00,00,00,00,00,00,
4327023525,000002D1,false,Rx,0,2,FF,FF,00,00,00,00,00,00,
4327024953,000005C0,false,Rx,0,8,40,2B,03,05,FF,FF,FF,FF,
4327027178,0000031E,false,Rx,0,8,44,44,49,FF,78,FF,FF,FF,
4327028154,000001D6,false,Rx,0,2,FF,FF,00,00,00,00,00,00,
4327028288,000002A5,false,Rx,0,2,FF,FF,00,00,00,00,00,00,
4327028475,00000226,false,Rx,0,5,FF,FF,FF,F0,FF,00,00,00,
4327028641,00000346,false,Rx,0,4,B9,D0,70,F0,00,00,00,00,
4327028847,00000380,false,Rx,0,7,56,42,38,37,39,32,36,00,
4327029066,00000388,false,Rx,0,7,37,33,00,28,D1,04,00,00,
4327029254,00000395,false,Rx,0,5,14,08,50,64,FF,00,00,00,
4327029492,000005C0,false,Rx,0,8,6E,19,00,FC,FF,FF,FF,FF,
4327031233,00000202,false,Rx,0,2,FE,FF,00,00,00,00,00,00,
4327033692,0000022A,false,Rx,0,8,0F,FF,FF,FF,FF,FF,FF,FF,
4327033936,00000232,false,Rx,0,8,0F,FF,FF,FF,FF,FF,FF,FF,
4327034958,0000012F,false,Rx,0,8,FE,53,0A,DD,F0,F1,36,41,
4327038756,0000023A,false,Rx,0,8,F0,FF,FF,FF,FF,FF,FF,FF,
4327040723,0000021A,false,Rx,0,3,00,3C,F7,00,00,00,00,00,
4327040965,000005C0,false,Rx,0,8,08,04,00,FE,FF,FF,FF,FF,
4327044848,000001F6,false,Rx,0,2,80,F0,00,00,00,00,00,00,
4327048285,00000096,false,Rx,0,8,58,00,36,C7,01,FF,FF,FF,
4327054394,0000003C,false,Rx,0,8,FF,7F,00,00,00,00,FF,FF,
4327054958,0000012F,false,Rx,0,8,CB,54,8A,DD,F1,31,36,C1,
4327062224,00000514,false,Rx,0,8,00,00,00,00,00,00,00,14,
4327062468,00000510,false,Rx,0,8,40,10,80,00,00,00,00,00,
4327068176,0000034F,false,Rx,0,2,FC,FF,00,00,00,00,00,00,
4327078193,0000036A,false,Rx,0,2,F5,FF,00,00,00,00,00,00,
4327078437,00000096,false,Rx,0,8,58,00,36,C7,01,FF,FF,FF,
4327081433,000001AE,false,Rx,0,2,FF,FF,00,00,00,00,00,00,
4327094843,000001F6,false,Rx,0,2,80,F0,00,00,00,00,00,00,
4327108311,00000096,false,Rx,0,8,58,00,36,C7,01,FF,FF,FF,
4327118152,000003AC,false,Rx,0,2,FE,CF,00,00,00,00,00,00,
4327118396,000002FC,false,Rx,0,8,81,03,05,FF,FF,FF,FF,FF,
4327128218,00000314,false,Rx,0,3,FF,FF,FF,00,00,00,00,00,
4327128492,000005C0,false,Rx,0,8,6E,1A,00,FC,FF,FF,FF,FF,
4327134955,0000012F,false,Rx,0,8,96,55,8A,DD,F1,31,36,C1,
4327138311,00000096,false,Rx,0,8,58,00,36,C7,01,FF,FF,FF,
4327138473,00000346,false,Rx,0,4,1E,E1,70,F0,00,00,00,00,
4327154251,000000C0,false,Rx,0,2,F1,40,00,00,00,00,00,00,
4327154505,0000003C,false,Rx,0,8,FF,7F,00,00,00,00,FF,FF,
4327154928,000001E1,false,Rx,0,6,B1,F2,03,FF,FF,FF,00,00,
4327157361,000003B4,false,Rx,0,8,00,00,0C,F0,B8,FF,00,FD,
4327162399,00000510,false,Rx,0,8,40,10,80,00,00,00,00,00,
4327168148,000003BE,false,Rx,0,3,FE,FF,FC,00,00,00,00,00,
4327168380,00000096,false,Rx,0,8,58,00,36,C7,01,FF,FF,FF,
4327173590,000002A0,false,Rx,0,8,88,88,F8,0F,FF,FF,FF,FF,
4327178198,00000252,false,Rx,0,2,CF,FF,00,00,00,00,00,00,
4327181426,000001AE,false,Rx,0,2,FF,FF,00,00,00,00,00,00,
4327187359,000003A0,false,Rx,0,8,FF,FF,CF,FF,FF,FF,FF,FD,
4327188171,00000395,false,Rx,0,5,14,08,50,64,FF,00,00,00,
4327188306,00000202,false,Rx,0,2,FE,FF,00,00,00,00,00,00,
4327188512,00000380,false,Rx,0,7,56,42,38,37,39,32,36,00,
4327188729,00000388,false,Rx,0,7,37,33,00,28,D1,04,00,00,
4327193919,0000031E,false,Rx,0,8,44,44,49,FF,78,FF,FF,FF,
4327197357,00000272,false,Rx,0,8,96,F2,00,12,FF,FF,FF,FF,
4327198149,0000021A,false,Rx,0,3,00,3C,F7,00,00,00,00,00,
4327198386,00000096,false,Rx,0,8,58,00,36,C7,01,FF,FF,FF,
4327198635,0000023A,false,Rx,0,8,F0,FF,FF,FF,FF,FF,FF,FF,
4327198874,000005C0,false,Rx,0,8,08,04,00,FE,FF,FF,FF,FF,
4327218223,00000349,false,Rx,0,5,FE,FF,FE,FF,00,00,00,00,
4327223659,000003D8,false,Rx,0,8,03,FF,FF,FF,FF,FF,FF,FF,
4327228206,000002A5,false,Rx,0,2,FF,FF,00,00,00,00,00,00,
4327228448,00000096,false,Rx,0,8,58,00,36,C7,01,FF,FF,FF,
4327228686,000005C0,false,Rx,0,8,6E,05,00,FC,FF,FF,FF,FF,
4327234958,0000012F,false,Rx,0,8,71,56,8A,DD,F1,31,36,C1,
4327238302,00000314,false,Rx,0,3,FF,FF,FF,00,00,00,00,00,
4327238432,0000036A,false,Rx,0,2,F5,FF,00,00,00,00,00,00,
4327254399,0000003C,false,Rx,0,8,FF,7F,00,00,00,00,FF,FF,
4327258623,00000096,false,Rx,0,8,58,00,36,C7,01,FF,FF,FF,
4327268052,00000540,false,Rx,0,8,00,00,00,00,3B,00,FF,40,
4327278225,000003AC,false,Rx,0,2,FE,CF,00,00,00,00,00,00,
4327278477,000002FC,false,Rx,0,8,81,03,05,FF,FF,FF,FF,FF,
4327281422,000001AE,false,Rx,0,2,FF,FF,00,00,00,00,00,00,
4327288388,00000096,false,Rx,0,8,58,00,36,C7,01,FF,FF,FF,
4327314926,000001E1,false,Rx,0,6,DB,F3,03,FF,FF,FF,00,00,
4327318362,00000096,false,Rx,0,8,58,00,36,C7,01,FF,FF,FF,
4327324930,000001E1,false,Rx,0,6,D0,F4,03,FF,FF,FF,00,00,
4327328284,000003BE,false,Rx,0,3,FE,FF,FC,00,00,00,00,00,
4327328588,000005C0,false,Rx,0,8,6E,04,00,FC,FF,FF,FF,FF,
4327333777,000002A0,false,Rx,0,8,88,88,F8,0F,FF,FF,FF,FF,
4327334960,0000012F,false,Rx,0,8,2C,57,8A,DD,F1,31,36,C1,
4327338187,00000252,false,Rx,0,2,CF,FF,00,00,00,00,00,00,
4327340585,0000021A,false,Rx,0,3,05,1E,F7,00,00,00,00,00,
4327340828,000005C0,false,Rx,0,8,08,04,00,FD,FF,FF,FF,FF,
4327348152,00000395,false,Rx,0,5,14,08,50,64,FF,00,00,00,
4327348386,00000096,false,Rx,0,8,58,00,36,C7,01,FF,FF,FF,
4327348521,00000202,false,Rx,0,2,FE,FF,00,00,00,00,00,00,
4327348677,00000314,false,Rx,0,3,FF,FF,FF,00,00,00,00,00,
4327348894,00000380,false,Rx,0,7,56,42,38,37,39,32,36,00,
4327349113,00000388,false,Rx,0,7,37,33,00,28,D1,04,00,00,
4327354251,000000C0,false,Rx,0,2,F2,40,00,00,00,00,00,00,
4327354504,0000003C,false,Rx,0,8,FF,7F,00,00,00,00,FF,FF,
4327357479,000003B4,false,Rx,0,8,00,00,0C,F0,B8,FF,00,FD,
4327358394,0000023A,false,Rx,0,8,F0,FF,FF,FF,FF,FF,FF,FF,
4327363604,0000031E,false,Rx,0,8,44,44,49,FF,78,FF,FF,FF,
4327378305,00000096,false,Rx,0,8,58,00,36,C7,01,FF,FF,FF,
4327381421,000001AE,false,Rx,0,2,FF,FF,00,00,00,00,00,00,
4327397499,00000272,false,Rx,0,8,CB,F3,00,12,FF,FF,FF,FF,
4327398167,0000021A,false,Rx,0,3,85,1E,F7,00,00,00,00,00,
4327398291,0000036A,false,Rx,0,2,F5,FF,00,00,00,00,00,00,
4327408157,00000202,false,Rx,0,2,FD,FF,00,00,00,00,00,00,
4327408390,00000096,false,Rx,0,8,58,00,36,C7,01,FF,FF,FF,
4327414097,000005C0,false,Rx,0,8,40,12,00,29,FF,FF,FF,FF,
4327418311,00000349,false,Rx,0,5,FE,FF,FE,FF,00,00,00,00,
4327428224,000002A5,false,Rx,0,2,FF,FF,00,00,00,00,00,00,
4327428601,000005C0,false,Rx,0,8,6E,01,00,FD,FF,FF,FF,FF,
4327434961,0000012F,false,Rx,0,8,70,58,8A,DD,F1,31,36,C1,
4327438150,000003AC,false,Rx,0,2,FE,CF,00,00,00,00,00,00,
4327438382,00000096,false,Rx,0,8,58,00,36,C7,01,FF,FF,FF,
4327438632,000002FC,false,Rx,0,8,81,03,05,FF,FF,FF,FF,FF,
4327447523,00000272,false,Rx,0,8,C9,F4,02,12,FF,FF,FF,FF,
4327454391,0000003C,false,Rx,0,8,FF,7F,00,00,00,00,FF,FF,
4327468294,00000096,false,Rx,0,8,58,00,36,C7,01,FF,FF,FF,
4327481422,000001AE,false,Rx,0,2,FF,FF,00,00,00,00,00,00,
4327493851,000002A0,false,Rx,0,8,88,88,F8,0F,FF,FF,FF,FF,
4327498284,00000096,false,Rx,0,8,58,00,36,C7,01,FF,FF,FF,
4327498529,000005C0,false,Rx,0,8,08,04,00,FD,FF,FF,FF,FF,
4327508228,00000314,false,Rx,0,3,FF,FF,FF,00,00,00,00,00,
4327524927,000001E1,false,Rx,0,6,BA,F5,03,FF,FF,FF,00,00,
4327528188,000002CF,false,Rx,0,2,FA,FF,00,00,00,00,00,00,
4327528431,00000096,false,Rx,0,8,58,00,36,C7,01,FF,FF,FF,
4327528598,00000346,false,Rx,0,4,1E,E1,70,F0,00,00,00,00,
4327528845,000005C0,false,Rx,0,8,6E,01,00,FD,FF,FF,FF,FF,
4327533906,0000031E,false,Rx,0,8,44,44,49,FF,78,FF,FF,FF,
4327534964,0000012F,false,Rx,0,8,2D,59,8A,DD,F1,31,36,C1,
4327554244,000000C0,false,Rx,0,2,F3,40,00,00,00,00,00,00,
4327554498,0000003C,false,Rx,0,8,FF,7F,00,00,00,00,FF,FF,
4327557669,000003B4,false,Rx,0,8,00,00,0C,F0,B8,FF,00,FD,
4327558196,0000021A,false,Rx,0,3,85,1E,F7,00,00,00,00,00,
4327558432,00000096,false,Rx,0,8,58,00,36,C7,01,FF,FF,FF,
4327568150,00000202,false,Rx,0,2,FD,FF,00,00,00,00,00,00,
4327581420,000001AE,false,Rx,0,2,FF,FF,00,00,00,00,00,00,
4327587633,000003C3,false,Rx,0,8,81,04,C8,B0,08,C1,00,18,
4327588343,00000096,false,Rx,0,8,58,00,36,C7,01,FF,FF,FF,
4327597627,00000272,false,Rx,0,8,94,F5,02,12,FF,FF,FF,FF,
4327618205,00000349,false,Rx,0,5,FE,FF,FE,FF,00,00,00,00,
4327618449,00000096,false,Rx,0,8,58,00,36,C7,01,FF,FF,FF,
4327628125,000002A5,false,Rx,0,2,FF,FF,00,00,00,00,00,00,
4327634958,0000012F,false,Rx,0,8,CA,5A,8A,DD,F1,31,36,C1,
4327648292,00000096,false,Rx,0,8,58,00,36,C7,01,FF,FF,FF,
4327654384,0000003C,false,Rx,0,8,FF,7F,00,00,00,00,FF,FF,
4327658608,000005C0,false,Rx,0,8,08,04,00,FD,FF,FF,FF,FF,
4327668295,00000314,false,Rx,0,3,FF,FF,FF,00,00,00,00,00,
4327678311,00000096,false,Rx,0,8,58,00,36,C7,01,FF,FF,FF,
4327681418,000001AE,false,Rx,0,2,FF,FF,00,00,00,00,00,00,
4327702668,00000514,false,Rx,0,8,00,00,00,00,00,00,00,14,
4327708313,00000096,false,Rx,0,8,58,00,36,C7,01,FF,FF,FF,
4327718259,0000021A,false,Rx,0,3,85,1E,F7,00,00,00,00,00,
4327724927,000001E1,false,Rx,0,6,04,F6,03,FF,FF,FF,00,00,
4327728250,00000202,false,Rx,0,2,FD,FF,00,00,00,00,00,00,
4327734959,0000012F,false,Rx,0,8,97,5B,8A,DD,F1,31,36,C1,
4327738306,00000096,false,Rx,0,8,58,00,36,C7,01,FF,FF,FF,
4327753193,000003C3,false,Rx,0,8,82,08,C8,B0,08,C1,00,18,
4327754243,000000C0,false,Rx,0,2,F4,40,00,00,00,00,00,00,
4327754490,0000003C,false,Rx,0,8,FF,7F,00,00,00,00,FF,FF,
4327757759,000003B4,false,Rx,0,8,00,00,0C,F0,B8,FF,00,FD,
4327768285,00000096,false,Rx,0,8,58,00,36,C7,01,FF,FF,FF,
4327781411,000001AE,false,Rx,0,2,FF,FF,00,00,00,00,00,00,
4327797768,00000272,false,Rx,0,8,73,F6,02,12,FF,FF,FF,FF,
4327798303,00000096,false,Rx,0,8,58,00,36,C7,01,FF,FF,FF,
4327802321,00000510,false,Rx,0,8,40,10,80,00,00,00,00,00,
4327818225,00000349,false,Rx,0,5,FE,FF,FE,FF,00,00,00,00,
4327828119,000002A5,false,Rx,0,2,FF,FF,00,00,00,00,00,00,
4327828280,00000314,false,Rx,0,3,FF,FF,FF,00,00,00,00,00,
4327828517,00000096,false,Rx,0,8,58,00,36,C7,01,FF,FF,FF,
4327834963,0000012F,false,Rx,0,8,19,5C,8A,DD,F1,31,36,C1,
4327854381,0000003C,false,Rx,0,8,FF,7F,00,00,00,00,FF,FF,
4327858398,00000096,false,Rx,0,8,58,00,36,C7,01,FF,FF,FF,
4327881404,000001AE,false,Rx,0,2,FF,FF,00,00,00,00,00,00,
4327888311,00000096,false,Rx,0,8,58,00,36,C7,01,FF,FF,FF,
4327900691,0000021A,false,Rx,0,3,85,1E,F7,00,00,00,00,00,
4327900822,0000036A,false,Rx,0,2,F5,FF,00,00,00,00,00,00,
4327908080,00000540,false,Rx,0,8,00,00,00,00,FE,31,FF,40,
4327917850,000003C3,false,Rx,0,8,83,10,49,92,24,49,92,24,
4327918311,00000096,false,Rx,0,8,58,00,36,C7,01,FF,FF,FF,
4327924930,000001E1,false,Rx,0,6,6E,F7,03,FF,FF,FF,00,00,
4327934958,0000012F,false,Rx,0,8,44,5D,8A,DD,F1,31,36,C1,
4327948292,00000096,false,Rx,0,8,58,00,36,C7,01,FF,FF,FF,
4327954280,000000C0,false,Rx,0,2,F5,40,00,00,00,00,00,00,
4327954534,0000003C,false,Rx,0,8,FF,7F,00,00,00,00,FF,FF,
4327957789,00000337,false,Rx,0,2,FF,FF,00,00,00,00,00,00,
4327958068,000003B4,false,Rx,0,8,00,00,0C,F0,B8,FF,00,FD,
4327978313,00000096,false,Rx,0,8,58,00,36,C7,01,FF,FF,FF,
4327981409,000001AE,false,Rx,0,2,FF,FF,00,00,00,00,00,00,
4327988222,00000314,false,Rx,0,3,FF,FF,FF,00,00,00,00,00,
4327993274,000003B4,false,Rx,0,8,00,00,0C,F0,B8,FF,00,FE,
4327997903,00000272,false,Rx,0,8,56,F7,62,12,FF,FF,FF,FF,
4328006885,0000031E,false,Rx,0,8,44,44,49,FF,78,FF,FF,FF,
4328008316,00000096,false,Rx,0,8,58,00,36,C7,01,FF,FF,FF,
4328013883,000003D8,false,Rx,0,8,03,FF,FF,FF,FF,FF,FF,FF,
4328018211,000001EE,false,Rx,0,2,FF,FF,00,00,00,00,00,00,
4328018342,000002A6,false,Rx,0,2,FF,87,00,00,00,00,00,00,
4328018528,00000349,false,Rx,0,5,FE,FF,FE,FF,00,00,00,00,
4328024962,000005C0,false,Rx,0,8,40,2B,03,05,FF,FF,FF,FF,
4328028224,000001D6,false,Rx,0,2,FF,FF,00,00,00,00,00,00,
4328028355,000002A5,false,Rx,0,2,FF,FF,00,00,00,00,00,00,
4328028520,00000346,false,Rx,0,4,92,E2,70,F0,00,00,00,00,
4328034962,0000012F,false,Rx,0,8,A3,5E,8A,DD,F1,31,36,C1,
4328038307,00000096,false,Rx,0,8,58,00,36,C7,01,FF,FF,FF,
4328054368,0000003C,false,Rx,0,8,FF,7F,00,00,00,00,FF,FF,
4328058416,0000021A,false,Rx,0,3,85,1E,F7,00,00,00,00,00,
4328058546,0000036A,false,Rx,0,2,F5,FF,00,00,00,00,00,00,
4328068396,00000096,false,Rx,0,8,58,00,36,C7,01,FF,FF,FF,
4328081400,000001AE,false,Rx,0,2,FF,FF,00,00,00,00,00,00,
4328083014,000003C3,false,Rx,0,8,84,14,09,92,24,49,92,24,
4328098286,00000096,false,Rx,0,8,58,00,36,C7,01,FF,FF,FF,
4328124938,000001E1,false,Rx,0,6,12,F8,03,FF,FF,FF,00,00,
4328128303,00000096,false,Rx,0,8,58,00,36,C7,01,FF,FF,FF,
4328134952,0000012F,false,Rx,0,8,A2,50,8A,DD,F1,31,36,C1,
4328143448,000002FC,false,Rx,0,8,81,FF,05,FF,FF,FF,FF,FF,
4328148295,00000314,false,Rx,0,3,FF,FF,FF,00,00,00,00,00,
4328150963,000001E1,false,Rx,0,6,64,F9,FF,FF,FF,FF,00,00,
4328154235,000000C0,false,Rx,0,2,F6,40,00,00,00,00,00,00,
4328154477,0000003C,false,Rx,0,8,FF,7F,00,00,00,00,FF,FF,
4328158031,000003B4,false,Rx,0,8,00,00,0C,F0,B8,FF,00,FE,
4328158337,00000096,false,Rx,0,8,58,00,36,C7,01,FF,FF,FF,
4328173732,0000031E,false,Rx,0,8,44,44,49,FF,78,FF,FF,FF,
4328181399,000001AE,false,Rx,0,2,FF,FF,00,00,00,00,00,00,
4328188316,00000096,false,Rx,0,8,58,00,36,C7,01,FF,FF,FF,
4328198055,00000272,false,Rx,0,8,0A,F8,62,12,FF,FF,FF,FF,
4328218146,0000021A,false,Rx,0,3,85,1E,F7,00,00,00,00,00,
4328218389,00000096,false,Rx,0,8,58,00,36,C7,01,FF,FF,FF,
4328218576,00000349,false,Rx,0,5,FE,FF,FE,FF,00,00,00,00,
4328218700,0000036A,false,Rx,0,2,F5,FF,00,00,00,00,00,00,
4328228132,000002A5,false,Rx,0,2,FF,FF,00,00,00,00,00,00,
4328234967,0000012F,false,Rx,0,8,FF,51,8A,DD,F1,31,36,C1,
4328248074,000003C3,false,Rx,0,8,85,18,49,92,24,69,92,24,
4328248308,00000096,false,Rx,0,8,58,00,36,C7,01,FF,FF,FF,
4328254368,0000003C,false,Rx,0,8,FF,7F,00,00,00,00,FF,FF,
4328278306,00000096,false,Rx,0,8,58,00,36,C7,01,FF,FF,FF,
4328281401,000001AE,false,Rx,0,2,FF,FF,00,00,00,00,00,00,
4328298319,000002FC,false,Rx,0,8,81,FF,05,FF,FF,FF,FF,FF,
4328308223,00000314,false,Rx,0,3,FF,FF,FF,00,00,00,00,00,
4328308455,00000096,false,Rx,0,8,58,00,36,C7,01,FF,FF,FF,
4328314931,000001E1,false,Rx,0,6,DA,FA,FF,FF,FF,FF,00,00,
4328334958,0000012F,false,Rx,0,8,18,52,8A,DD,F1,31,36,C1,
4328338312,00000096,false,Rx,0,8,58,00,36,C7,01,FF,FF,FF,
4328343088,00000514,false,Rx,0,8,00,00,00,00,00,00,00,14,
4328343703,0000031E,false,Rx,0,8,44,44,49,FF,78,FF,FF,FF,
4328354223,000000C0,false,Rx,0,2,F7,40,00,00,00,00,00,00,
4328354476,0000003C,false,Rx,0,8,FF,7F,00,00,00,00,FF,FF,
4328358216,000003B4,false,Rx,0,8,00,00,0C,F0,B8,FF,00,FE,
4328368296,00000096,false,Rx,0,8,58,00,36,C7,01,FF,FF,FF,
4328381474,000001AE,false,Rx,0,2,FF,FF,00,00,00,00,00,00,
4328398227,00000272,false,Rx,0,8,57,F9,62,12,FF,FF,FF,FF,
4328398463,00000096,false,Rx,0,8,58,00,36,C7,01,FF,FF,FF,
4328398598,00000252,false,Rx,0,2,DF,FF,00,00,00,00,00,00,
4328413591,000003C3,false,Rx,0,8,86,1C,69,9A,24,49,92,24,
4328418220,00000349,false,Rx,0,5,FE,FF,FE,FF,00,00,00,00,
4328428124,000002A5,false,Rx,0,2,FF,FF,00,00,00,00,00,00,
4328428368,00000096,false,Rx,0,8,58,00,36,C7,01,FF,FF,FF,
4328434964,0000012F,false,Rx,0,8,45,53,8A,DD,F1,31,36,C1,
4328442301,00000510,false,Rx,0,8,40,10,80,00,00,00,00,00,
4328454358,0000003C,false,Rx,0,8,FF,7F,00,00,00,00,FF,FF,
4328458563,000002FC,false,Rx,0,8,81,FF,05,FF,FF,FF,FF,FF,
4328458807,00000096,false,Rx,0,8,58,00,36,C7,01,FF,FF,FF,
4328468286,00000314,false,Rx,0,3,FF,FF,FF,00,00,00,00,00,
4328474934,000001E1,false,Rx,0,6,B0,FB,FF,FF,FF,FF,00,00,
4328481389,000001AE,false,Rx,0,2,FF,FF,00,00,00,00,00,00,
4328488389,00000096,false,Rx,0,8,58,00,36,C7,01,FF,FF,FF,
4328518282,00000096,false,Rx,0,8,58,00,36,C7,01,FF,FF,FF,
4328528249,00000346,false,Rx,0,4,1D,E3,70,F0,00,00,00,00,
4328534958,0000012F,false,Rx,0,8,CB,54,8A,DD,F1,31,36,C1,
4328547990,00000540,false,Rx,0,8,00,00,00,00,FF,3B,FF,40,
4328548319,00000096,false,Rx,0,8,58,00,36,C7,01,FF,FF,FF,
4328554223,000000C0,false,Rx,0,2,F8,40,00,00,00,00,00,00,
4328554477,0000003C,false,Rx,0,8,FF,7F,00,00,00,00,FF,FF,
4328558360,000003B4,false,Rx,0,8,00,00,0C,F0,B8,FF,00,FE,
4328558502,00000252,false,Rx,0,2,DF,FF,00,00,00,00,00,00,
4328578301,00000096,false,Rx,0,8,58,00,36,C7,01,FF,FF,FF,
4328578535,000003C3,false,Rx,0,8,87,20,49,92,24,00,00,00,
4328581388,000001AE,false,Rx,0,2,FF,FF,00,00,00,00,00,00,
4328598384,00000272,false,Rx,0,8,B0,FA,62,12,FF,FF,FF,FF,
4328608318,00000096,false,Rx,0,8,58,00,36,C7,01,FF,FF,FF,
4328614087,000005C0,false,Rx,0,8,40,5A,01,29,FF,FF,FF,FF,
4328618312,00000349,false,Rx,0,5,FE,FF,FE,FF,00,00,00,00,
4328628225,000002A5,false,Rx,0,2,FF,FF,00,00,00,00,00,00,
4328628375,00000314,false,Rx,0,3,FF,FF,FF,00,00,00,00,00,
4328634961,0000012F,false,Rx,0,8,96,55,8A,DD,F1,31,36,C1,
4328638316,00000096,false,Rx,0,8,58,00,36,C7,01,FF,FF,FF,
4328644933,000001E1,false,Rx,0,6,BB,FC,FF,FF,FF,FF,00,00,
4328654351,0000003C,false,Rx,0,8,FF,7F,00,00,00,00,FF,FF,
4328668285,00000096,false,Rx,0,8,58,00,36,C7,01,FF,FF,FF,
4328681391,000001AE,false,Rx,0,2,FF,FF,00,00,00,00,00,00,
4328698287,00000096,false,Rx,0,8,58,00,36,C7,01,FF,FF,FF,
4328718181,00000252,false,Rx,0,2,DF,FF,00,00,00,00,00,00,
4328728311,00000096,false,Rx,0,8,58,00,36,C7,01,FF,FF,FF,
4328734964,0000012F,false,Rx,0,8,71,56,8A,DD,F1,31,36,C1,
4328754215,000000C0,false,Rx,0,2,F9,40,00,00,00,00,00,00,
4328754468,0000003C,false,Rx,0,8,FF,7F,00,00,00,00,FF,FF,
4328758310,00000096,false,Rx,0,8,58,00,36,C7,01,FF,FF,FF,
4328758544,000003B4,false,Rx,0,8,00,00,0C,F0,B8,FF,00,FE,
4328781442,000001AE,false,Rx,0,2,FF,FF,00,00,00,00,00,00,
4328788215,00000314,false,Rx,0,3,FF,FF,FF,00,00,00,00,00,
4328788458,00000096,false,Rx,0,8,58,00,36,C7,01,FF,FF,FF,
4328798549,00000272,false,Rx,0,8,ED,FB,62,12,FF,FF,FF,FF,
4328814111,000005C0,false,Rx,0,8,40,86,00,29,FF,FF,FF,FF,
4328818212,00000349,false,Rx,0,5,FE,FF,FE,FF,00,00,00,00,
4328818445,00000096,false,Rx,0,8,58,00,36,C7,01,FF,FF,FF,
4328828134,000002A5,false,Rx,0,2,FF,FF,00,00,00,00,00,00,
4328834958,0000012F,false,Rx,0,8,2C,57,8A,DD,F1,31,36,C1,
4328844935,000001E1,false,Rx,0,6,D1,FD,FF,FF,FF,FF,00,00,
4328848289,00000096,false,Rx,0,8,58,00,36,C7,01,FF,FF,FF,
4328854348,0000003C,false,Rx,0,8,FF,7F,00,00,00,00,FF,FF,
4328878306,00000096,false,Rx,0,8,58,00,36,C7,01,FF,FF,FF,
4328881381,000001AE,false,Rx,0,2,FF,FF,00,00,00,00,00,00,
4328908321,00000096,false,Rx,0,8,58,00,36,C7,01,FF,FF,FF,
4328934963,0000012F,false,Rx,0,8,70,58,8A,DD,F1,31,36,C1,
4328938319,00000096,false,Rx,0,8,58,00,36,C7,01,FF,FF,FF,
4328948181,00000314,false,Rx,0,3,FF,FF,FF,00,00,00,00,00,
4328954259,000000C0,false,Rx,0,2,FA,40,00,00,00,00,00,00,
4328954503,0000003C,false,Rx,0,8,FF,7F,00,00,00,00,FF,FF,
4328958490,00000337,false,Rx,0,2,FF,FF,00,00,00,00,00,00,
4328958763,000003B4,false,Rx,0,8,00,00,0C,F0,B8,FF,00,FE,
4328968295,00000096,false,Rx,0,8,58,00,36,C7,01,FF,FF,FF,
4328981380,000001AE,false,Rx,0,2,FF,FF,00,00,00,00,00,00,
4328983520,00000514,false,Rx,0,8,00,00,00,00,00,00,00,14,
4328998317,00000096,false,Rx,0,8,58,00,36,C7,01,FF,FF,FF,
4328998602,00000272,false,Rx,0,8,63,FC,62,12,FF,FF,FF,FF,
4329013916,000003D8,false,Rx,0,8,03,FF,FF,FF,FF,FF,FF,FF,
4329014162,000005C0,false,Rx,0,8,40,94,00,29,FF,FF,FF,FF,
4329018108,000001EE,false,Rx,0,2,FF,FF,00,00,00,00,00,00,
4329018239,000002A6,false,Rx,0,2,FF,8F,00,00,00,00,00,00,
4329018424,00000349,false,Rx,0,5,FE,FF,FE,FF,00,00,00,00,
4329024960,000005C0,false,Rx,0,8,40,2B,03,05,FF,FF,FF,FF,
4329026885,0000031E,false,Rx,0,8,44,44,49,FF,78,FF,FF,FF,
4329028119,000001D6,false,Rx,0,2,FF,FF,00,00,00,00,00,00,
4329028255,000002A5,false,Rx,0,2,FF,FF,00,00,00,00,00,00,
4329028492,00000096,false,Rx,0,8,58,00,36,C7,01,FF,FF,FF,
4329028658,00000346,false,Rx,0,4,97,E4,70,F0,00,00,00,00,
4329034967,0000012F,false,Rx,0,8,2D,59,8A,DD,F1,31,36,C1,
4329044933,000001E1,false,Rx,0,6,6F,FE,FF,FF,FF,FF,00,00,
4329054350,0000003C,false,Rx,0,8,FF,7F,00,00,00,00,FF,FF,
4329058450,00000096,false,Rx,0,8,58,00,36,C7,01,FF,FF,FF,
4329081380,000001AE,false,Rx,0,2,FF,FF,00,00,00,00,00,00,
4329082283,00000510,false,Rx,0,8,40,10,80,00,00,00,00,00,
4329088316,00000096,false,Rx,0,8,58,00,36,C7,01,FF,FF,FF,
4329094840,000001F6,false,Rx,0,2,80,F0,00,00,00,00,00,00,
4329108276,00000314,false,Rx,0,3,FF,FF,FF,00,00,00,00,00,
4329118282,00000096,false,Rx,0,8,58,00,36,C7,01,FF,FF,FF,
4329134964,0000012F,false,Rx,0,8,CA,5A,8A,DD,F1,31,36,C1,
4329148291,00000096,false,Rx,0,8,58,00,36,C7,01,FF,FF,FF,
4329154206,000000C0,false,Rx,0,2,FB,40,00,00,00,00,00,00,
4329154459,0000003C,false,Rx,0,8,FF,7F,00,00,00,00,FF,FF,
4329158724,000003B4,false,Rx,0,8,00,00,0C,F0,B8,FF,00,FE,
4329178307,00000096,false,Rx,0,8,58,00,36,C7,01,FF,FF,FF,
4329181433,000001AE,false,Rx,0,2,FF,FF,00,00,00,00,00,00,
4329187989,00000540,false,Rx,0,8,00,00,00,00,09,48,FF,40,
4329193737,0000031E,false,Rx,0,8,44,44,49,FF,78,FF,FF,FF,
4329198750,00000272,false,Rx,0,8,3E,FD,62,12,FF,FF,FF,FF,
4329208322,00000096,false,Rx,0,8,58,00,36,C7,01,FF,FF,FF,
4329218322,00000349,false,Rx,0,5,FE,FF,FE,FF,00,00,00,00,
4329218596,00000252,false,Rx,0,2,CF,FF,00,00,00,00,00,00,
4329228241,000002A5,false,Rx,0,2,FF,FF,00,00,00,00,00,00,
4329234961,0000012F,false,Rx,0,8,97,5B,8A,DD,F1,31,36,C1,
4329238315,00000096,false,Rx,0,8,58,00,36,C7,01,FF,FF,FF,
4329244933,000001E1,false,Rx,0,6,79,F0,FF,FF,FF,FF,00,00,
4329254339,0000003C,false,Rx,0,8,FF,7F,00,00,00,00,FF,FF,
4329268181,00000314,false,Rx,0,3,FF,FF,FF,00,00,00,00,00,
4329268424,00000096,false,Rx,0,8,58,00,36,C7,01,FF,FF,FF,
4329281378,000001AE,false,Rx,0,2,FF,FF,00,00,00,00,00,00,
4329298285,00000096,false,Rx,0,8,58,00,36,C7,01,FF,FF,FF,
4329328317,00000096,false,Rx,0,8,58,00,36,C7,01,FF,FF,FF,
4329334966,0000012F,false,Rx,0,8,19,5C,8A,DD,F1,31,36,C1,
4329354197,000000C0,false,Rx,0,2,FC,40,00,00,00,00,00,00,
4329354450,0000003C,false,Rx,0,8,FF,7F,00,00,00,00,FF,FF,
4329358312,00000096,false,Rx,0,8,58,00,36,C7,01,FF,FF,FF,
4329358866,000003B4,false,Rx,0,8,00,00,0C,F0,B8,FF,00,FE,
4329363693,0000031E,false,Rx,0,8,44,44,49,FF,78,FF,FF,FF,
4329378209,00000252,false,Rx,0,2,CF,FF,00,00,00,00,00,00,
4329381374,000001AE,false,Rx,0,2,FF,FF,00,00,00,00,00,00,
4329388312,00000096,false,Rx,0,8,58,00,36,C7,01,FF,FF,FF,
4329398880,00000272,false,Rx,0,8,D9,FE,62,12,FF,FF,FF,FF,
4329414093,000005C0,false,Rx,0,8,40,31,03,29,FF,FF,FF,FF,
4329418203,00000349,false,Rx,0,5,FE,FF,FE,FF,00,00,00,00,
4329418438,00000096,false,Rx,0,8,58,00,36,C7,01,FF,FF,FF,
4329428134,000002A5,false,Rx,0,2,FF,FF,00,00,00,00,00,00,
4329428295,00000314,false,Rx,0,3,FF,FF,FF,00,00,00,00,00,
4329434963,0000012F,false,Rx,0,8,44,5D,8A,DD,F1,31,36,C1,
4329444939,000001E1,false,Rx,0,6,13,F1,FF,FF,FF,FF,00,00,
4329448294,00000096,false,Rx,0,8,58,00,36,C7,01,FF,FF,FF,
4329454331,0000003C,false,Rx,0,8,FF,7F,00,00,00,00,FF,FF,
4329478381,00000096,false,Rx,0,8,58,00,36,C7,01,FF,FF,FF,
4329481373,000001AE,false,Rx,0,2,FF,FF,00,00,00,00,00,00,
4329508384,00000096,false,Rx,0,8,58,00,36,C7,01,FF,FF,FF,
4329508958,000003C3,false,Rx,0,8,88,04,C8,B0,08,C1,00,18,
4329528431,00000346,false,Rx,0,4,18,E5,70,F0,00,00,00,00,
4329533763,0000031E,false,Rx,0,8,44,44,49,FF,78,FF,FF,FF,
4329534955,0000012F,false,Rx,0,8,A3,5E,8A,DD,F1,31,36,C1,
4329538193,00000252,false,Rx,0,2,CF,FF,00,00,00,00,00,00,
4329538436,00000096,false,Rx,0,8,58,00,36,C7,01,FF,FF,FF,
4329554197,000000C0,false,Rx,0,2,FD,40,00,00,00,00,00,00,
4329554450,0000003C,false,Rx,0,8,FF,7F,00,00,00,00,FF,FF,
4329559007,000003B4,false,Rx,0,8,00,00,0C,F0,B8,FF,00,FE,
4329568290,00000096,false,Rx,0,8,58,00,36,C7,01,FF,FF,FF,
4329581420,000001AE,false,Rx,0,2,FF,FF,00,00,00,00,00,00,
4329588295,00000314,false,Rx,0,3,FF,FF,FF,00,00,00,00,00,
4329598280,00000096,false,Rx,0,8,58,00,36,C7,01,FF,FF,FF,
4329599020,00000272,false,Rx,0,8,D8,F0,62,12,FF,FF,FF,FF,
4329614088,000005C0,false,Rx,0,8,40,32,03,29,FF,FF,FF,FF,
4329618220,00000349,false,Rx,0,5,FE,FF,FE,FF,00,00,00,00,
4329623967,00000514,false,Rx,0,8,00,00,00,00,00,00,00,14,
4329628121,000002A5,false,Rx,0,2,FF,FF,00,00,00,00,00,00,
4329628363,00000096,false,Rx,0,8,58,00,36,C7,01,FF,FF,FF,
4329634961,0000012F,false,Rx,0,8,A2,50,8A,DD,F1,31,36,C1,
4329644938,000001E1,false,Rx,0,6,AD,F2,FF,FF,FF,FF,00,00,
4329654323,0000003C,false,Rx,0,8,FF,7F,00,00,00,00,FF,FF,
4329658393,00000096,false,Rx,0,8,58,00,36,C7,01,FF,FF,FF,
4329681368,000001AE,false,Rx,0,2,FF,FF,00,00,00,00,00,00,
4329688316,00000096,false,Rx,0,8,58,00,36,C7,01,FF,FF,FF,
4329718281,00000096,false,Rx,0,8,58,00,36,C7,01,FF,FF,FF,
4329722268,00000510,false,Rx,0,8,40,10,80,00,00,00,00,00,
4329734969,0000012F,false,Rx,0,8,FF,51,8A,DD,F1,31,36,C1,
4329748188,00000314,false,Rx,0,3,FF,FF,FF,00,00,00,00,00,
4329748421,00000096,false,Rx,0,8,58,00,36,C7,01,FF,FF,FF,
4329754191,000000C0,false,Rx,0,2,FE,40,00,00,00,00,00,00,
4329754443,0000003C,false,Rx,0,8,FF,7F,00,00,00,00,FF,FF,
4329759145,000003B4,false,Rx,0,8,00,00,0C,F0,B8,FF,00,FE,
4329778312,00000096,false,Rx,0,8,58,00,36,C7,01,FF,FF,FF,
4329781356,000001AE,false,Rx,0,2,FF,FF,00,00,00,00,00,00,
4329799155,00000272,false,Rx,0,8,85,F1,62,12,FF,FF,FF,FF,
4329808323,00000096,false,Rx,0,8,58,00,36,C7,01,FF,FF,FF,
4329814094,000005C0,false,Rx,0,8,40,B7,00,29,FF,FF,FF,FF,
4329818317,00000349,false,Rx,0,5,FE,FF,FE,FF,00,00,00,00,
4329828075,00000540,false,Rx,0,8,00,00,00,00,3E,49,FF,40,
4329828248,000002A5,false,Rx,0,2,FF,FF,00,00,00,00,00,00,
4329834967,0000012F,false,Rx,0,8,18,52,8A,DD,F1,31,36,C1,
4329838311,00000096,false,Rx,0,8,58,00,36,C7,01,FF,FF,FF,
4329844940,000001E1,false,Rx,0,6,C7,F3,FF,FF,FF,FF,00,00,
4329854326,0000003C,false,Rx,0,8,FF,7F,00,00,00,00,FF,FF,
4329868295,00000096,false,Rx,0,8,58,00,36,C7,01,FF,FF,FF,
4329881359,000001AE,false,Rx,0,2,FF,FF,00,00,00,00,00,00,
4329898286,00000096,false,Rx,0,8,58,00,36,C7,01,FF,FF,FF,
4329908295,00000314,false,Rx,0,3,FF,FF,FF,00,00,00,00,00,
4329928313,00000096,false,Rx,0,8,58,00,36,C7,01,FF,FF,FF,
4329934963,0000012F,false,Rx,0,8,45,53,8A,DD,F1,31,36,C1,
4329954224,000000C0,false,Rx,0,2,F0,40,00,00,00,00,00,00,
4329954478,0000003C,false,Rx,0,8,FF,7F,00,00,00,00,FF,FF,
4329958320,00000096,false,Rx,0,8,58,00,36,C7,01,FF,FF,FF,
4329959224,00000337,false,Rx,0,2,FF,FF,00,00,00,00,00,00,
4329959503,000003B4,false,Rx,0,8,00,00,0C,F0,B8,FF,00,FE,
4329981405,000001AE,false,Rx,0,2,FF,FF,00,00,00,00,00,00,
4329987326,000003A0,false,Rx,0,8,FF,FF,CF,FF,FF,FF,FF,FC,
4329988324,00000096,false,Rx,0,8,58,00,36,C7,01,FF,FF,FF,
4329999300,00000272,false,Rx,0,8,62,F2,62,12,FF,FF,FF,FF,
4330013691,000003D8,false,Rx,0,8,03,FF,FF,FF,FF,FF,FF,FF,
4330018103,000001EE,false,Rx,0,2,FF,FF,00,00,00,00,00,00,
4330018234,000002A6,false,Rx,0,2,FF,97,00,00,00,00,00,00,
4330018471,00000096,false,Rx,0,8,58,00,36,C7,01,FF,FF,FF,
4330018658,00000349,false,Rx,0,5,FE,FF,FE,FF,00,00,00,00,
4330024959,000005C0,false,Rx,0,8,40,2B,03,05,FF,FF,FF,FF,
4330028130,000001D6,false,Rx,0,2,FF,FF,00,00,00,00,00,00,
4330028270,000002A5,false,Rx,0,2,FF,FF,00,00,00,00,00,00,
4330028424,00000346,false,Rx,0,4,94,E6,70,F0,00,00,00,00,
4330033830,0000031E,false,Rx,0,8,44,44,49,FF,78,FF,FF,FF,
4330034962,0000012F,false,Rx,0,8,CB,54,8A,DD,F1,31,36,C1,
4330044933,000001E1,false,Rx,0,6,CC,F4,FF,FF,FF,FF,00,00,
4330048298,00000096,false,Rx,0,8,58,00,36,C7,01,FF,FF,FF,
4330054316,0000003C,false,Rx,0,8,FF,7F,00,00,00,00,FF,FF,
4330068292,00000314,false,Rx,0,3,FF,FF,FF,00,00,00,00,00,
4330078301,00000096,false,Rx,0,8,58,00,36,C7,01,FF,FF,FF,
4330081355,000001AE,false,Rx,0,2,FF,FF,00,00,00,00,00,00,
4330108316,00000096,false,Rx,0,8,58,00,36,C7,01,FF,FF,FF,
4330134965,0000012F,false,Rx,0,8,96,55,8A,DD,F1,31,36,C1,
4330138320,00000096,false,Rx,0,8,58,00,36,C7,01,FF,FF,FF,
4330154183,000000C0,false,Rx,0,2,F1,40,00,00,00,00,00,00,
4330154436,0000003C,false,Rx,0,8,FF,7F,00,00,00,00,FF,FF,
4330159417,000003B4,false,Rx,0,8,00,00,0C,F0,B8,FF,00,FE,
4330168295,00000096,false,Rx,0,8,58,00,36,C7,01,FF,FF,FF,
4330181353,000001AE,false,Rx,0,2,FF,FF,00,00,00,00,00,00,
4330198292,00000096,false,Rx,0,8,58,00,36,C7,01,FF,FF,FF,
4330199434,00000272,false,Rx,0,8,3F,F3,62,12,FF,FF,FF,FF,
4330218223,00000349,false,Rx,0,5,FE,FF,FE,FF,00,00,00,00,
4330228126,000002A5,false,Rx,0,2,FF,FF,00,00,00,00,00,00,
4330228276,00000314,false,Rx,0,3,FF,FF,FF,00,00,00,00,00,
4330228513,00000096,false,Rx,0,8,58,00,36,C7,01,FF,FF,FF,
4330234969,0000012F,false,Rx,0,8,71,56,8A,DD,F1,31,36,C1,
4330244935,000001E1,false,Rx,0,6,A6,F5,FF,FF,FF,FF,00,00,
4330254321,0000003C,false,Rx,0,8,FF,7F,00,00,00,00,FF,FF,
4330258421,00000096,false,Rx,0,8,58,00,36,C7,01,FF,FF,FF,
4330281353,000001AE,false,Rx,0,2,FF,FF,00,00,00,00,00,00,
4330288415,00000096,false,Rx,0,8,58,00,36,C7,01,FF,FF,FF,
4330318290,00000096,false,Rx,0,8,58,00,36,C7,01,FF,FF,FF,
4330334971,0000012F,false,Rx,0,8,2C,57,8A,DD,F1,31,36,C1,
4330348295,00000096,false,Rx,0,8,58,00,36,C7,01,FF,FF,FF,
4330354178,000000C0,false,Rx,0,2,F2,40,00,00,00,00,00,00,
4330354431,0000003C,false,Rx,0,8,FF,7F,00,00,00,00,FF,FF,
4330359559,000003B4,false,Rx,0,8,00,00,0C,F0,B8,FF,00,FE,
4330362251,00000510,false,Rx,0,8,40,10,80,00,00,00,00,00,
4330378310,00000096,false,Rx,0,8,58,00,36,C7,01,FF,FF,FF,
4330381344,000001AE,false,Rx,0,2,FF,FF,00,00,00,00,00,00,
4330388376,00000314,false,Rx,0,3,FF,FF,FF,00,00,00,00,00,
4330399574,00000272,false,Rx,0,8,B1,F4,62,12,FF,FF,FF,FF,
4330408318,00000096,false,Rx,0,8,58,00,36,C7,01,FF,FF,FF,
4330418399,00000349,false,Rx,0,5,FE,FF,FE,FF,00,00,00,00,
4330428282,000002A5,false,Rx,0,2,FF,FF,00,00,00,00,00,00,
4330434969,0000012F,false,Rx,0,8,70,58,8A,DD,F1,31,36,C1,
4330438316,00000096,false,Rx,0,8,58,00,36,C7,01,FF,FF,FF,
4330444934,000001E1,false,Rx,0,6,18,F6,FF,FF,FF,FF,00,00,
4330454311,0000003C,false,Rx,0,8,FF,7F,00,00,00,00,FF,FF,
4330468038,00000540,false,Rx,0,8,00,00,00,00,3B,00,FF,40,
4330468366,00000096,false,Rx,0,8,58,00,36,C7,01,FF,FF,FF,
4330469624,000003C3,false,Rx,0,8,89,08,C8,B0,08,C1,00,18,
4330481342,000001AE,false,Rx,0,2,FF,FF,00,00,00,00,00,00,
4330498291,00000096,false,Rx,0,8,58,00,36,C7,01,FF,FF,FF,
4330528311,00000096,false,Rx,0,8,58,00,36,C7,01,FF,FF,FF,
4330528484,00000346,false,Rx,0,4,1B,E7,70,F0,00,00,00,00,
4330534975,0000012F,false,Rx,0,8,2D,59,8A,DD,F1,31,36,C1,
4330548311,00000314,false,Rx,0,3,FF,FF,FF,00,00,00,00,00,
4330554171,000000C0,false,Rx,0,2,F3,40,00,00,00,00,00,00,
4330554425,0000003C,false,Rx,0,8,FF,7F,00,00,00,00,FF,FF,
4330558318,00000096,false,Rx,0,8,58,00,36,C7,01,FF,FF,FF,
4330559696,000003B4,false,Rx,0,8,00,00,0C,F0,B8,FF,00,FE,
4330581339,000001AE,false,Rx,0,2,FF,FF,00,00,00,00,00,00,
4330588318,00000096,false,Rx,0,8,58,00,36,C7,01,FF,FF,FF,
4330599714,00000272,false,Rx,0,8,EC,F5,62,12,FF,FF,FF,FF,
4330618219,00000349,false,Rx,0,5,FE,FF,FE,FF,00,00,00,00,
4330618453,00000096,false,Rx,0,8,58,00,36,C7,01,FF,FF,FF,
4330628140,000002A5,false,Rx,0,2,FF,FF,00,00,00,00,00,00,
4330634963,0000012F,false,Rx,0,8,CA,5A,8A,DD,F1,31,36,C1,
4330644939,000001E1,false,Rx,0,6,72,F7,FF,FF,FF,FF,00,00,
4330648293,00000096,false,Rx,0,8,58,00,36,C7,01,FF,FF,FF,
4330654310,0000003C,false,Rx,0,8,FF,7F,00,00,00,00,FF,FF,
4330678308,00000096,false,Rx,0,8,58,00,36,C7,01,FF,FF,FF,
4330681341,000001AE,false,Rx,0,2,FF,FF,00,00,00,00,00,00,
4330708219,00000314,false,Rx,0,3,FF,FF,FF,00,00,00,00,00,
4330708452,00000096,false,Rx,0,8,58,00,36,C7,01,FF,FF,FF,
4330734958,0000012F,false,Rx,0,8,97,5B,8A,DD,F1,31,36,C1,
4330738312,00000096,false,Rx,0,8,58,00,36,C7,01,FF,FF,FF,
4330754167,000000C0,false,Rx,0,2,F4,40,00,00,00,00,00,00,
4330754419,0000003C,false,Rx,0,8,FF,7F,00,00,00,00,FF,FF,
4330759836,000003B4,false,Rx,0,8,00,00,0C,F0,B8,FF,00,FE,
4330768290,00000096,false,Rx,0,8,58,00,36,C7,01,FF,FF,FF,
4330781336,000001AE,false,Rx,0,2,FF,FF,00,00,00,00,00,00,
4330798295,00000096,false,Rx,0,8,58,00,36,C7,01,FF,FF,FF,
4330799859,00000272,false,Rx,0,8,0B,F6,62,12,FF,FF,FF,FF,
4330818228,00000349,false,Rx,0,5,FE,FF,FE,FF,00,00,00,00,
4330828131,000002A5,false,Rx,0,2,FF,FF,00,00,00,00,00,00,
4330828375,00000096,false,Rx,0,8,58,00,36,C7,01,FF,FF,FF,
4330834972,0000012F,false,Rx,0,8,19,5C,8A,DD,F1,31,36,C1,
4330844947,000001E1,false,Rx,0,6,0E,F8,FF,FF,FF,FF,00,00,
4330854302,0000003C,false,Rx,0,8,FF,7F,00,00,00,00,FF,FF,
4330858477,00000096,false,Rx,0,8,58,00,36,C7,01,FF,FF,FF,
4330868214,00000314,false,Rx,0,3,FF,FF,FF,00,00,00,00,00,
4330881341,000001AE,false,Rx,0,2,FF,FF,00,00,00,00,00,00,
4330888322,00000096,false,Rx,0,8,58,00,36,C7,01,FF,FF,FF,
4330918291,00000096,false,Rx,0,8,58,00,36,C7,01,FF,FF,FF,
4330934963,0000012F,false,Rx,0,8,44,5D,8A,DD,F1,31,36,C1,
4330948298,00000096,false,Rx,0,8,58,00,36,C7,01,FF,FF,FF,
4330954212,000000C0,false,Rx,0,2,F5,40,00,00,00,00,00,00,
4330954456,0000003C,false,Rx,0,8,FF,7F,00,00,00,00,FF,FF,
4330959872,00000337,false,Rx,0,2,FF,FF,00,00,00,00,00,00,
4330960157,000003B4,false,Rx,0,8,00,00,0C,F0,B8,FF,00,FE,
4330978312,00000096,false,Rx,0,8,58,00,36,C7,01,FF,FF,FF,
4330981335,000001AE,false,Rx,0,2,FF,FF,00,00,00,00,00,00,
4330999992,00000272,false,Rx,0,8,56,F7,62,12,FF,FF,FF,FF,
4331002238,00000510,false,Rx,0,8,40,10,80,00,00,00,00,00,
4331008317,00000096,false,Rx,0,8,58,00,36,C7,01,FF,FF,FF,
4331013918,000003D8,false,Rx,0,8,03,FF,FF,FF,FF,FF,FF,FF,
4331018217,000001EE,false,Rx,0,2,FF,FF,00,00,00,00,00,00,
4331018357,000002A6,false,Rx,0,2,FF,9F,00,00,00,00,00,00,
4331018543,00000349,false,Rx,0,5,FE,FF,FE,FF,00,00,00,00,
4331024965,000005C0,false,Rx,0,8,40,2B,03,05,FF,FF,FF,FF,
4331028239,000001D6,false,Rx,0,2,FF,FF,00,00,00,00,00,00,
4331028368,000002A5,false,Rx,0,2,FF,FF,00,00,00,00,00,00,
4331028523,00000314,false,Rx,0,3,FF,FF,FF,00,00,00,00,00,
4331028688,00000346,false,Rx,0,4,9D,E8,70,F0,00,00,00,00,
4331033767,0000031E,false,Rx,0,8,44,44,49,FF,78,FF,FF,FF,
4331034971,0000012F,false,Rx,0,8,A3,5E,8A,DD,F1,31,36,C1,
4331038322,00000096,false,Rx,0,8,58,00,36,C7,01,FF,FF,FF,
4331044939,000001E1,false,Rx,0,6,64,F9,FF,FF,FF,FF,00,00,
4331054296,0000003C,false,Rx,0,8,FF,7F,00,00,00,00,FF,FF,
4331068293,00000096,false,Rx,0,8,58,00,36,C7,01,FF,FF,FF,
4331081326,000001AE,false,Rx,0,2,FF,FF,00,00,00,00,00,00,
4331094854,000001F6,false,Rx,0,2,80,F0,00,00,00,00,00,00,
4331098290,00000096,false,Rx,0,8,58,00,36,C7,01,FF,FF,FF,
4331108000,00000540,false,Rx,0,8,00,00,00,00,FE,31,FF,40,
4331128317,00000096,false,Rx,0,8,58,00,36,C7,01,FF,FF,FF,
4331134967,0000012F,false,Rx,0,8,A2,50,8A,DD,F1,31,36,C1,
4331154156,000000C0,false,Rx,0,2,F6,40,00,00,00,00,00,00,
4331154409,0000003C,false,Rx,0,8,FF,7F,00,00,00,00,FF,FF,
4331158313,00000096,false,Rx,0,8,58,00,36,C7,01,FF,FF,FF,
4331160114,000003B4,false,Rx,0,8,00,00,0C,F0,B8,FF,00,FE,
4331181322,000001AE,false,Rx,0,2,FF,FF,00,00,00,00,00,00,
4331188218,00000314,false,Rx,0,3,FF,FF,FF,00,00,00,00,00,
4331188461,00000096,false,Rx,0,8,58,00,36,C7,01,FF,FF,FF,
4331200141,00000272,false,Rx,0,8,0A,F8,62,12,FF,FF,FF,FF,
4331218231,00000349,false,Rx,0,5,FE,FF,FE,FF,00,00,00,00,
4331218464,00000096,false,Rx,0,8,58,00,36,C7,01,FF,FF,FF,
4331228141,000002A5,false,Rx,0,2,FF,FF,00,00,00,00,00,00,
4331234975,0000012F,false,Rx,0,8,FF,51,8A,DD,F1,31,36,C1,
4331244942,000001E1,false,Rx,0,6,DA,FA,FF,FF,FF,FF,00,00,
4331248296,00000096,false,Rx,0,8,58,00,36,C7,01,FF,FF,FF,
4331254282,0000003C,false,Rx,0,8,FF,7F,00,00,00,00,FF,FF,
4331278311,00000096,false,Rx,0,8,58,00,36,C7,01,FF,FF,FF,
4331281324,000001AE,false,Rx,0,2,FF,FF,00,00,00,00,00,00,
4331308326,00000096,false,Rx,0,8,58,00,36,C7,01,FF,FF,FF,
4331334975,0000012F,false,Rx,0,8,18,52,8A,DD,F1,31,36,C1,
4331338321,00000096,false,Rx,0,8,58,00,36,C7,01,FF,FF,FF,
4331348193,00000314,false,Rx,0,3,FF,FF,FF,00,00,00,00,00,
4331354157,000000C0,false,Rx,0,2,F7,40,00,00,00,00,00,00,
4331354400,0000003C,false,Rx,0,8,FF,7F,00,00,00,00,FF,FF,
4331360253,000003B4,false,Rx,0,8,00,00,0C,F0,B8,FF,00,FE,
4331368292,00000096,false,Rx,0,8,58,00,36,C7,01,FF,FF,FF,
4331381326,000001AE,false,Rx,0,2,FF,FF,00,00,00,00,00,00,
4331398296,00000096,false,Rx,0,8,58,00,36,C7,01,FF,FF,FF,
4331400272,00000272,false,Rx,0,8,57,F9,62,12,FF,FF,FF,FF,
4331414104,000005C0,false,Rx,0,8,40,E7,00,29,FF,FF,FF,FF,
4331418235,00000349,false,Rx,0,5,FE,FF,FE,FF,00,00,00,00,
4331428137,000002A5,false,Rx,0,2,FF,FF,00,00,00,00,00,00,
4331428370,00000096,false,Rx,0,8,58,00,36,C7,01,FF,FF,FF,
4331430284,000003C3,false,Rx,0,8,8A,10,49,92,24,49,92,24,
4331434963,0000012F,false,Rx,0,8,45,53,8A,DD,F1,31,36,C1,
4331444939,000001E1,false,Rx,0,6,B0,FB,FF,FF,FF,FF,00,00,
4331454284,0000003C,false,Rx,0,8,FF,7F,00,00,00,00,FF,FF,
4331458675,00000096,false,Rx,0,8,58,00,36,C7,01,FF,FF,FF,
4331481318,000001AE,false,Rx,0,2,FF,FF,00,00,00,00,00,00,
4331488318,00000096,false,Rx,0,8,58,00,36,C7,01,FF,FF,FF,
4331508285,00000314,false,Rx,0,3,FF,FF,FF,00,00,00,00,00,
4331518291,00000096,false,Rx,0,8,58,00,36,C7,01,FF,FF,FF,
4331528256,00000346,false,Rx,0,4,12,E9,70,F0,00,00,00,00,
4331534966,0000012F,false,Rx,0,8,CB,54,8A,DD,F1,31,36,C1,
4331548300,00000096,false,Rx,0,8,58,00,36,C7,01,FF,FF,FF,
4331554144,000000C0,false,Rx,0,2,F8,40,00,00,00,00,00,00,
4331554397,0000003C,false,Rx,0,8,FF,7F,00,00,00,00,FF,FF,
4331560384,000003B4,false,Rx,0,8,00,00,0C,F0,B8,FF,00,FE,
4331578311,00000096,false,Rx,0,8,58,00,36,C7,01,FF,FF,FF,
4331581314,000001AE,false,Rx,0,2,FF,FF,00,00,00,00,00,00,
4331600409,00000272,false,Rx,0,8,B0,FA,62,12,FF,FF,FF,FF,
4331608322,00000096,false,Rx,0,8,58,00,36,C7,01,FF,FF,FF,
4331614105,000005C0,false,Rx,0,8,40,31,03,28,FF,FF,FF,FF,
4331618328,00000349,false,Rx,0,5,FE,FF,FE,FF,00,00,00,00,
4331628242,000002A5,false,Rx,0,2,FF,FF,00,00,00,00,00,00,
4331634963,0000012F,false,Rx,0,8,96,55,8A,DD,F1,31,36,C1,
4331638317,00000096,false,Rx,0,8,58,00,36,C7,01,FF,FF,FF,
4331642220,00000510,false,Rx,0,8,40,10,80,00,00,00,00,00,
4331644942,000001E1,false,Rx,0,6,BB,FC,FF,FF,FF,FF,00,00,
4331654275,0000003C,false,Rx,0,8,FF,7F,00,00,00,00,FF,FF,
4331668192,00000314,false,Rx,0,3,FF,FF,FF,00,00,00,00,00,
4331668435,00000096,false,Rx,0,8,58,00,36,C7,01,FF,FF,FF,
4331681316,000001AE,false,Rx,0,2,FF,FF,00,00,00,00,00,00,
4331698295,00000096,false,Rx,0,8,58,00,36,C7,01,FF,FF,FF,
4331728317,00000096,false,Rx,0,8,58,00,36,C7,01,FF,FF,FF,
4331734966,0000012F,false,Rx,0,8,71,56,8A,DD,F1,31,36,C1,
4331748084,00000540,false,Rx,0,8,00,00,00,00,FF,3B,FF,40,
4331754152,000000C0,false,Rx,0,2,F9,40,00,00,00,00,00,00,
4331754395,0000003C,false,Rx,0,8,FF,7F,00,00,00,00,FF,FF,
4331758319,00000096,false,Rx,0,8,58,00,36,C7,01,FF,FF,FF,
4331760523,000003B4,false,Rx,0,8,00,00,0C,F0,B8,FF,00,FE,
4331781307,000001AE,false,Rx,0,2,FF,FF,00,00,00,00,00,00,
4331788328,00000096,false,Rx,0,8,58,00,36,C7,01,FF,FF,FF,
4331800543,00000272,false,Rx,0,8,ED,FB,62,12,FF,FF,FF,FF,
4331814095,000005C0,false,Rx,0,8,40,32,03,28,FF,FF,FF,FF,
4331818216,00000349,false,Rx,0,5,FE,FF,FE,FF,00,00,00,00,
4331818450,00000096,false,Rx,0,8,58,00,36,C7,01,FF,FF,FF,
4331828146,000002A5,false,Rx,0,2,FF,FF,00,00,00,00,00,00,
4331828296,00000314,false,Rx,0,3,FF,FF,FF,00,00,00,00,00,
4331834964,0000012F,false,Rx,0,8,2C,57,8A,DD,F1,31,36,C1,
4331844943,000001E1,false,Rx,0,6,D1,FD,FF,FF,FF,FF,00,00,
4331848297,00000096,false,Rx,0,8,58,00,36,C7,01,FF,FF,FF,
4331854273,0000003C,false,Rx,0,8,FF,7F,00,00,00,00,FF,FF,
4331878324,00000096,false,Rx,0,8,58,00,36,C7,01,FF,FF,FF,
4331881306,000001AE,false,Rx,0,2,FF,FF,00,00,00,00,00,00,
4331908317,00000096,false,Rx,0,8,58,00,36,C7,01,FF,FF,FF,
4331934969,0000012F,false,Rx,0,8,70,58,8A,DD,F1,31,36,C1,
4331938316,00000096,false,Rx,0,8,58,00,36,C7,01,FF,FF,FF,
4331954177,000000C0,false,Rx,0,2,FA,40,00,00,00,00,00,00,
4331954432,0000003C,false,Rx,0,8,FF,7F,00,00,00,00,FF,FF,
4331960554,00000337,false,Rx,0,2,FF,FF,00,00,00,00,00,00,
4331960838,000003B4,false,Rx,0,8,00,00,0C,F0,B8,FF,00,FE,
4331968349,00000096,false,Rx,0,8,58,00,36,C7,01,FF,FF,FF,
4331981311,000001AE,false,Rx,0,2,FF,FF,00,00,00,00,00,00,
4331988301,00000314,false,Rx,0,3,FF,FF,FF,00,00,00,00,00,
4331998295,00000096,false,Rx,0,8,58,00,36,C7,01,FF,FF,FF,
4332000686,00000272,false,Rx,0,8,63,FC,62,12,FF,FF,FF,FF,
4332013938,000003D8,false,Rx,0,8,03,FF,FF,FF,FF,FF,FF,FF,
4332018176,000001EE,false,Rx,0,2,FF,FF,00,00,00,00,00,00,
4332018316,000002A6,false,Rx,0,2,FF,A7,00,00,00,00,00,00,
4332018563,000002FC,false,Rx,0,8,81,FF,05,FF,FF,FF,FF,FF,
4332018750,00000349,false,Rx,0,5,FE,FF,FE,FF,00,00,00,00,
4332024970,000005C0,false,Rx,0,8,40,2B,03,05,FF,FF,FF,FF,
4332028181,000001D6,false,Rx,0,2,FF,FF,00,00,00,00,00,00,
4332028320,000002A5,false,Rx,0,2,FF,FF,00,00,00,00,00,00,
4332028557,00000096,false,Rx,0,8,58,00,36,C7,01,FF,FF,FF,
4332028713,00000346,false,Rx,0,4,9E,EA,70,F0,00,00,00,00,
4332033906,0000031E,false,Rx,0,8,44,44,49,FF,78,FF,FF,FF,
4332034976,0000012F,false,Rx,0,8,2D,59,8A,DD,F1,31,36,C1,
4332038243,00000202,false,Rx,0,2,FD,FF,00,00,00,00,00,00,
4332044943,000001E1,false,Rx,0,6,6F,FE,FF,FF,FF,FF,00,00,
4332048276,0000021A,false,Rx,0,3,85,1E,F7,00,00,00,00,00,
4332048405,0000036A,false,Rx,0,2,F5,FF,00,00,00,00,00,00,
4332054266,0000003C,false,Rx,0,8,FF,7F,00,00,00,00,FF,FF,
4332058365,00000096,false,Rx,0,8,58,00,36,C7,01,FF,FF,FF,
4332068197,0000034F,false,Rx,0,2,FC,FF,00,00,00,00,00,00,
4332081300,000001AE,false,Rx,0,2,FF,FF,00,00,00,00,00,00,
4332088321,00000096,false,Rx,0,8,58,00,36,C7,01,FF,FF,FF,
4332118298,00000096,false,Rx,0,8,58,00,36,C7,01,FF,FF,FF,
4332134969,0000012F,false,Rx,0,8,CA,5A,8A,DD,F1,31,36,C1,
4332148199,00000314,false,Rx,0,3,FF,FF,FF,00,00,00,00,00,
4332148431,00000096,false,Rx,0,8,58,00,36,C7,01,FF,FF,FF,
4332154129,000000C0,false,Rx,0,2,FB,40,00,00,00,00,00,00,
4332154382,0000003C,false,Rx,0,8,FF,7F,00,00,00,00,FF,FF,
4332160802,000003B4,false,Rx,0,8,00,00,0C,F0,B8,FF,00,FE,
4332178312,00000096,false,Rx,0,8,58,00,36,C7,01,FF,FF,FF,
4332181304,000001AE,false,Rx,0,2,FF,FF,00,00,00,00,00,00,
4332200824,00000272,false,Rx,0,8,3E,FD,62,12,FF,FF,FF,FF,
4332208323,00000096,false,Rx,0,8,58,00,36,C7,01,FF,FF,FF,
4332218331,00000349,false,Rx,0,5,FE,FF,FE,FF,00,00,00,00,
4332223560,000002A0,false,Rx,0,8,88,88,F8,0F,FF,FF,FF,FF,
4332228241,000002A5,false,Rx,0,2,FF,FF,00,00,00,00,00,00,
4332234961,0000012F,false,Rx,0,8,97,5B,8A,DD,F1,31,36,C1,
4332238326,00000096,false,Rx,0,8,58,00,36,C7,01,FF,FF,FF,
4332244944,000001E1,false,Rx,0,6,79,F0,FF,FF,FF,FF,00,00,
4332254269,0000003C,false,Rx,0,8,FF,7F,00,00,00,00,FF,FF,
4332268298,00000096,false,Rx,0,8,58,00,36,C7,01,FF,FF,FF,
4332281300,000001AE,false,Rx,0,2,FF,FF,00,00,00,00,00,00,
4332282204,00000510,false,Rx,0,8,40,10,80,00,00,00,00,00,
4332298391,00000096,false,Rx,0,8,58,00,36,C7,01,FF,FF,FF,
4332308232,00000314,false,Rx,0,3,FF,FF,FF,00,00,00,00,00,
4332328322,00000096,false,Rx,0,8,58,00,36,C7,01,FF,FF,FF,
4332334969,0000012F,false,Rx,0,8,19,5C,8A,DD,F1,31,36,C1,
4332354131,000000C0,false,Rx,0,2,FC,40,00,00,00,00,00,00,
4332354373,0000003C,false,Rx,0,8,FF,7F,00,00,00,00,FF,FF,
4332358320,00000096,false,Rx,0,8,58,00,36,C7,01,FF,FF,FF,
4332360989,000003B4,false,Rx,0,8,00,00,0C,F0,B8,FF,00,FE,
4332381297,000001AE,false,Rx,0,2,FF,FF,00,00,00,00,00,00,
4332387986,00000540,false,Rx,0,8,00,00,00,00,09,48,FF,40,
4332388346,00000096,false,Rx,0,8,58,00,36,C7,01,FF,FF,FF,
4332390990,000003C3,false,Rx,0,8,8B,14,09,92,24,49,92,24,
4332401067,00000272,false,Rx,0,8,D9,FE,62,12,FF,FF,FF,FF,
4332418215,00000349,false,Rx,0,5,FE,FF,FE,FF,00,00,00,00,
4332418458,00000096,false,Rx,0,8,58,00,36,C7,01,FF,FF,FF,
4332428146,000002A5,false,Rx,0,2,FF,FF,00,00,00,00,00,00,
4332434968,0000012F,false,Rx,0,8,44,5D,8A,DD,F1,31,36,C1,
4332444944,000001E1,false,Rx,0,6,13,F1,FF,FF,FF,FF,00,00,
4332448300,00000096,false,Rx,0,8,58,00,36,C7,01,FF,FF,FF,
4332454255,0000003C,false,Rx,0,8,FF,7F,00,00,00,00,FF,FF,
4332468304,00000314,false,Rx,0,3,FF,FF,FF,00,00,00,00,00,
4332478311,00000096,false,Rx,0,8,58,00,36,C7,01,FF,FF,FF,
4332481366,000001AE,false,Rx,0,2,FF,FF,00,00,00,00,00,00,
4332508326,00000096,false,Rx,0,8,58,00,36,C7,01,FF,FF,FF,
4332528347,00000346,false,Rx,0,4,11,EB,70,F0,00,00,00,00,
4332534976,0000012F,false,Rx,0,8,A3,5E,8A,DD,F1,31,36,C1,
4332538321,00000096,false,Rx,0,8,58,00,36,C7,01,FF,FF,FF,
4332554122,000000C0,false,Rx,0,2,FD,40,00,00,00,00,00,00,
4332554374,0000003C,false,Rx,0,8,FF,7F,00,00,00,00,FF,FF,
4332561130,000003B4,false,Rx,0,8,00,00,0C,F0,B8,FF,00,FE,
4332568300,00000096,false,Rx,0,8,58,00,36,C7,01,FF,FF,FF,
4332581292,000001AE,false,Rx,0,2,FF,FF,00,00,00,00,00,00,
4332598292,00000096,false,Rx,0,8,58,00,36,C7,01,FF,FF,FF,
4332601159,00000272,false,Rx,0,8,D8,F0,62,12,FF,FF,FF,FF,
4332614110,000005C0,false,Rx,0,8,40,00,01,29,FF,FF,FF,FF,
4332618232,00000349,false,Rx,0,5,FE,FF,FE,FF,00,00,00,00,
4332628135,000002A5,false,Rx,0,2,FF,FF,00,00,00,00,00,00,
4332628285,00000314,false,Rx,0,3,FF,FF,FF,00,00,00,00,00,
4332628532,00000096,false,Rx,0,8,58,00,36,C7,01,FF,FF,FF,
4332634967,0000012F,false,Rx,0,8,A2,50,8A,DD,F1,31,36,C1,
4332644943,000001E1,false,Rx,0,6,AD,F2,FF,FF,FF,FF,00,00,
4332654256,0000003C,false,Rx,0,8,FF,7F,00,00,00,00,FF,FF,
4332658439,00000096,false,Rx,0,8,58,00,36,C7,01,FF,FF,FF,
4332681290,000001AE,false,Rx,0,2,FF,FF,00,00,00,00,00,00,
4332688331,00000096,false,Rx,0,8,58,00,36,C7,01,FF,FF,FF,
4332718289,00000096,false,Rx,0,8,58,00,36,C7,01,FF,FF,FF,
4332734980,0000012F,false,Rx,0,8,FF,51,8A,DD,F1,31,36,C1,
4332748295,00000096,false,Rx,0,8,58,00,36,C7,01,FF,FF,FF,
4332754116,000000C0,false,Rx,0,2,FE,40,00,00,00,00,00,00,
4332754369,0000003C,false,Rx,0,8,FF,7F,00,00,00,00,FF,FF,
4332761279,000003B4,false,Rx,0,8,00,00,0C,F0,B8,FF,00,FE,
4332778312,00000096,false,Rx,0,8,58,00,36,C7,01,FF,FF,FF,
4332781284,000001AE,false,Rx,0,2,FF,FF,00,00,00,00,00,00,
4332788222,00000314,false,Rx,0,3,FF,FF,FF,00,00,00,00,00,
4332801253,00000272,false,Rx,0,8,85,F1,62,12,FF,FF,FF,FF,
4332808328,00000096,false,Rx,0,8,58,00,36,C7,01,FF,FF,FF,
4332818326,00000349,false,Rx,0,5,FE,FF,FE,FF,00,00,00,00,
4332828240,000002A5,false,Rx,0,2,FF,FF,00,00,00,00,00,00,
4332834968,0000012F,false,Rx,0,8,18,52,8A,DD,F1,31,36,C1,
4332838324,00000096,false,Rx,0,8,58,00,36,C7,01,FF,FF,FF,
4332844942,000001E1,false,Rx,0,6,C7,F3,FF,FF,FF,FF,00,00,
4332854255,0000003C,false,Rx,0,8,FF,7F,00,00,00,00,FF,FF,
4332868306,00000096,false,Rx,0,8,58,00,36,C7,01,FF,FF,FF,
4332881340,000001AE,false,Rx,0,2,FF,FF,00,00,00,00,00,00,
4332898298,00000096,false,Rx,0,8,58,00,36,C7,01,FF,FF,FF,
4332922244,00000510,false,Rx,0,8,40,10,80,00,00,00,00,00,
4332928314,00000096,false,Rx,0,8,58,00,36,C7,01,FF,FF,FF,
4332934972,0000012F,false,Rx,0,8,45,53,8A,DD,F1,31,36,C1,
4332948307,00000314,false,Rx,0,3,FF,FF,FF,00,00,00,00,00,
4332954148,000000C0,false,Rx,0,2,F0,40,00,00,00,00,00,00,
4332954402,0000003C,false,Rx,0,8,FF,7F,00,00,00,00,FF,FF,
4332958326,00000096,false,Rx,0,8,58,00,36,C7,01,FF,FF,FF,
4332961257,00000337,false,Rx,0,2,FF,FF,00,00,00,00,00,00,
4332961540,000003B4,false,Rx,0,8,00,00,0C,F0,B8,FF,00,FE,
4332981280,000001AE,false,Rx,0,2,FF,FF,00,00,00,00,00,00,
4332988331,00000096,false,Rx,0,8,58,00,36,C7,01,FF,FF,FF,
4333001378,00000272,false,Rx,0,8,62,F2,62,12,FF,FF,FF,FF,
4333013923,000003D8,false,Rx,0,8,03,FF,FF,FF,FF,FF,FF,FF,
4333018110,000001EE,false,Rx,0,2,FF,FF,00,00,00,00,00,00,
4333018239,000002A6,false,Rx,0,2,FF,AF,00,00,00,00,00,00,
4333018476,00000096,false,Rx,0,8,58,00,36,C7,01,FF,FF,FF,
4333018663,00000349,false,Rx,0,5,FE,FF,FE,FF,00,00,00,00,
4333024976,000005C0,false,Rx,0,8,40,2B,03,05,FF,FF,FF,FF,
4333027988,00000540,false,Rx,0,8,00,00,00,00,3E,49,FF,40,
4333028161,000001D6,false,Rx,0,2,FF,FF,00,00,00,00,00,00,
4333028296,000002A5,false,Rx,0,2,FF,FF,00,00,00,00,00,00,
4333028461,00000346,false,Rx,0,4,9B,EC,70,F0,00,00,00,00,
4333033776,0000031E,false,Rx,0,8,44,44,49,FF,78,FF,FF,FF,
4333034970,0000012F,false,Rx,0,8,CB,54,8A,DD,F1,31,36,C1,
4333044943,000001E1,false,Rx,0,6,CC,F4,FF,FF,FF,FF,00,00,
4333048297,00000096,false,Rx,0,8,58,00,36,C7,01,FF,FF,FF,
4333054244,0000003C,false,Rx,0,8,FF,7F,00,00,00,00,FF,FF,
4333078316,00000096,false,Rx,0,8,58,00,36,C7,01,FF,FF,FF,
4333081278,000001AE,false,Rx,0,2,FF,FF,00,00,00,00,00,00,
4333094860,000001F6,false,Rx,0,2,80,F0,00,00,00,00,00,00,
4333108223,00000314,false,Rx,0,3,FF,FF,FF,00,00,00,00,00,
4333108466,00000096,false,Rx,0,8,58,00,36,C7,01,FF,FF,FF,
4333134963,0000012F,false,Rx,0,8,96,55,8A,DD,F1,31,36,C1,
4333138328,00000096,false,Rx,0,8,58,00,36,C7,01,FF,FF,FF,
4333154110,000000C0,false,Rx,0,2,F1,40,00,00,00,00,00,00,
4333154363,0000003C,false,Rx,0,8,FF,7F,00,00,00,00,FF,FF,
4333161499,000003B4,false,Rx,0,8,00,00,0C,F0,B8,FF,00,FE,
4333168305,00000096,false,Rx,0,8,58,00,36,C7,01,FF,FF,FF,
4333181276,000001AE,false,Rx,0,2,FF,FF,00,00,00,00,00,00,
4333198300,00000096,false,Rx,0,8,58,00,36,C7,01,FF,FF,FF,
4333201521,00000272,false,Rx,0,8,3F,F3,62,12,FF,FF,FF,FF,
4333218233,00000349,false,Rx,0,5,FE,FF,FE,FF,00,00,00,00,
4333228135,000002A5,false,Rx,0,2,FF,FF,00,00,00,00,00,00,
4333228369,00000096,false,Rx,0,8,58,00,36,C7,01,FF,FF,FF,
4333234967,0000012F,false,Rx,0,8,71,56,8A,DD,F1,31,36,C1,
4333244943,000001E1,false,Rx,0,6,A6,F5,FF,FF,FF,FF,00,00,
4333254235,0000003C,false,Rx,0,8,FF,7F,00,00,00,00,FF,FF,
4333258327,00000096,false,Rx,0,8,58,00,36,C7,01,FF,FF,FF,
4333268230,00000314,false,Rx,0,3,FF,FF,FF,00,00,00,00,00,
4333281325,000001AE,false,Rx,0,2,FF,FF,00,00,00,00,00,00,
4333288326,00000096,false,Rx,0,8,58,00,36,C7,01,FF,FF,FF,
4333318303,00000096,false,Rx,0,8,58,00,36,C7,01,FF,FF,FF,
4333334973,0000012F,false,Rx,0,8,2C,57,8A,DD,F1,31,36,C1,
4333348308,00000096,false,Rx,0,8,58,00,36,C7,01,FF,FF,FF,
4333351620,000003C3,false,Rx,0,8,8C,18,49,92,24,69,92,24,
4333354103,000000C0,false,Rx,0,2,F2,40,00,00,00,00,00,00,
4333354347,0000003C,false,Rx,0,8,FF,7F,00,00,00,00,FF,FF,
4333361649,000003B4,false,Rx,0,8,00,00,0C,F0,B8,FF,00,FE,
4333378322,00000096,false,Rx,0,8,58,00,36,C7,01,FF,FF,FF,
4333381273,000001AE,false,Rx,0,2,FF,FF,00,00,00,00,00,00,
4333401653,00000272,false,Rx,0,8,B1,F4,62,12,FF,FF,FF,FF,
4333408334,00000096,false,Rx,0,8,58,00,36,C7,01,FF,FF,FF,
4333418332,00000349,false,Rx,0,5,FE,FF,FE,FF,00,00,00,00,
4333428234,000002A5,false,Rx,0,2,FF,FF,00,00,00,00,00,00,
4333428395,00000314,false,Rx,0,3,FF,FF,FF,00,00,00,00,00,
4333434972,0000012F,false,Rx,0,8,70,58,8A,DD,F1,31,36,C1,
4333438326,00000096,false,Rx,0,8,58,00,36,C7,01,FF,FF,FF,
4333444944,000001E1,false,Rx,0,6,18,F6,FF,FF,FF,FF,00,00,
4333454236,0000003C,false,Rx,0,8,FF,7F,00,00,00,00,FF,FF,
4333468297,00000096,false,Rx,0,8,58,00,36,C7,01,FF,FF,FF,
4333481270,000001AE,false,Rx,0,2,FF,FF,00,00,00,00,00,00,
4333498301,00000096,false,Rx,0,8,58,00,36,C7,01,FF,FF,FF,
4333528328,00000096,false,Rx,0,8,58,00,36,C7,01,FF,FF,FF,
4333528490,00000346,false,Rx,0,4,14,ED,70,F0,00,00,00,00,
4333534973,0000012F,false,Rx,0,8,2D,59,8A,DD,F1,31,36,C1,
4333554091,000000C0,false,Rx,0,2,F3,40,00,00,00,00,00,00,
4333554344,0000003C,false,Rx,0,8,FF,7F,00,00,00,00,FF,FF,
4333558330,00000096,false,Rx,0,8,58,00,36,C7,01,FF,FF,FF,
4333561768,000003B4,false,Rx,0,8,00,00,0C,F0,B8,FF,00,FE,
4333562178,00000510,false,Rx,0,8,40,10,80,00,00,00,00,00,
4333581264,000001AE,false,Rx,0,2,FF,FF,00,00,00,00,00,00,
4333588233,00000314,false,Rx,0,3,FF,FF,FF,00,00,00,00,00,
4333588466,00000096,false,Rx,0,8,58,00,36,C7,01,FF,FF,FF,
4333601792,00000272,false,Rx,0,8,EC,F5,62,12,FF,FF,FF,FF,
4333618224,00000349,false,Rx,0,5,FE,FF,FE,FF,00,00,00,00,
4333618458,00000096,false,Rx,0,8,58,00,36,C7,01,FF,FF,FF,
4333628145,000002A5,false,Rx,0,2,FF,FF,00,00,00,00,00,00,
4333634979,0000012F,false,Rx,0,8,CA,5A,8A,DD,F1,31,36,C1,
4333644944,000001E1,false,Rx,0,6,72,F7,FF,FF,FF,FF,00,00,
4333648310,00000096,false,Rx,0,8,58,00,36,C7,01,FF,FF,FF,
4333654235,0000003C,false,Rx,0,8,FF,7F,00,00,00,00,FF,FF,
4333668140,00000540,false,Rx,0,8,00,00,00,00,3B,00,FF,40,
4333678314,00000096,false,Rx,0,8,58,00,36,C7,01,FF,FF,FF,
4333681315,000001AE,false,Rx,0,2,FF,FF,00,00,00,00,00,00,
4333708534,00000096,false,Rx,0,8,58,00,36,C7,01,FF,FF,FF,
4333734975,0000012F,false,Rx,0,8,97,5B,8A,DD,F1,31,36,C1,
4333738331,00000096,false,Rx,0,8,58,00,36,C7,01,FF,FF,FF,
4333748202,00000314,false,Rx,0,3,FF,FF,FF,00,00,00,00,00,
4333754084,000000C0,false,Rx,0,2,F4,40,00,00,00,00,00,00,
4333754337,0000003C,false,Rx,0,8,FF,7F,00,00,00,00,FF,FF,
4333761909,000003B4,false,Rx,0,8,00,00,0C,F0,B8,FF,00,FE,
4333768301,00000096,false,Rx,0,8,58,00,36,C7,01,FF,FF,FF,
4333781260,000001AE,false,Rx,0,2,FF,FF,00,00,00,00,00,00,
4333798303,00000096,false,Rx,0,8,58,00,36,C7,01,FF,FF,FF,
4333801936,00000272,false,Rx,0,8,0B,F6,62,12,FF,FF,FF,FF,
4333818235,00000349,false,Rx,0,5,FE,FF,FE,FF,00,00,00,00,
4333828139,000002A5,false,Rx,0,2,FF,FF,00,00,00,00,00,00,
4333828373,00000096,false,Rx,0,8,58,00,36,C7,01,FF,FF,FF,
4333834970,0000012F,false,Rx,0,8,19,5C,8A,DD,F1,31,36,C1,
4333844947,000001E1,false,Rx,0,6,0E,F8,FF,FF,FF,FF,00,00,
4333854229,0000003C,false,Rx,0,8,FF,7F,00,00,00,00,FF,FF,
4333858330,00000096,false,Rx,0,8,58,00,36,C7,01,FF,FF,FF,
4333881260,000001AE,false,Rx,0,2,FF,FF,00,00,00,00,00,00,
4333888332,00000096,false,Rx,0,8,58,00,36,C7,01,FF,FF,FF,
4333908290,00000314,false,Rx,0,3,FF,FF,FF,00,00,00,00,00,
4333918296,00000096,false,Rx,0,8,58,00,36,C7,01,FF,FF,FF,
4333934977,0000012F,false,Rx,0,8,44,5D,8A,DD,F1,31,36,C1,
4333948311,00000096,false,Rx,0,8,58,00,36,C7,01,FF,FF,FF,
4333954134,000000C0,false,Rx,0,2,F5,40,00,00,00,00,00,00,
4333954376,0000003C,false,Rx,0,8,FF,7F,00,00,00,00,FF,FF,
4333961948,00000337,false,Rx,0,2,FF,FF,00,00,00,00,00,00,
4333962222,000003B4,false,Rx,0,8,00,00,0C,F0,B8,FF,00,FE,
4333978323,00000096,false,Rx,0,8,58,00,36,C7,01,FF,FF,FF,
4333981263,000001AE,false,Rx,0,2,FF,FF,00,00,00,00,00,00,
4334002067,00000272,false,Rx,0,8,56,F7,62,12,FF,FF,FF,FF,
4334008333,00000096,false,Rx,0,8,58,00,36,C7,01,FF,FF,FF,
4334013761,000003D8,false,Rx,0,8,03,FF,FF,FF,FF,FF,FF,FF,
4334018224,000001EE,false,Rx,0,2,FF,FF,00,00,00,00,00,00,
4334018354,000002A6,false,Rx,0,2,FF,B7,00,00,00,00,00,00,
4334018539,00000349,false,Rx,0,5,FE,FF,FE,FF,00,00,00,00,
4334024973,000005C0,false,Rx,0,8,40,2B,03,05,FF,FF,FF,FF,
4334028234,000001D6,false,Rx,0,2,FF,FF,00,00,00,00,00,00,
4334028374,000002A5,false,Rx,0,2,FF,FF,00,00,00,00,00,00,
4334028529,00000346,false,Rx,0,4,98,EE,70,F0,00,00,00,00,
4334033771,0000031E,false,Rx,0,8,44,44,49,FF,78,FF,FF,FF,
4334034975,0000012F,false,Rx,0,8,A3,5E,8A,DD,F1,31,36,C1,
4334038325,00000096,false,Rx,0,8,58,00,36,C7,01,FF,FF,FF,
4334044943,000001E1,false,Rx,0,6,64,F9,FF,FF,FF,FF,00,00,
4334054225,0000003C,false,Rx,0,8,FF,7F,00,00,00,00,FF,FF,
4334068203,00000314,false,Rx,0,3,FF,FF,FF,00,00,00,00,00,
4334068435,00000096,false,Rx,0,8,58,00,36,C7,01,FF,FF,FF,
4334081307,000001AE,false,Rx,0,2,FF,FF,00,00,00,00,00,00,
4334098318,00000096,false,Rx,0,8,58,00,36,C7,01,FF,FF,FF,
4334128327,00000096,false,Rx,0,8,58,00,36,C7,01,FF,FF,FF,
4334134976,0000012F,false,Rx,0,8,A2,50,8A,DD,F1,31,36,C1,
4334154073,000000C0,false,Rx,0,2,F6,40,00,00,00,00,00,00,
4334154326,0000003C,false,Rx,0,8,FF,7F,00,00,00,00,FF,FF,
4334158322,00000096,false,Rx,0,8,58,00,36,C7,01,FF,FF,FF,
4334162185,000003B4,false,Rx,0,8,00,00,0C,F0,B8,FF,00,FE,
4334181250,000001AE,false,Rx,0,2,FF,FF,00,00,00,00,00,00,
4334188332,00000096,false,Rx,0,8,58,00,36,C7,01,FF,FF,FF,
4334202155,00000510,false,Rx,0,8,40,10,80,00,00,00,00,00,
4334202401,00000272,false,Rx,0,8,0A,F8,62,12,FF,FF,FF,FF,
4334218223,00000349,false,Rx,0,5,FE,FF,FE,FF,00,00,00,00,
4334218457,00000096,false,Rx,0,8,58,00,36,C7,01,FF,FF,FF,
4334228145,000002A5,false,Rx,0,2,FF,FF,00,00,00,00,00,00,
4334228306,00000314,false,Rx,0,3,FF,FF,FF,00,00,00,00,00,
4334234984,0000012F,false,Rx,0,8,FF,51,8A,DD,F1,31,36,C1,
4334244949,000001E1,false,Rx,0,6,DA,FA,FF,FF,FF,FF,00,00,
4334248306,00000096,false,Rx,0,8,58,00,36,C7,01,FF,FF,FF,
4334254219,0000003C,false,Rx,0,8,FF,7F,00,00,00,00,FF,FF,
4334278322,00000096,false,Rx,0,8,58,00,36,C7,01,FF,FF,FF,
4334281251,000001AE,false,Rx,0,2,FF,FF,00,00,00,00,00,00,
4334308016,00000540,false,Rx,0,8,00,00,00,00,FE,31,FF,40,
4334308365,00000096,false,Rx,0,8,58,00,36,C7,01,FF,FF,FF,
4334312279,000003C3,false,Rx,0,8,8D,1C,69,9A,24,49,92,24,
4334334969,0000012F,false,Rx,0,8,18,52,8A,DD,F1,31,36,C1,
4334338325,00000096,false,Rx,0,8,58,00,36,C7,01,FF,FF,FF,
4334354073,000000C0,false,Rx,0,2,F7,40,00,00,00,00,00,00,
4334354327,0000003C,false,Rx,0,8,FF,7F,00,00,00,00,FF,FF,
4334362324,000003B4,false,Rx,0,8,00,00,0C,F0,B8,FF,00,FE,
4334368311,00000096,false,Rx,0,8,58,00,36,C7,01,FF,FF,FF,
4334381251,000001AE,false,Rx,0,2,FF,FF,00,00,00,00,00,00,
4334388326,00000314,false,Rx,0,3,FF,FF,FF,00,00,00,00,00,
4334398301,00000096,false,Rx,0,8,58,00,36,C7,01,FF,FF,FF,
4334402339,00000272,false,Rx,0,8,57,F9,62,12,FF,FF,FF,FF,
4334418234,00000349,false,Rx,0,5,FE,FF,FE,FF,00,00,00,00,
4334428139,000002A5,false,Rx,0,2,FF,FF,00,00,00,00,00,00,
4334428381,00000096,false,Rx,0,8,58,00,36,C7,01,FF,FF,FF,
4334434979,0000012F,false,Rx,0,8,45,53,8A,DD,F1,31,36,C1,
4334444945,000001E1,false,Rx,0,6,B0,FB,FF,FF,FF,FF,00,00,
4334454206,0000003C,false,Rx,0,8,FF,7F,00,00,00,00,FF,FF,
4334458326,00000096,false,Rx,0,8,58,00,36,C7,01,FF,FF,FF,
4334481248,000001AE,false,Rx,0,2,FF,FF,00,00,00,00,00,00,
4334488331,00000096,false,Rx,0,8,58,00,36,C7,01,FF,FF,FF,
4334518298,00000096,false,Rx,0,8,58,00,36,C7,01,FF,FF,FF,
4334528265,00000346,false,Rx,0,4,91,E0,70,F0,00,00,00,00,
4334534974,0000012F,false,Rx,0,8,CB,54,8A,DD,F1,31,36,C1,
4334548207,00000314,false,Rx,0,3,FF,FF,FF,00,00,00,00,00,
4334548439,00000096,false,Rx,0,8,58,00,36,C7,01,FF,FF,FF,
4334554074,000000C0,false,Rx,0,2,F8,40,00,00,00,00,00,00,
4334554317,0000003C,false,Rx,0,8,FF,7F,00,00,00,00,FF,FF,
4334562469,000003B4,false,Rx,0,8,00,00,0C,F0,B8,FF,00,FE,
4334578321,00000096,false,Rx,0,8,58,00,36,C7,01,FF,FF,FF,
4334581242,000001AE,false,Rx,0,2,FF,FF,00,00,00,00,00,00,
4334602482,00000272,false,Rx,0,8,B0,FA,62,12,FF,FF,FF,FF,
4334608336,00000096,false,Rx,0,8,58,00,36,C7,01,FF,FF,FF,
4334618333,00000349,false,Rx,0,5,FE,FF,FE,FF,00,00,00,00,
4334628246,000002A5,false,Rx,0,2,FF,FF,00,00,00,00,00,00,
4334634976,0000012F,false,Rx,0,8,96,55,8A,DD,F1,31,36,C1,
4334638331,00000096,false,Rx,0,8,58,00,36,C7,01,FF,FF,FF,
4334644950,000001E1,false,Rx,0,6,BB,FC,FF,FF,FF,FF,00,00,
4334654213,0000003C,false,Rx,0,8,FF,7F,00,00,00,00,FF,FF,
4334668303,00000096,false,Rx,0,8,58,00,36,C7,01,FF,FF,FF,
4334681243,000001AE,false,Rx,0,2,FF,FF,00,00,00,00,00,00,
4334698296,00000096,false,Rx,0,8,58,00,36,C7,01,FF,FF,FF,
4334708241,00000314,false,Rx,0,3,FF,FF,FF,00,00,00,00,00,
4334728322,00000096,false,Rx,0,8,58,00,36,C7,01,FF,FF,FF,
4334734980,0000012F,false,Rx,0,8,71,56,8A,DD,F1,31,36,C1,
4334754068,000000C0,false,Rx,0,2,F9,40,00,00,00,00,00,00,
4334754321,0000003C,false,Rx,0,8,FF,7F,00,00,00,00,FF,FF,
4334758330,00000096,false,Rx,0,8,58,00,36,C7,01,FF,FF,FF,
4334762606,000003B4,false,Rx,0,8,00,00,0C,F0,B8,FF,00,FE,
4334781234,000001AE,false,Rx,0,2,FF,FF,00,00,00,00,00,00,
4334788339,00000096,false,Rx,0,8,58,00,36,C7,01,FF,FF,FF,
4334802626,00000272,false,Rx,0,8,ED,FB,62,12,FF,FF,FF,FF,
4334818219,00000349,false,Rx,0,5,FE,FF,FE,FF,00,00,00,00,
4334818463,00000096,false,Rx,0,8,58,00,36,C7,01,FF,FF,FF,
4334828151,000002A5,false,Rx,0,2,FF,FF,00,00,00,00,00,00,
4334834983,0000012F,false,Rx,0,8,2C,57,8A,DD,F1,31,36,C1,
4334842142,00000510,false,Rx,0,8,40,10,80,00,00,00,00,00,
4334844945,000001E1,false,Rx,0,6,D1,FD,FF,FF,FF,FF,00,00,
4334848301,00000096,false,Rx,0,8,58,00,36,C7,01,FF,FF,FF,
4334854207,0000003C,false,Rx,0,8,FF,7F,00,00,00,00,FF,FF,
4334868298,00000314,false,Rx,0,3,FF,FF,FF,00,00,00,00,00,
4334878324,00000096,false,Rx,0,8,58,00,36,C7,01,FF,FF,FF,
4334881233,000001AE,false,Rx,0,2,FF,FF,00,00,00,00,00,00,
4334908337,00000096,false,Rx,0,8,58,00,36,C7,01,FF,FF,FF,
4334934975,0000012F,false,Rx,0,8,70,58,8A,DD,F1,31,36,C1,
4334938330,00000096,false,Rx,0,8,58,00,36,C7,01,FF,FF,FF,
4334948006,00000540,false,Rx,0,8,00,00,00,00,FF,3B,FF,40,
4334954106,000000C0,false,Rx,0,2,FA,40,00,00,00,00,00,00,
4334954349,0000003C,false,Rx,0,8,FF,7F,00,00,00,00,FF,FF,
4334962637,00000337,false,Rx,0,2,FF,FF,00,00,00,00,00,00,
4334962910,000003B4,false,Rx,0,8,00,00,0C,F0,B8,FF,00,FE,
4334968307,00000096,false,Rx,0,8,58,00,36,C7,01,FF,FF,FF,
4334981239,000001AE,false,Rx,0,2,FF,FF,00,00,00,00,00,00,
4334987162,000003A0,false,Rx,0,8,FF,FF,CF,FF,FF,FF,FF,FC,
4334998311,00000096,false,Rx,0,8,58,00,36,C7,01,FF,FF,FF,
4335002753,00000272,false,Rx,0,8,63,FC,62,12,FF,FF,FF,FF,
4335013952,000003D8,false,Rx,0,8,03,FF,FF,FF,FF,FF,FF,FF,
4335018136,000001EE,false,Rx,0,2,FF,FF,00,00,00,00,00,00,
4335018266,000002A6,false,Rx,0,2,FF,BF,00,00,00,00,00,00,
4335018452,00000349,false,Rx,0,5,FE,FF,FE,FF,00,00,00,00,
4335024989,000005C0,false,Rx,0,8,40,2B,03,05,FF,FF,FF,FF,
4335028136,000001D6,false,Rx,0,2,FF,FF,00,00,00,00,00,00,
4335028276,000002A5,false,Rx,0,2,FF,FF,00,00,00,00,00,00,
4335028513,00000096,false,Rx,0,8,58,00,36,C7,01,FF,FF,FF,
4335028701,00000226,false,Rx,0,5,FF,FF,FF,F0,FF,00,00,00,
4335028857,00000314,false,Rx,0,3,FF,FF,FF,00,00,00,00,00,
4335029023,00000346,false,Rx,0,4,1E,E1,70,F0,00,00,00,00,
4335033774,0000031E,false,Rx,0,8,44,44,49,FF,78,FF,FF,FF,
4335034988,0000012F,false,Rx,0,8,2D,59,8A,DD,F1,31,36,C1,
4335044960,000001E1,false,Rx,0,6,6F,FE,FF,FF,FF,FF,00,00,
4335054202,0000003C,false,Rx,0,8,FF,7F,00,00,00,00,FF,FF,
4335058364,00000096,false,Rx,0,8,58,00,36,C7,01,FF,FF,FF,
4335081234,000001AE,false,Rx,0,2,FF,FF,00,00,00,00,00,00,
4335088337,00000096,false,Rx,0,8,58,00,36,C7,01,FF,FF,FF,
4335094873,000001F6,false,Rx,0,2,80,F0,00,00,00,00,00,00,
4335118300,00000096,false,Rx,0,8,58,00,36,C7,01,FF,FF,FF,
4335134983,0000012F,false,Rx,0,8,CA,5A,8A,DD,F1,31,36,C1,
4335148307,00000096,false,Rx,0,8,58,00,36,C7,01,FF,FF,FF,
4335154056,000000C0,false,Rx,0,2,FB,40,00,00,00,00,00,00,
4335154309,0000003C,false,Rx,0,8,FF,7F,00,00,00,00,FF,FF,
4335162875,000003B4,false,Rx,0,8,00,00,0C,F0,B8,FF,00,FE,
4335178324,00000096,false,Rx,0,8,58,00,36,C7,01,FF,FF,FF,
4335181232,000001AE,false,Rx,0,2,FF,FF,00,00,00,00,00,00,
4335188233,00000314,false,Rx,0,3,FF,FF,FF,00,00,00,00,00,
4335202901,00000272,false,Rx,0,8,3E,FD,62,12,FF,FF,FF,FF,
4335208328,00000096,false,Rx,0,8,58,00,36,C7,01,FF,FF,FF,
4335218358,00000349,false,Rx,0,5,FE,FF,FE,FF,00,00,00,00,
4335228250,000002A5,false,Rx,0,2,FF,FF,00,00,00,00,00,00,
4335234979,0000012F,false,Rx,0,8,97,5B,8A,DD,F1,31,36,C1,
4335238326,00000096,false,Rx,0,8,58,00,36,C7,01,FF,FF,FF,
4335244954,000001E1,false,Rx,0,6,79,F0,FF,FF,FF,FF,00,00,
4335254194,0000003C,false,Rx,0,8,FF,7F,00,00,00,00,FF,FF,
4335268306,00000096,false,Rx,0,8,58,00,36,C7,01,FF,FF,FF,
4335272955,000003C3,false,Rx,0,8,8E,20,49,92,24,00,00,00,
4335281222,000001AE,false,Rx,0,2,FF,FF,00,00,00,00,00,00,
4335298306,00000096,false,Rx,0,8,58,00,36,C7,01,FF,FF,FF,
4335328323,00000096,false,Rx,0,8,58,00,36,C7,01,FF,FF,FF,
4335334983,0000012F,false,Rx,0,8,19,5C,8A,DD,F1,31,36,C1,
4335348318,00000314,false,Rx,0,3,FF,FF,FF,00,00,00,00,00,
4335354054,000000C0,false,Rx,0,2,FC,40,00,00,00,00,00,00,
4335354298,0000003C,false,Rx,0,8,FF,7F,00,00,00,00,FF,FF,
4335358326,00000096,false,Rx,0,8,58,00,36,C7,01,FF,FF,FF,
4335363039,000003B4,false,Rx,0,8,00,00,0C,F0,B8,FF,00,FE,
4335381223,000001AE,false,Rx,0,2,FF,FF,00,00,00,00,00,00,
4335388328,00000096,false,Rx,0,8,58,00,36,C7,01,FF,FF,FF,
4335403042,00000272,false,Rx,0,8,D9,FE,62,12,FF,FF,FF,FF,
4335418219,00000349,false,Rx,0,5,FE,FF,FE,FF,00,00,00,00,
4335418463,00000096,false,Rx,0,8,58,00,36,C7,01,FF,FF,FF,
4335428150,000002A5,false,Rx,0,2,FF,FF,00,00,00,00,00,00,
4335434973,0000012F,false,Rx,0,8,44,5D,8A,DD,F1,31,36,C1,
4335444960,000001E1,false,Rx,0,6,13,F1,FF,FF,FF,FF,00,00,
4335448303,00000096,false,Rx,0,8,58,00,36,C7,01,FF,FF,FF,
4335454186,0000003C,false,Rx,0,8,FF,7F,00,00,00,00,FF,FF,
4335478318,00000096,false,Rx,0,8,58,00,36,C7,01,FF,FF,FF,
4335481227,000001AE,false,Rx,0,2,FF,FF,00,00,00,00,00,00,
4335482130,00000510,false,Rx,0,8,40,10,80,00,00,00,00,00,
4335508228,00000314,false,Rx,0,3,FF,FF,FF,00,00,00,00,00,
4335508461,00000096,false,Rx,0,8,58,00,36,C7,01,FF,FF,FF,
4335528357,00000346,false,Rx,0,4,92,E2,70,F0,00,00,00,00,
4335534975,0000012F,false,Rx,0,8,A3,5E,8A,DD,F1,31,36,C1,
4335538331,00000096,false,Rx,0,8,58,00,36,C7,01,FF,FF,FF,
4335554049,000000C0,false,Rx,0,2,FD,40,00,00,00,00,00,00,
4335554302,0000003C,false,Rx,0,8,FF,7F,00,00,00,00,FF,FF,
4335563151,000003B4,false,Rx,0,8,00,00,0C,F0,B8,FF,00,FE,
4335568297,00000096,false,Rx,0,8,58,00,36,C7,01,FF,FF,FF,
4335581218,000001AE,false,Rx,0,2,FF,FF,00,00,00,00,00,00,
4335588093,00000540,false,Rx,0,8,00,00,00,00,09,48,FF,40,
4335598297,00000096,false,Rx,0,8,58,00,36,C7,01,FF,FF,FF,
4335603175,00000272,false,Rx,0,8,D8,F0,62,12,FF,FF,FF,FF,
4335618239,00000349,false,Rx,0,5,FE,FF,FE,FF,00,00,00,00,
4335628145,000002A5,false,Rx,0,2,FF,FF,00,00,00,00,00,00,
4335628378,00000096,false,Rx,0,8,58,00,36,C7,01,FF,FF,FF,
4335634975,0000012F,false,Rx,0,8,A2,50,8A,DD,F1,31,36,C1,
4335644954,000001E1,false,Rx,0,6,AD,F2,FF,FF,FF,FF,00,00,
4335654184,0000003C,false,Rx,0,8,FF,7F,00,00,00,00,FF,FF,
4335658337,00000096,false,Rx,0,8,58,00,36,C7,01,FF,FF,FF,
4335668240,00000314,false,Rx,0,3,FF,FF,FF,00,00,00,00,00,
4335681211,000001AE,false,Rx,0,2,FF,FF,00,00,00,00,00,00,
4335688337,00000096,false,Rx,0,8,58,00,36,C7,01,FF,FF,FF,
4335718303,00000096,false,Rx,0,8,58,00,36,C7,01,FF,FF,FF,
4335734984,0000012F,false,Rx,0,8,FF,51,8A,DD,F1,31,36,C1,
4335748308,00000096,false,Rx,0,8,58,00,36,C7,01,FF,FF,FF,
4335754046,000000C0,false,Rx,0,2,FE,40,00,00,00,00,00,00,
4335754299,0000003C,false,Rx,0,8,FF,7F,00,00,00,00,FF,FF,
4335763291,000003B4,false,Rx,0,8,00,00,0C,F0,B8,FF,00,FE,
4335778326,00000096,false,Rx,0,8,58,00,36,C7,01,FF,FF,FF,
4335781214,000001AE,false,Rx,0,2,FF,FF,00,00,00,00,00,00,
4335803326,00000272,false,Rx,0,8,85,F1,62,12,FF,FF,FF,FF,
4335808339,00000096,false,Rx,0,8,58,00,36,C7,01,FF,FF,FF,
4335818337,00000349,false,Rx,0,5,FE,FF,FE,FF,00,00,00,00,
4335828251,000002A5,false,Rx,0,2,FF,FF,00,00,00,00,00,00,
4335828401,00000314,false,Rx,0,3,FF,FF,FF,00,00,00,00,00,
4335834976,0000012F,false,Rx,0,8,18,52,8A,DD,F1,31,36,C1,
4335838331,00000096,false,Rx,0,8,58,00,36,C7,01,FF,FF,FF,
4335844960,000001E1,false,Rx,0,6,C7,F3,FF,FF,FF,FF,00,00,
4335854180,0000003C,false,Rx,0,8,FF,7F,00,00,00,00,FF,FF,
4335868311,00000096,false,Rx,0,8,58,00,36,C7,01,FF,FF,FF,
4335881213,000001AE,false,Rx,0,2,FF,FF,00,00,00,00,00,00,
4335898307,00000096,false,Rx,0,8,58,00,36,C7,01,FF,FF,FF,
4335928420,00000096,false,Rx,0,8,58,00,36,C7,01,FF,FF,FF,
4335934975,0000012F,false,Rx,0,8,45,53,8A,DD,F1,31,36,C1,
4335954084,000000C0,false,Rx,0,2,F0,40,00,00,00,00,00,00,
4335954326,0000003C,false,Rx,0,8,FF,7F,00,00,00,00,FF,FF,
4335958343,00000096,false,Rx,0,8,58,00,36,C7,01,FF,FF,FF,
4335963326,00000337,false,Rx,0,2,FF,FF,00,00,00,00,00,00,
4335963600,000003B4,false,Rx,0,8,00,00,0C,F0,B8,FF,00,FE,
4335981208,000001AE,false,Rx,0,2,FF,FF,00,00,00,00,00,00,
4335988238,00000314,false,Rx,0,3,FF,FF,FF,00,00,00,00,00,
4335988481,00000096,false,Rx,0,8,58,00,36,C7,01,FF,FF,FF,
4336003453,00000272,false,Rx,0,8,62,F2,62,12,FF,FF,FF,FF,
4336013709,000003D8,false,Rx,0,8,03,FF,FF,FF,FF,FF,FF,FF,
4336018121,000001EE,false,Rx,0,2,FF,FF,00,00,00,00,00,00,
4336018261,000002A6,false,Rx,0,2,FF,C7,00,00,00,00,00,00,
4336018498,00000096,false,Rx,0,8,58,00,36,C7,01,FF,FF,FF,
4336018675,00000349,false,Rx,0,5,FE,FF,FE,FF,00,00,00,00,
4336024977,000005C0,false,Rx,0,8,40,2B,03,05,FF,FF,FF,FF,
4336028249,000001D6,false,Rx,0,2,FF,FF,00,00,00,00,00,00,
4336028378,000002A5,false,Rx,0,2,FF,FF,00,00,00,00,00,00,
4336028544,00000346,false,Rx,0,4,1D,E3,70,F0,00,00,00,00,
4336033784,0000031E,false,Rx,0,8,44,44,49,FF,78,FF,FF,FF,
4336034977,0000012F,false,Rx,0,8,CB,54,8A,DD,F1,31,36,C1,
4336044949,000001E1,false,Rx,0,6,CC,F4,FF,FF,FF,FF,00,00,
4336048313,00000096,false,Rx,0,8,58,00,36,C7,01,FF,FF,FF,
4336054177,0000003C,false,Rx,0,8,FF,7F,00,00,00,00,FF,FF,
4336078338,00000096,false,Rx,0,8,58,00,36,C7,01,FF,FF,FF,
4336081207,000001AE,false,Rx,0,2,FF,FF,00,00,00,00,00,00,
4336108342,00000096,false,Rx,0,8,58,00,36,C7,01,FF,FF,FF,
4336122112,00000510,false,Rx,0,8,40,10,80,00,00,00,00,00,
4336134978,0000012F,false,Rx,0,8,96,55,8A,DD,F1,31,36,C1,
4336138334,00000096,false,Rx,0,8,58,00,36,C7,01,FF,FF,FF,
4336148207,00000314,false,Rx,0,3,FF,FF,FF,00,00,00,00,00,
4336154037,000000C0,false,Rx,0,2,F1,40,00,00,00,00,00,00,
4336154280,0000003C,false,Rx,0,8,FF,7F,00,00,00,00,FF,FF,
4336163571,000003B4,false,Rx,0,8,00,00,0C,F0,B8,FF,00,FE,
4336168306,00000096,false,Rx,0,8,58,00,36,C7,01,FF,FF,FF,
4336181204,000001AE,false,Rx,0,2,FF,FF,00,00,00,00,00,00,
4336198308,00000096,false,Rx,0,8,58,00,36,C7,01,FF,FF,FF,
4336203590,00000272,false,Rx,0,8,3F,F3,62,12,FF,FF,FF,FF,
4336218240,00000349,false,Rx,0,5,FE,FF,FE,FF,00,00,00,00,
4336227999,00000540,false,Rx,0,8,00,00,00,00,3E,49,FF,40,
4336228162,000002A5,false,Rx,0,2,FF,FF,00,00,00,00,00,00,
4336228400,00000096,false,Rx,0,8,58,00,36,C7,01,FF,FF,FF,
4336233612,000003C3,false,Rx,0,8,80,04,C8,B0,08,C1,00,18,
4336234979,0000012F,false,Rx,0,8,71,56,8A,DD,F1,31,36,C1,
4336244954,000001E1,false,Rx,0,6,A6,F5,FF,FF,FF,FF,00,00,
4336254163,0000003C,false,Rx,0,8,FF,7F,00,00,00,00,FF,FF,
4336258378,00000096,false,Rx,0,8,58,00,36,C7,01,FF,FF,FF,
4336281204,000001AE,false,Rx,0,2,FF,FF,00,00,00,00,00,00,
4336288339,00000096,false,Rx,0,8,58,00,36,C7,01,FF,FF,FF,
4336308295,00000314,false,Rx,0,3,FF,FF,FF,00,00,00,00,00,
4336318311,00000096,false,Rx,0,8,58,00,36,C7,01,FF,FF,FF,
4336334981,0000012F,false,Rx,0,8,2C,57,8A,DD,F1,31,36,C1,
4336348307,00000096,false,Rx,0,8,58,00,36,C7,01,FF,FF,FF,
4336354036,000000C0,false,Rx,0,2,F2,40,00,00,00,00,00,00,
4336354280,0000003C,false,Rx,0,8,FF,7F,00,00,00,00,FF,FF,
4336363747,000003B4,false,Rx,0,8,00,00,0C,F0,B8,FF,00,FE,
4336378326,00000096,false,Rx,0,8,58,00,36,C7,01,FF,FF,FF,
4336381204,000001AE,false,Rx,0,2,FF,FF,00,00,00,00,00,00,
4336403772,00000272,false,Rx,0,8,B1,F4,62,12,FF,FF,FF,FF,
4336408339,00000096,false,Rx,0,8,58,00,36,C7,01,FF,FF,FF,
4336418358,00000349,false,Rx,0,5,FE,FF,FE,FF,00,00,00,00,
4336428261,000002A5,false,Rx,0,2,FF,FF,00,00,00,00,00,00,
4336434991,0000012F,false,Rx,0,8,70,58,8A,DD,F1,31,36,C1,
4336438336,00000096,false,Rx,0,8,58,00,36,C7,01,FF,FF,FF,
4336444954,000001E1,false,Rx,0,6,18,F6,FF,FF,FF,FF,00,00,
4336454166,0000003C,false,Rx,0,8,FF,7F,00,00,00,00,FF,FF,
4336468214,00000314,false,Rx,0,3,FF,FF,FF,00,00,00,00,00,
4336468457,00000096,false,Rx,0,8,58,00,36,C7,01,FF,FF,FF,
4336481202,000001AE,false,Rx,0,2,FF,FF,00,00,00,00,00,00,
4336498316,00000096,false,Rx,0,8,58,00,36,C7,01,FF,FF,FF,
4336528327,00000096,false,Rx,0,8,58,00,36,C7,01,FF,FF,FF,
4336528491,00000346,false,Rx,0,4,97,E4,70,F0,00,00,00,00,
4336534983,0000012F,false,Rx,0,8,2D,59,8A,DD,F1,31,36,C1,
4336554018,000000C0,false,Rx,0,2,F3,40,00,00,00,00,00,00,
4336554270,0000003C,false,Rx,0,8,FF,7F,00,00,00,00,FF,FF,
4336558341,00000096,false,Rx,0,8,58,00,36,C7,01,FF,FF,FF,
4336563892,000003B4,false,Rx,0,8,00,00,0C,F0,B8,FF,00,FE,
4336581270,000001AE,false,Rx,0,2,FF,FF,00,00,00,00,00,00,
4336588342,00000096,false,Rx,0,8,58,00,36,C7,01,FF,FF,FF,
4336603915,00000272,false,Rx,0,8,EC,F5,62,12,FF,FF,FF,FF,
4336618234,00000349,false,Rx,0,5,FE,FF,FE,FF,00,00,00,00,
4336618479,00000096,false,Rx,0,8,58,00,36,C7,01,FF,FF,FF,
4336628155,000002A5,false,Rx,0,2,FF,FF,00,00,00,00,00,00,
4336628317,00000314,false,Rx,0,3,FF,FF,FF,00,00,00,00,00,
4336634983,0000012F,false,Rx,0,8,CA,5A,8A,DD,F1,31,36,C1,
4336644959,000001E1,false,Rx,0,6,72,F7,FF,FF,FF,FF,00,00,
4336648316,00000096,false,Rx,0,8,58,00,36,C7,01,FF,FF,FF,
4336654157,0000003C,false,Rx,0,8,FF,7F,00,00,00,00,FF,FF,
4336678343,00000096,false,Rx,0,8,58,00,36,C7,01,FF,FF,FF,
4336681189,000001AE,false,Rx,0,2,FF,FF,00,00,00,00,00,00,
4336708348,00000096,false,Rx,0,8,58,00,36,C7,01,FF,FF,FF,
4336734979,0000012F,false,Rx,0,8,97,5B,8A,DD,F1,31,36,C1,
4336738347,00000096,false,Rx,0,8,58,00,36,C7,01,FF,FF,FF,
4336754022,000000C0,false,Rx,0,2,F4,40,00,00,00,00,00,00,
4336754276,0000003C,false,Rx,0,8,FF,7F,00,00,00,00,FF,FF,
4336762099,00000510,false,Rx,0,8,40,10,80,00,00,00,00,00,
4336764043,000003B4,false,Rx,0,8,00,00,0C,F0,B8,FF,00,FE,
4336768322,00000096,false,Rx,0,8,58,00,36,C7,01,FF,FF,FF,
4336781190,000001AE,false,Rx,0,2,FF,FF,00,00,00,00,00,00,
4336788324,00000314,false,Rx,0,3,FF,FF,FF,00,00,00,00,00,
4336798312,00000096,false,Rx,0,8,58,00,36,C7,01,FF,FF,FF,
4336804019,00000272,false,Rx,0,8,0B,F6,62,12,FF,FF,FF,FF,
4336818244,00000349,false,Rx,0,5,FE,FF,FE,FF,00,00,00,00,
4336828157,000002A5,false,Rx,0,2,FF,FF,00,00,00,00,00,00,
4336828399,00000096,false,Rx,0,8,58,00,36,C7,01,FF,FF,FF,
4336834987,0000012F,false,Rx,0,8,19,5C,8A,DD,F1,31,36,C1,
4336844963,000001E1,false,Rx,0,6,0E,F8,FF,FF,FF,FF,00,00,
4336854152,0000003C,false,Rx,0,8,FF,7F,00,00,00,00,FF,FF,
4336858356,00000096,false,Rx,0,8,58,00,36,C7,01,FF,FF,FF,
4336868053,00000540,false,Rx,0,8,00,00,00,00,3B,00,FF,40,
4336881189,000001AE,false,Rx,0,2,FF,FF,00,00,00,00,00,00,
4336888334,00000096,false,Rx,0,8,58,00,36,C7,01,FF,FF,FF,
4336918302,00000096,false,Rx,0,8,58,00,36,C7,01,FF,FF,FF,
4336934984,0000012F,false,Rx,0,8,44,5D,8A,DD,F1,31,36,C1,
4336948205,00000314,false,Rx,0,3,FF,FF,FF,00,00,00,00,00,
4336948448,00000096,false,Rx,0,8,58,00,36,C7,01,FF,FF,FF,
4336954062,000000C0,false,Rx,0,2,F5,40,00,00,00,00,00,00,
4336954305,0000003C,false,Rx,0,8,FF,7F,00,00,00,00,FF,FF,
4336964023,00000337,false,Rx,0,2,FF,FF,00,00,00,00,00,00,
4336964296,000003B4,false,Rx,0,8,00,00,0C,F0,B8,FF,00,FE,
4336978337,00000096,false,Rx,0,8,58,00,36,C7,01,FF,FF,FF,
4336981235,000001AE,false,Rx,0,2,FF,FF,00,00,00,00,00,00,
4337004166,00000272,false,Rx,0,8,56,F7,62,12,FF,FF,FF,FF,
4337004370,00000390,false,Rx,0,4,F0,FF,FF,FF,00,00,00,00,
4337008345,00000096,false,Rx,0,8,58,00,36,C7,01,FF,FF,FF,
4337014476,000003D8,false,Rx,0,8,03,FF,FF,FF,FF,FF,FF,FF,
4337018246,000001EE,false,Rx,0,2,FF,FF,00,00,00,00,00,00,
4337018375,000002A6,false,Rx,0,2,FF,CF,00,00,00,00,00,00,
4337018624,000002FC,false,Rx,0,8,81,FF,05,FF,FF,FF,FF,FF,
4337018811,00000349,false,Rx,0,5,FE,FF,FE,FF,00,00,00,00,
4337018966,000003BE,false,Rx,0,3,FE,FF,FC,00,00,00,00,00,
4337024982,000005C0,false,Rx,0,8,40,2B,03,05,FF,FF,FF,FF,
4337028243,000001D6,false,Rx,0,2,FF,FF,00,00,00,00,00,00,
4337028383,000002A5,false,Rx,0,2,FF,FF,00,00,00,00,00,00,
4337028549,00000346,false,Rx,0,4,18,E5,70,F0,00,00,00,00,
4337028787,000005C0,false,Rx,0,8,6E,19,00,FC,FF,FF,FF,FF,
4337033827,0000022A,false,Rx,0,8,0F,FF,FF,FF,FF,FF,FF,FF,
4337034072,00000232,false,Rx,0,8,0F,FF,FF,FF,FF,FF,FF,FF,
4337034300,0000031E,false,Rx,0,8,44,44,49,FF,78,FF,FF,FF,
4337034981,0000012F,false,Rx,0,8,A3,5E,8A,DD,F1,31,36,C1,
4337038335,00000202,false,Rx,0,2,FD,FF,00,00,00,00,00,00,
4337038569,00000096,false,Rx,0,8,58,00,36,C7,01,FF,FF,FF,
4337038704,000003AC,false,Rx,0,2,FE,CF,00,00,00,00,00,00,
4337044952,000001E1,false,Rx,0,6,64,F9,FF,FF,FF,FF,00,00,
4337048172,0000021A,false,Rx,0,3,85,1E,F7,00,00,00,00,00,
4337048301,0000036A,false,Rx,0,2,F5,FF,00,00,00,00,00,00,
4337054140,0000003C,false,Rx,0,8,FF,7F,00,00,00,00,FF,FF,
4337068188,0000034F,false,Rx,0,2,FC,FF,00,00,00,00,00,00,
4337068432,00000096,false,Rx,0,8,58,00,36,C7,01,FF,FF,FF,
4337081186,000001AE,false,Rx,0,2,FF,FF,00,00,00,00,00,00,
4337094870,000001F6,false,Rx,0,2,80,F0,00,00,00,00,00,00,
4337098316,00000096,false,Rx,0,8,58,00,36,C7,01,FF,FF,FF,
4337108261,00000314,false,Rx,0,3,FF,FF,FF,00,00,00,00,00,
4337128342,00000096,false,Rx,0,8,58,00,36,C7,01,FF,FF,FF,
4337128576,000005C0,false,Rx,0,8,6E,1A,00,FC,FF,FF,FF,FF,
4337134988,0000012F,false,Rx,0,8,A2,50,8A,DD,F1,31,36,C1,
4337137286,000002CF,false,Rx,0,2,FC,FF,00,00,00,00,00,00,
4337154007,000000C0,false,Rx,0,2,F6,40,00,00,00,00,00,00,
4337154260,0000003C,false,Rx,0,8,FF,7F,00,00,00,00,FF,FF,
4337158352,00000096,false,Rx,0,8,58,00,36,C7,01,FF,FF,FF,
4337164265,000003B4,false,Rx,0,8,00,00,0C,F0,B8,FF,00,FE,
4337179361,00000226,false,Rx,0,5,FF,FF,FF,F4,FF,00,00,00,
4337181181,000001AE,false,Rx,0,2,FF,FF,00,00,00,00,00,00,
4337188338,00000096,false,Rx,0,8,58,00,36,C7,01,FF,FF,FF,
4337194282,000003C3,false,Rx,0,8,81,08,C8,B0,08,C1,00,18,
4337204280,00000272,false,Rx,0,8,0A,F8,62,12,FF,FF,FF,FF,
4337218236,00000349,false,Rx,0,5,FE,FF,FE,FF,00,00,00,00,
4337218480,00000096,false,Rx,0,8,58,00,36,C7,01,FF,FF,FF,
4337223668,000002A0,false,Rx,0,8,88,88,F8,0F,FF,FF,FF,FF,
4337228163,000002A5,false,Rx,0,2,FF,FF,00,00,00,00,00,00,
4337228498,000005C0,false,Rx,0,8,6E,05,00,FC,FF,FF,FF,FF,
4337234992,0000012F,false,Rx,0,8,FF,51,8A,DD,F1,31,36,C1,
4337244957,000001E1,false,Rx,0,6,DA,FA,FF,FF,FF,FF,00,00,
4337248343,00000096,false,Rx,0,8,58,00,36,C7,01,FF,FF,FF,
4337254142,0000003C,false,Rx,0,8,FF,7F,00,00,00,00,FF,FF,
4337268337,00000314,false,Rx,0,3,FF,FF,FF,00,00,00,00,00,
4337278364,00000096,false,Rx,0,8,58,00,36,C7,01,FF,FF,FF,
4337281179,000001AE,false,Rx,0,2,FF,FF,00,00,00,00,00,00,
4337308357,00000096,false,Rx,0,8,58,00,36,C7,01,FF,FF,FF,
4337328520,000005C0,false,Rx,0,8,6E,04,00,FC,FF,FF,FF,FF,
4337334984,0000012F,false,Rx,0,8,18,52,8A,DD,F1,31,36,C1,
4337338348,00000096,false,Rx,0,8,58,00,36,C7,01,FF,FF,FF,
4337338531,00000226,false,Rx,0,5,FF,FF,FF,F4,FF,00,00,00,
4337353999,000000C0,false,Rx,0,2,F7,40,00,00,00,00,00,00,
4337354255,0000003C,false,Rx,0,8,FF,7F,00,00,00,00,FF,FF,
4337364397,000003B4,false,Rx,0,8,00,00,0C,F0,B8,FF,00,FE,
4337368320,00000096,false,Rx,0,8,58,00,36,C7,01,FF,FF,FF,
4337381230,000001AE,false,Rx,0,2,FF,FF,00,00,00,00,00,00,
4337398312,00000096,false,Rx,0,8,58,00,36,C7,01,FF,FF,FF,
4337402133,00000510,false,Rx,0,8,40,10,80,00,00,00,00,00,
4337404409,00000272,false,Rx,0,8,57,F9,62,12,FF,FF,FF,FF,
4337414106,000005C0,false,Rx,0,8,40,12,00,29,FF,FF,FF,FF,
4337418249,00000349,false,Rx,0,5,FE,FF,FE,FF,00,00,00,00,
4337428162,000002A5,false,Rx,0,2,FF,FF,00,00,00,00,00,00,
4337428312,00000314,false,Rx,0,3,FF,FF,FF,00,00,00,00,00,
4337428549,00000096,false,Rx,0,8,58,00,36,C7,01,FF,FF,FF,
4337434983,0000012F,false,Rx,0,8,45,53,8A,DD,F1,31,36,C1,
4337444959,000001E1,false,Rx,0,6,B0,FB,FF,FF,FF,FF,00,00,
4337454139,0000003C,false,Rx,0,8,FF,7F,00,00,00,00,FF,FF,
4337458425,00000096,false,Rx,0,8,58,00,36,C7,01,FF,FF,FF,
4337481171,000001AE,false,Rx,0,2,FF,FF,00,00,00,00,00,00,
4337488336,00000096,false,Rx,0,8,58,00,36,C7,01,FF,FF,FF,
4337498292,00000226,false,Rx,0,5,FF,FF,FF,F4,FF,00,00,00,
4337508029,00000540,false,Rx,0,8,00,00,00,00,FE,31,FF,40,
4337518398,00000096,false,Rx,0,8,58,00,36,C7,01,FF,FF,FF,
4337528364,00000346,false,Rx,0,4,94,E6,70,F0,00,00,00,00,
4337528608,000005C0,false,Rx,0,8,6E,01,00,FD,FF,FF,FF,FF,
4337534988,0000012F,false,Rx,0,8,CB,54,8A,DD,F1,31,36,C1,
4337548322,00000096,false,Rx,0,8,58,00,36,C7,01,FF,FF,FF,
4337554010,000000C0,false,Rx,0,2,F8,40,00,00,00,00,00,00,
4337554252,0000003C,false,Rx,0,8,FF,7F,00,00,00,00,FF,FF,
4337564529,000003B4,false,Rx,0,8,00,00,0C,F0,B8,FF,00,FE,
4337578412,00000096,false,Rx,0,8,58,00,36,C7,01,FF,FF,FF,
4337581176,000001AE,false,Rx,0,2,FF,FF,00,00,00,00,00,00,
4337588332,00000314,false,Rx,0,3,FF,FF,FF,00,00,00,00,00,
4337604555,00000272,false,Rx,0,8,B0,FA,62,12,FF,FF,FF,FF,
4337608344,00000096,false,Rx,0,8,58,00,36,C7,01,FF,FF,FF,
4337618271,00000349,false,Rx,0,5,FE,FF,FE,FF,00,00,00,00,
4337628162,000002A5,false,Rx,0,2,FF,FF,00,00,00,00,00,00,
4337634984,0000012F,false,Rx,0,8,96,55,8A,DD,F1,31,36,C1,
4337638425,00000096,false,Rx,0,8,58,00,36,C7,01,FF,FF,FF,
4337644959,000001E1,false,Rx,0,6,BB,FC,FF,FF,FF,FF,00,00,
4337654137,0000003C,false,Rx,0,8,FF,7F,00,00,00,00,FF,FF,
4337668332,00000096,false,Rx,0,8,58,00,36,C7,01,FF,FF,FF,
4337681168,000001AE,false,Rx,0,2,FF,FF,00,00,00,00,00,00,
4337698399,00000096,false,Rx,0,8,58,00,36,C7,01,FF,FF,FF,
4337728345,00000096,false,Rx,0,8,58,00,36,C7,01,FF,FF,FF,
4337734994,0000012F,false,Rx,0,8,71,56,8A,DD,F1,31,36,C1,
4337748235,00000314,false,Rx,0,3,FF,FF,FF,00,00,00,00,00,
4337754004,000000C0,false,Rx,0,2,F9,40,00,00,00,00,00,00,
4337754248,0000003C,false,Rx,0,8,FF,7F,00,00,00,00,FF,FF,
4337758421,00000096,false,Rx,0,8,58,00,36,C7,01,FF,FF,FF,
4337764665,000003B4,false,Rx,0,8,00,00,0C,F0,B8,FF,00,FE,
4337781213,000001AE,false,Rx,0,2,FF,FF,00,00,00,00,00,00,
4337788347,00000096,false,Rx,0,8,58,00,36,C7,01,FF,FF,FF,
4337804686,00000272,false,Rx,0,8,ED,FB,62,12,FF,FF,FF,FF,
4337818333,00000349,false,Rx,0,5,FE,FF,FE,FF,00,00,00,00,
4337818566,00000096,false,Rx,0,8,58,00,36,C7,01,FF,FF,FF,
4337828264,000002A5,false,Rx,0,2,FF,FF,00,00,00,00,00,00,
4337834984,0000012F,false,Rx,0,8,2C,57,8A,DD,F1,31,36,C1,
4337844960,000001E1,false,Rx,0,6,D1,FD,FF,FF,FF,FF,00,00,
4337848313,00000096,false,Rx,0,8,58,00,36,C7,01,FF,FF,FF,
4337854125,0000003C,false,Rx,0,8,FF,7F,00,00,00,00,FF,FF,
4337878411,00000096,false,Rx,0,8,58,00,36,C7,01,FF,FF,FF,
4337881165,000001AE,false,Rx,0,2,FF,FF,00,00,00,00,00,00,
4337908249,00000314,false,Rx,0,3,FF,FF,FF,00,00,00,00,00,
4337908482,00000096,false,Rx,0,8,58,00,36,C7,01,FF,FF,FF,
4337934986,0000012F,false,Rx,0,8,70,58,8A,DD,F1,31,36,C1,
4337938423,00000096,false,Rx,0,8,58,00,36,C7,01,FF,FF,FF,
4337954037,000000C0,false,Rx,0,2,FA,40,00,00,00,00,00,00,
4337954280,0000003C,false,Rx,0,8,FF,7F,00,00,00,00,FF,FF,
4337964701,00000337,false,Rx,0,2,FF,FF,00,00,00,00,00,00,
4337964975,000003B4,false,Rx,0,8,00,00,0C,F0,B8,FF,00,FE,
4337968312,00000096,false,Rx,0,8,58,00,36,C7,01,FF,FF,FF,
4337981158,000001AE,false,Rx,0,2,FF,FF,00,00,00,00,00,00,
4337998396,00000096,false,Rx,0,8,58,00,36,C7,01,FF,FF,FF,
4338004818,00000272,false,Rx,0,8,63,FC,62,12,FF,FF,FF,FF,
4338013716,000003D8,false,Rx,0,8,03,FF,FF,FF,FF,FF,FF,FF,
4338018139,000001EE,false,Rx,0,2,FF,FF,00,00,00,00,00,00,
4338018279,000002A6,false,Rx,0,2,FF,D7,00,00,00,00,00,00,
4338018466,00000349,false,Rx,0,5,FE,FF,FE,FF,00,00,00,00,
4338024980,000005C0,false,Rx,0,8,40,2B,03,05,FF,FF,FF,FF,
4338028149,000001D6,false,Rx,0,2,FF,FF,00,00,00,00,00,00,
4338028289,000002A5,false,Rx,0,2,FF,FF,00,00,00,00,00,00,
4338028527,00000096,false,Rx,0,8,58,00,36,C7,01,FF,FF,FF,
4338028683,00000346,false,Rx,0,4,94,E6,70,F0,00,00,00,00,
4338033794,0000031E,false,Rx,0,8,44,44,49,FF,78,FF,FF,FF,
4338034996,0000012F,false,Rx,0,8,2D,59,8A,DD,F1,31,36,C1,
4338042067,00000510,false,Rx,0,8,40,10,80,00,00,00,00,00,
4338044966,000001E1,false,Rx,0,6,6F,FE,FF,FF,FF,FF,00,00,
4338054124,0000003C,false,Rx,0,8,FF,7F,00,00,00,00,FF,FF,
4338058452,00000096,false,Rx,0,8,58,00,36,C7,01,FF,FF,FF,
4338068358,00000314,false,Rx,0,3,FF,FF,FF,00,00,00,00,00,
4338081162,000001AE,false,Rx,0,2,FF,FF,00,00,00,00,00,00,
4338088369,00000096,false,Rx,0,8,58,00,36,C7,01,FF,FF,FF,
4338118400,00000096,false,Rx,0,8,58,00,36,C7,01,FF,FF,FF,
4338134988,0000012F,false,Rx,0,8,CA,5A,8A,DD,F1,31,36,C1,
4338148022,00000540,false,Rx,0,8,00,00,00,00,FF,3B,FF,40,
4338148339,00000096,false,Rx,0,8,58,00,36,C7,01,FF,FF,FF,
4338153983,000000C0,false,Rx,0,2,FB,40,00,00,00,00,00,00,
4338154237,0000003C,false,Rx,0,8,FF,7F,00,00,00,00,FF,FF,
4338154928,000003C3,false,Rx,0,8,82,10,49,92,24,49,92,24,
4338164942,000003B4,false,Rx,0,8,00,00,0C,F0,B8,FF,00,FE,
4338178432,00000096,false,Rx,0,8,58,00,36,C7,01,FF,FF,FF,
4338181206,000001AE,false,Rx,0,2,FF,FF,00,00,00,00,00,00,
4338204963,00000272,false,Rx,0,8,3E,FD,62,12,FF,FF,FF,FF,
4338208349,00000096,false,Rx,0,8,58,00,36,C7,01,FF,FF,FF,
4338218264,00000349,false,Rx,0,5,FE,FF,FE,FF,00,00,00,00,
4338228167,000002A5,false,Rx,0,2,FF,FF,00,00,00,00,00,00,
4338228317,00000314,false,Rx,0,3,FF,FF,FF,00,00,00,00,00,
4338234985,0000012F,false,Rx,0,8,97,5B,8A,DD,F1,31,36,C1,
4338238422,00000096,false,Rx,0,8,58,00,36,C7,01,FF,FF,FF,
4338244959,000001E1,false,Rx,0,6,79,F0,FF,FF,FF,FF,00,00,
4338254115,0000003C,false,Rx,0,8,FF,7F,00,00,00,00,FF,FF,
4338268311,00000096,false,Rx,0,8,58,00,36,C7,01,FF,FF,FF,
4338281151,000001AE,false,Rx,0,2,FF,FF,00,00,00,00,00,00,
4338298400,00000096,false,Rx,0,8,58,00,36,C7,01,FF,FF,FF,
4338328333,00000096,false,Rx,0,8,58,00,36,C7,01,FF,FF,FF,
4338334995,0000012F,false,Rx,0,8,19,5C,8A,DD,F1,31,36,C1,
4338353985,000000C0,false,Rx,0,2,FC,40,00,00,00,00,00,00,
4338354231,0000003C,false,Rx,0,8,FF,7F,00,00,00,00,FF,FF,
4338358434,00000096,false,Rx,0,8,58,00,36,C7,01,FF,FF,FF,
4338365084,000003B4,false,Rx,0,8,00,00,0C,F0,B8,FF,00,FE,
4338381153,000001AE,false,Rx,0,2,FF,FF,00,00,00,00,00,00,
4338388248,00000314,false,Rx,0,3,FF,FF,FF,00,00,00,00,00,
4338388481,00000096,false,Rx,0,8,58,00,36,C7,01,FF,FF,FF,
4338405101,00000272,false,Rx,0,8,D9,FE,62,12,FF,FF,FF,FF,
4338418321,00000349,false,Rx,0,5,FE,FF,FE,FF,00,00,00,00,
4338418556,00000096,false,Rx,0,8,58,00,36,C7,01,FF,FF,FF,
4338428254,000002A5,false,Rx,0,2,FF,FF,00,00,00,00,00,00,
4338434994,0000012F,false,Rx,0,8,44,5D,8A,DD,F1,31,36,C1,
4338444970,000001E1,false,Rx,0,6,13,F1,FF,FF,FF,FF,00,00,
4338448471,00000096,false,Rx,0,8,58,00,36,C7,01,FF,FF,FF,
4338454116,0000003C,false,Rx,0,8,FF,7F,00,00,00,00,FF,FF,
4338478436,00000096,false,Rx,0,8,58,00,36,C7,01,FF,FF,FF,
4338481147,000001AE,false,Rx,0,2,FF,FF,00,00,00,00,00,00,
4338508377,00000096,false,Rx,0,8,58,00,36,C7,01,FF,FF,FF,
4338528290,00000346,false,Rx,0,4,94,E6,70,F0,00,00,00,00,
4338534989,0000012F,false,Rx,0,8,A3,5E,8A,DD,F1,31,36,C1,
4338538428,00000096,false,Rx,0,8,58,00,36,C7,01,FF,FF,FF,
4338548300,00000314,false,Rx,0,3,FF,FF,FF,00,00,00,00,00,
4338553974,000000C0,false,Rx,0,2,FD,40,00,00,00,00,00,00,
4338554228,0000003C,false,Rx,0,8,FF,7F,00,00,00,00,FF,FF,
4338565223,000003B4,false,Rx,0,8,00,00,0C,F0,B8,FF,00,FE,
4338568318,00000096,false,Rx,0,8,58,00,36,C7,01,FF,FF,FF,
4338581145,000001AE,false,Rx,0,2,FF,FF,00,00,00,00,00,00,
4338598404,00000096,false,Rx,0,8,58,00,36,C7,01,FF,FF,FF,
4338605240,00000272,false,Rx,0,8,D8,F0,62,12,FF,FF,FF,FF,
4338614119,000005C0,false,Rx,0,8,40,5A,01,29,FF,FF,FF,FF,
4338618251,00000349,false,Rx,0,5,FE,FF,FE,FF,00,00,00,00,
4338628153,000002A5,false,Rx,0,2,FF,FF,00,00,00,00,00,00,
4338628397,00000096,false,Rx,0,8,58,00,36,C7,01,FF,FF,FF,
4338634993,0000012F,false,Rx,0,8,A2,50,8A,DD,F1,31,36,C1,
4338644960,000001E1,false,Rx,0,6,AD,F2,FF,FF,FF,FF,00,00,
4338654108,0000003C,false,Rx,0,8,FF,7F,00,00,00,00,FF,FF,
4338658436,00000096,false,Rx,0,8,58,00,36,C7,01,FF,FF,FF,
4338681150,000001AE,false,Rx,0,2,FF,FF,00,00,00,00,00,00,
4338682054,00000510,false,Rx,0,8,40,10,80,00,00,00,00,00,
4338688354,00000096,false,Rx,0,8,58,00,36,C7,01,FF,FF,FF,
4338708218,00000314,false,Rx,0,3,FF,FF,FF,00,00,00,00,00,
4338718399,00000096,false,Rx,0,8,58,00,36,C7,01,FF,FF,FF,
4338734997,0000012F,false,Rx,0,8,FF,51,8A,DD,F1,31,36,C1,
4338748321,00000096,false,Rx,0,8,58,00,36,C7,01,FF,FF,FF,
4338753976,000000C0,false,Rx,0,2,FE,40,00,00,00,00,00,00,
4338754222,0000003C,false,Rx,0,8,FF,7F,00,00,00,00,FF,FF,
4338765359,000003B4,false,Rx,0,8,00,00,0C,F0,B8,FF,00,FE,
4338778425,00000096,false,Rx,0,8,58,00,36,C7,01,FF,FF,FF,
4338781138,000001AE,false,Rx,0,2,FF,FF,00,00,00,00,00,00,
4338788171,00000540,false,Rx,0,8,00,00,00,00,FE,31,FF,40,
4338805370,00000272,false,Rx,0,8,85,F1,62,12,FF,FF,FF,FF,
4338808351,00000096,false,Rx,0,8,58,00,36,C7,01,FF,FF,FF,
4338814121,000005C0,false,Rx,0,8,40,86,00,29,FF,FF,FF,FF,
4338818272,00000349,false,Rx,0,5,FE,FF,FE,FF,00,00,00,00,
4338828166,000002A5,false,Rx,0,2,FF,FF,00,00,00,00,00,00,
4338834989,0000012F,false,Rx,0,8,18,52,8A,DD,F1,31,36,C1,
4338838426,00000096,false,Rx,0,8,58,00,36,C7,01,FF,FF,FF,
4338844961,000001E1,false,Rx,0,6,C7,F3,FF,FF,FF,FF,00,00,
4338854109,0000003C,false,Rx,0,8,FF,7F,00,00,00,00,FF,FF,
4338868219,00000314,false,Rx,0,3,FF,FF,FF,00,00,00,00,00,
4338868452,00000096,false,Rx,0,8,58,00,36,C7,01,FF,FF,FF,
4338881146,000001AE,false,Rx,0,2,FF,FF,00,00,00,00,00,00,
4338898414,00000096,false,Rx,0,8,58,00,36,C7,01,FF,FF,FF,
4338928333,00000096,false,Rx,0,8,58,00,36,C7,01,FF,FF,FF,
4338934994,0000012F,false,Rx,0,8,45,53,8A,DD,F1,31,36,C1,
4338954008,000000C0,false,Rx,0,2,F0,40,00,00,00,00,00,00,
4338954261,0000003C,false,Rx,0,8,FF,7F,00,00,00,00,FF,FF,
4338958434,00000096,false,Rx,0,8,58,00,36,C7,01,FF,FF,FF,
4338965384,00000337,false,Rx,0,2,FF,FF,00,00,00,00,00,00,
4338965667,000003B4,false,Rx,0,8,00,00,0C,F0,B8,FF,00,FE,
4338981137,000001AE,false,Rx,0,2,FF,FF,00,00,00,00,00,00,
4338988343,00000096,false,Rx,0,8,58,00,36,C7,01,FF,FF,FF,
4339005513,00000272,false,Rx,0,8,62,F2,62,12,FF,FF,FF,FF,
4339013944,000003D8,false,Rx,0,8,03,FF,FF,FF,FF,FF,FF,FF,
4339014180,000005C0,false,Rx,0,8,40,94,00,29,FF,FF,FF,FF,
4339018218,000001EE,false,Rx,0,2,FF,FF,00,00,00,00,00,00,
4339018349,000002A6,false,Rx,0,2,FF,D7,00,00,00,00,00,00,
4339018586,00000096,false,Rx,0,8,58,00,36,C7,01,FF,FF,FF,
4339018772,00000349,false,Rx,0,5,FE,FF,FE,FF,00,00,00,00,
4339024992,000005C0,false,Rx,0,8,40,2B,03,05,FF,FF,FF,FF,
4339028253,000001D6,false,Rx,0,2,FF,FF,00,00,00,00,00,00,
4339028394,000002A5,false,Rx,0,2,FF,FF,00,00,00,00,00,00,
4339028548,00000314,false,Rx,0,3,FF,FF,FF,00,00,00,00,00,
4339028704,00000346,false,Rx,0,4,94,E6,70,F0,00,00,00,00,
4339033793,0000031E,false,Rx,0,8,44,44,49,FF,78,FF,FF,FF,
4339034995,0000012F,false,Rx,0,8,CB,54,8A,DD,F1,31,36,C1,
4339044968,000001E1,false,Rx,0,6,CC,F4,FF,FF,FF,FF,00,00,
4339048313,00000096,false,Rx,0,8,58,00,36,C7,01,FF,FF,FF,
4339054094,0000003C,false,Rx,0,8,FF,7F,00,00,00,00,FF,FF,
4339078422,00000096,false,Rx,0,8,58,00,36,C7,01,FF,FF,FF,
4339081134,000001AE,false,Rx,0,2,FF,FF,00,00,00,00,00,00,
4339094880,000001F6,false,Rx,0,2,80,F0,00,00,00,00,00,00,
4339108338,00000096,false,Rx,0,8,58,00,36,C7,01,FF,FF,FF,
4339115588,000003C3,false,Rx,0,8,83,14,09,92,24,49,92,24,
4339134994,0000012F,false,Rx,0,8,96,55,8A,DD,F1,31,36,C1,
4339138422,00000096,false,Rx,0,8,58,00,36,C7,01,FF,FF,FF,
4339153963,000000C0,false,Rx,0,2,F1,40,00,00,00,00,00,00,
4339154217,0000003C,false,Rx,0,8,FF,7F,00,00,00,00,FF,FF,
4339165633,000003B4,false,Rx,0,8,00,00,0C,F0,B8,FF,00,FE,
4339168314,00000096,false,Rx,0,8,58,00,36,C7,01,FF,FF,FF,
4339181140,000001AE,false,Rx,0,2,FF,FF,00,00,00,00,00,00,
4339188233,00000314,false,Rx,0,3,FF,FF,FF,00,00,00,00,00,
4339198394,00000096,false,Rx,0,8,58,00,36,C7,01,FF,FF,FF,
4339205654,00000272,false,Rx,0,8,3F,F3,62,12,FF,FF,FF,FF,
4339218245,00000349,false,Rx,0,5,FE,FF,FE,FF,00,00,00,00,
4339228151,000002A5,false,Rx,0,2,FF,FF,00,00,00,00,00,00,
4339228393,00000096,false,Rx,0,8,58,00,36,C7,01,FF,FF,FF,
4339234991,0000012F,false,Rx,0,8,71,56,8A,DD,F1,31,36,C1,
4339244958,000001E1,false,Rx,0,6,A6,F5,FF,FF,FF,FF,00,00,
4339254096,0000003C,false,Rx,0,8,FF,7F,00,00,00,00,FF,FF,
4339258517,00000096,false,Rx,0,8,58,00,36,C7,01,FF,FF,FF,
4339281127,000001AE,false,Rx,0,2,FF,FF,00,00,00,00,00,00,
4339288356,00000096,false,Rx,0,8,58,00,36,C7,01,FF,FF,FF,
4339318416,00000096,false,Rx,0,8,58,00,36,C7,01,FF,FF,FF,
4339322040,00000510,false,Rx,0,8,40,10,80,00,00,00,00,00,
4339334989,0000012F,false,Rx,0,8,2C,57,8A,DD,F1,31,36,C1,
4339348209,00000314,false,Rx,0,3,FF,FF,FF,00,00,00,00,00,
4339348452,00000096,false,Rx,0,8,58,00,36,C7,01,FF,FF,FF,
4339353952,000000C0,false,Rx,0,2,F2,40,00,00,00,00,00,00,
4339354206,0000003C,false,Rx,0,8,FF,7F,00,00,00,00,FF,FF,
4339365767,000003B4,false,Rx,0,8,00,00,0C,F0,B8,FF,00,FE,
4339378416,00000096,false,Rx,0,8,58,00,36,C7,01,FF,FF,FF,
4339381129,000001AE,false,Rx,0,2,FF,FF,00,00,00,00,00,00,
4339405787,00000272,false,Rx,0,8,B1,F4,62,12,FF,FF,FF,FF,
4339408343,00000096,false,Rx,0,8,58,00,36,C7,01,FF,FF,FF,
4339418269,00000349,false,Rx,0,5,FE,FF,FE,FF,00,00,00,00,
4339428016,00000540,false,Rx,0,8,00,00,00,00,FF,3B,FF,40,
4339428179,000002A5,false,Rx,0,2,FF,FF,00,00,00,00,00,00,
4339434994,0000012F,false,Rx,0,8,70,58,8A,DD,F1,31,36,C1,
4339438432,00000096,false,Rx,0,8,58,00,36,C7,01,FF,FF,FF,
4339444966,000001E1,false,Rx,0,6,18,F6,FF,FF,FF,FF,00,00,
4339454083,0000003C,false,Rx,0,8,FF,7F,00,00,00,00,FF,FF,
4339468317,00000096,false,Rx,0,8,58,00,36,C7,01,FF,FF,FF,
4339481122,000001AE,false,Rx,0,2,FF,FF,00,00,00,00,00,00,
4339498405,00000096,false,Rx,0,8,58,00,36,C7,01,FF,FF,FF,
4339508350,00000314,false,Rx,0,3,FF,FF,FF,00,00,00,00,00,
4339528337,00000096,false,Rx,0,8,58,00,36,C7,01,FF,FF,FF,
4339528499,00000346,false,Rx,0,4,94,E6,70,F0,00,00,00,00,
4339535001,0000012F,false,Rx,0,8,2D,59,8A,DD,F1,31,36,C1,
4339553953,000000C0,false,Rx,0,2,F3,40,00,00,00,00,00,00,
4339554207,0000003C,false,Rx,0,8,FF,7F,00,00,00,00,FF,FF,
4339558421,00000096,false,Rx,0,8,58,00,36,C7,01,FF,FF,FF,
4339565910,000003B4,false,Rx,0,8,00,00,0C,F0,B8,FF,00,FE,
4339581130,000001AE,false,Rx,0,2,FF,FF,00,00,00,00,00,00,
4339588337,00000096,false,Rx,0,8,58,00,36,C7,01,FF,FF,FF,
4339605918,00000272,false,Rx,0,8,EC,F5,62,12,FF,FF,FF,FF,
4339618321,00000349,false,Rx,0,5,FE,FF,FE,FF,00,00,00,00,
4339618555,00000096,false,Rx,0,8,58,00,36,C7,01,FF,FF,FF,
4339628262,000002A5,false,Rx,0,2,FF,FF,00,00,00,00,00,00,
4339634990,0000012F,false,Rx,0,8,CA,5A,8A,DD,F1,31,36,C1,
4339644968,000001E1,false,Rx,0,6,72,F7,FF,FF,FF,FF,00,00,
4339648313,00000096,false,Rx,0,8,58,00,36,C7,01,FF,FF,FF,
4339654081,0000003C,false,Rx,0,8,FF,7F,00,00,00,00,FF,FF,
4339668223,00000314,false,Rx,0,3,FF,FF,FF,00,00,00,00,00,
4339678467,00000096,false,Rx,0,8,58,00,36,C7,01,FF,FF,FF,
4339681128,000001AE,false,Rx,0,2,FF,FF,00,00,00,00,00,00,
4339708359,00000096,false,Rx,0,8,58,00,36,C7,01,FF,FF,FF,
4339734990,0000012F,false,Rx,0,8,97,5B,8A,DD,F1,31,36,C1,
4339738449,00000096,false,Rx,0,8,58,00,36,C7,01,FF,FF,FF,
4339753949,000000C0,false,Rx,0,2,F4,40,00,00,00,00,00,00,
4339754194,0000003C,false,Rx,0,8,FF,7F,00,00,00,00,FF,FF,
4339766047,000003B4,false,Rx,0,8,00,00,0C,F0,B8,FF,00,FE,
4339768323,00000096,false,Rx,0,8,58,00,36,C7,01,FF,FF,FF,
4339781120,000001AE,false,Rx,0,2,FF,FF,00,00,00,00,00,00,
4339798389,00000096,false,Rx,0,8,58,00,36,C7,01,FF,FF,FF,
4339806067,00000272,false,Rx,0,8,0B,F6,62,12,FF,FF,FF,FF,
4339814126,000005C0,false,Rx,0,8,40,B7,00,29,FF,FF,FF,FF,
4339818246,00000349,false,Rx,0,5,FE,FF,FE,FF,00,00,00,00,
4339828150,000002A5,false,Rx,0,2,FF,FF,00,00,00,00,00,00,
4339828300,00000314,false,Rx,0,3,FF,FF,FF,00,00,00,00,00,
4339828538,00000096,false,Rx,0,8,58,00,36,C7,01,FF,FF,FF,
4339834993,0000012F,false,Rx,0,8,19,5C,8A,DD,F1,31,36,C1,
4339844969,000001E1,false,Rx,0,6,0E,F8,FF,FF,FF,FF,00,00,
4339854085,0000003C,false,Rx,0,8,FF,7F,00,00,00,00,FF,FF,
4339858580,00000096,false,Rx,0,8,58,00,36,C7,01,FF,FF,FF,
4339881116,000001AE,false,Rx,0,2,FF,FF,00,00,00,00,00,00,
4339888343,00000096,false,Rx,0,8,58,00,36,C7,01,FF,FF,FF,
4339918394,00000096,false,Rx,0,8,58,00,36,C7,01,FF,FF,FF,
4339934991,0000012F,false,Rx,0,8,44,5D,8A,DD,F1,31,36,C1,
4339948326,00000096,false,Rx,0,8,58,00,36,C7,01,FF,FF,FF,
4339953992,000000C0,false,Rx,0,2,F5,40,00,00,00,00,00,00,
4339954236,0000003C,false,Rx,0,8,FF,7F,00,00,00,00,FF,FF,
4339962026,00000510,false,Rx,0,8,40,10,80,00,00,00,00,00,
4339966075,00000337,false,Rx,0,2,FF,FF,00,00,00,00,00,00,
4339966359,000003B4,false,Rx,0,8,00,00,0C,F0,B8,FF,00,FE,
4339978419,00000096,false,Rx,0,8,58,00,36,C7,01,FF,FF,FF,
4339981110,000001AE,false,Rx,0,2,FF,FF,00,00,00,00,00,00,
4339987043,000003A0,false,Rx,0,8,FF,FF,CF,FF,FF,FF,FF,FC,
4339988330,00000314,false,Rx,0,3,FF,FF,FF,00,00,00,00,00,
4340006198,00000272,false,Rx,0,8,56,F7,62,12,FF,FF,FF,FF,
4340008341,00000096,false,Rx,0,8,58,00,36,C7,01,FF,FF,FF,
4340013726,000003D8,false,Rx,0,8,03,FF,FF,FF,FF,FF,FF,FF,
4340018158,000001EE,false,Rx,0,2,FF,FF,00,00,00,00,00,00,
4340018299,000002A6,false,Rx,0,2,FF,D7,00,00,00,00,00,00,
4340018485,00000349,false,Rx,0,5,FE,FF,FE,FF,00,00,00,00,
4340024999,000005C0,false,Rx,0,8,40,2B,03,05,FF,FF,FF,FF,
4340028157,000001D6,false,Rx,0,2,FF,FF,00,00,00,00,00,00,
4340028288,000002A5,false,Rx,0,2,FF,FF,00,00,00,00,00,00,
4340028453,00000346,false,Rx,0,4,94,E6,70,F0,00,00,00,00,
4340033797,0000031E,false,Rx,0,8,44,44,49,FF,78,FF,FF,FF,
4340034999,0000012F,false,Rx,0,8,A3,5E,8A,DD,F1,31,36,C1,
4340038423,00000096,false,Rx,0,8,58,00,36,C7,01,FF,FF,FF,
4340044968,000001E1,false,Rx,0,6,64,F9,FF,FF,FF,FF,00,00,
4340054074,0000003C,false,Rx,0,8,FF,7F,00,00,00,00,FF,FF,
4340068084,00000540,false,Rx,0,8,00,00,00,00,FE,31,FF,40,
4340068402,00000096,false,Rx,0,8,58,00,36,C7,01,FF,FF,FF,
4340076254,000003C3,false,Rx,0,8,84,18,49,92,24,69,92,24,
4340081114,000001AE,false,Rx,0,2,FF,FF,00,00,00,00,00,00,
4340098405,00000096,false,Rx,0,8,58,00,36,C7,01,FF,FF,FF,
4340128362,00000096,false,Rx,0,8,58,00,36,C7,01,FF,FF,FF,
4340134991,0000012F,false,Rx,0,8,A2,50,8A,DD,F1,31,36,C1,
4340148255,00000314,false,Rx,0,3,FF,FF,FF,00,00,00,00,00,
4340153938,000000C0,false,Rx,0,2,F6,40,00,00,00,00,00,00,
4340154193,0000003C,false,Rx,0,8,FF,7F,00,00,00,00,FF,FF,
4340158511,00000096,false,Rx,0,8,58,00,36,C7,01,FF,FF,FF,
4340166322,000003B4,false,Rx,0,8,00,00,0C,F0,B8,FF,00,FE,
4340181110,000001AE,false,Rx,0,2,FF,FF,00,00,00,00,00,00,
4340188347,00000096,false,Rx,0,8,58,00,36,C7,01,FF,FF,FF,
4340206344,00000272,false,Rx,0,8,0A,F8,62,12,FF,FF,FF,FF,
4340218321,00000349,false,Rx,0,5,FE,FF,FE,FF,00,00,00,00,
4340218565,00000096,false,Rx,0,8,58,00,36,C7,01,FF,FF,FF,
4340228251,000002A5,false,Rx,0,2,FF,FF,00,00,00,00,00,00,
4340235002,0000012F,false,Rx,0,8,FF,51,8A,DD,F1,31,36,C1,
4340244969,000001E1,false,Rx,0,6,DA,FA,FF,FF,FF,FF,00,00,
4340248323,00000096,false,Rx,0,8,58,00,36,C7,01,FF,FF,FF,
4340254074,0000003C,false,Rx,0,8,FF,7F,00,00,00,00,FF,FF,
4340278411,00000096,false,Rx,0,8,58,00,36,C7,01,FF,FF,FF,
4340281113,000001AE,false,Rx,0,2,FF,FF,00,00,00,00,00,00,
4340308239,00000314,false,Rx,0,3,FF,FF,FF,00,00,00,00,00,
4340308482,00000096,false,Rx,0,8,58,00,36,C7,01,FF,FF,FF,
4340334999,0000012F,false,Rx,0,8,18,52,8A,DD,F1,31,36,C1,
4340338415,00000096,false,Rx,0,8,58,00,36,C7,01,FF,FF,FF,
4340353928,000000C0,false,Rx,0,2,F7,40,00,00,00,00,00,00,
4340354182,0000003C,false,Rx,0,8,FF,7F,00,00,00,00,FF,FF,
4340366500,000003B4,false,Rx,0,8,00,00,0C,F0,B8,FF,00,FE,
4340368323,00000096,false,Rx,0,8,58,00,36,C7,01,FF,FF,FF,
4340381109,000001AE,false,Rx,0,2,FF,FF,00,00,00,00,00,00,
4340398399,00000096,false,Rx,0,8,58,00,36,C7,01,FF,FF,FF,
4340406520,00000272,false,Rx,0,8,57,F9,62,12,FF,FF,FF,FF,
4340418249,00000349,false,Rx,0,5,FE,FF,FE,FF,00,00,00,00,
4340428152,000002A5,false,Rx,0,2,FF,FF,00,00,00,00,00,00,
4340428395,00000096,false,Rx,0,8,58,00,36,C7,01,FF,FF,FF,
4340434993,0000012F,false,Rx,0,8,45,53,8A,DD,F1,31,36,C1,
4340444970,000001E1,false,Rx,0,6,B0,FB,FF,FF,FF,FF,00,00,
