Time Stamp,ID,Extended,Dir,Bus,LEN,D1,D2,D3,D4,D5,D6,D7,D8
-1621841258567223,000001D0,false,Rx,0,8,6C,F0,DF,FF,FF,FF,FF,FF,
-1621841258567009,000002C4,false,Rx,0,8,FF,FF,FF,64,64,64,FF,FF,
-1621841258566753,000000A5,false,Rx,0,8,4A,F0,FF,F7,7F,FF,FF,FF,
-1621841258566625,000000AC,false,Rx,0,2,FF,F7,00,00,00,00,00,00,
-1621841258566412,000000D9,false,Rx,0,8,64,F0,FF,FF,FF,EF,7F,FF,
-1621841258566156,000000F3,false,Rx,0,8,85,F0,FF,FF,F0,FF,FF,FF,
-1621841258565943,00000304,false,Rx,0,6,FF,FF,FF,FF,FF,FF,00,00,
-1621841258565687,000003F9,false,Rx,0,8,8A,F0,FF,F3,30,30,CF,FF,
-1621841258562421,00000340,false,Rx,0,2,FC,FF,00,00,00,00,00,00,
-1621841258562293,00000389,false,Rx,0,2,FF,F0,00,00,00,00,00,00,
-1621841258562037,00000592,false,Rx,0,8,01,00,00,FF,FF,FF,FF,FF,
-1621841258561866,000001B9,false,Rx,0,5,FF,FF,FF,00,FF,00,00,00,
-1621841258561653,000003B3,false,Rx,0,7,0F,00,00,00,00,F0,08,00,
-1621841258561397,000003F9,false,Rx,0,8,35,F1,80,C0,A6,30,C0,FF,
-1621841258547317,000000A5,false,Rx,0,8,B4,F1,FF,F7,7F,00,00,C1,
-1621841258547061,000000D9,false,Rx,0,8,10,F1,00,10,00,F0,7F,C8,
-1621841258546933,000000AC,false,Rx,0,2,00,F0,00,00,00,00,00,00,
-1621841258546720,000000F3,false,Rx,0,8,D6,01,00,FF,F0,C0,FF,FF,
-1621841258541429,00000512,false,Rx,0,8,00,00,00,00,00,00,00,12,
-1621841258541173,00000592,false,Rx,0,8,41,00,00,00,00,00,00,00,
-1621841258532341,000001D0,false,Rx,0,8,31,F1,DF,FF,FF,FF,FF,FF,
-1621841258532128,000001B9,false,Rx,0,5,FF,FF,FF,00,FF,00,00,00,
-1621841258527264,000000A5,false,Rx,0,8,53,F2,FF,F7,7F,00,00,C1,
-1621841258527051,000000D9,false,Rx,0,8,F7,F2,00,10,00,F0,7F,C8,
-1621841258526923,000000AC,false,Rx,0,2,00,F0,00,00,00,00,00,00,
-1621841258526667,000000F3,false,Rx,0,8,31,02,00,FF,F0,C0,FF,FF,
-1621841258522229,000003B3,false,Rx,0,7,1F,00,FF,0F,00,F3,08,00,
-1621841258507296,000000A5,false,Rx,0,8,0E,F3,FF,F7,7F,00,00,C1,
-1621841258507083,000000D9,false,Rx,0,8,AA,F3,00,10,00,F0,7F,C8,
-1621841258506955,000000AC,false,Rx,0,2,00,F0,00,00,00,00,00,00,
-1621841258506699,000000F3,false,Rx,0,8,6C,03,00,FF,F0,C0,FF,FF,
-1621841258492064,00000592,false,Rx,0,8,40,00,00,00,FF,FF,FF,FF,
-1621841258487286,000000A5,false,Rx,0,8,80,F4,FF,F7,7F,00,00,C1,
-1621841258487030,000000D9,false,Rx,0,8,24,F4,00,10,00,F0,7F,C8,
-1621841258486902,000000AC,false,Rx,0,2,00,F0,00,00,00,00,00,00,
-1621841258486646,000000F3,false,Rx,0,8,E2,04,00,FF,F0,C0,FF,FF,
-1621841258467275,000002C4,false,Rx,0,8,00,00,FF,00,C8,64,FF,CF,
-1621841258467062,000000A5,false,Rx,0,8,DD,F5,FF,F7,7F,00,00,C1,
-1621841258466934,000000AC,false,Rx,0,2,00,F0,00,00,00,00,00,00,
-1621841258466678,000000D9,false,Rx,0,8,79,F5,00,10,00,F0,7F,C8,
-1621841258466465,000000F3,false,Rx,0,8,BF,05,00,FF,F0,C0,FF,FF,
-1621841258447265,000000A5,false,Rx,0,8,3A,F6,FF,F7,7F,00,00,C1,
-1621841258447052,000000D9,false,Rx,0,8,9E,F6,00,10,00,F0,7F,C8,
-1621841258446924,000000AC,false,Rx,0,2,00,F0,00,00,00,00,00,00,
-1621841258446668,000000F3,false,Rx,0,8,58,06,00,FF,F0,C0,FF,FF,
-1621841258427297,000000A5,false,Rx,0,8,67,F7,FF,F7,7F,00,00,C1,
-1621841258427041,000000D9,false,Rx,0,8,C3,F7,00,10,00,F0,7F,C8,
-1621841258426913,000000AC,false,Rx,0,2,00,F0,00,00,00,00,00,00,
-1621841258426657,000000F3,false,Rx,0,8,05,07,00,FF,F0,C0,FF,FF,
-1621841258422263,000001B9,false,Rx,0,5,FF,FF,FF,14,FF,00,00,00,
-1621841258407287,000000A5,false,Rx,0,8,3B,F8,FF,F7,7F,00,00,C1,
-1621841258407031,000000D9,false,Rx,0,8,9F,F8,00,10,00,F0,7F,C8,
-1621841258406903,000000AC,false,Rx,0,2,00,F0,00,00,00,00,00,00,
-1621841258406647,000000F3,false,Rx,0,8,59,08,00,FF,F0,C0,FF,FF,
-1621841258387277,000000A5,false,Rx,0,8,66,F9,FF,F7,7F,00,00,C1,
-1621841258387063,000000D9,false,Rx,0,8,C2,F9,00,10,00,F0,7F,C8,
-1621841258386935,000000AC,false,Rx,0,2,00,F0,00,00,00,00,00,00,
-1621841258386679,000000F3,false,Rx,0,8,04,09,00,FF,F0,C0,FF,FF,
-1621841258382413,00000340,false,Rx,0,2,FC,FF,00,00,00,00,00,00,
-1621841258382285,00000389,false,Rx,0,2,FF,F0,00,00,00,00,00,00,
-1621841258367266,000002C4,false,Rx,0,8,00,00,FF,00,C8,64,FF,CF,
-1621841258367053,000000A5,false,Rx,0,8,81,FA,FF,F7,7F,00,00,C1,
-1621841258366925,000000AC,false,Rx,0,2,00,F0,00,00,00,00,00,00,
-1621841258366669,000000D9,false,Rx,0,8,25,FA,00,10,00,F0,7F,C8,
-1621841258366413,000000F3,false,Rx,0,8,E3,0A,00,FF,F0,C0,FF,FF,
-1621841258366200,00000304,false,Rx,0,6,FF,FF,FF,FF,FF,FF,00,00,
-1621841258347299,000000A5,false,Rx,0,8,DC,FB,FF,F7,7F,00,00,C1,
-1621841258347043,000000D9,false,Rx,0,8,78,FB,00,10,00,F0,7F,C8,
-1621841258346915,000000AC,false,Rx,0,2,00,F0,00,00,00,00,00,00,
-1621841258346701,000000F3,false,Rx,0,8,BE,0B,00,FF,F0,C0,FF,FF,
-1621841258327288,000000A5,false,Rx,0,8,52,FC,FF,F7,7F,00,00,C1,
-1621841258327032,000000D9,false,Rx,0,8,F6,FC,00,10,00,F0,7F,C8,
-1621841258326904,000000AC,false,Rx,0,2,00,F0,00,00,00,00,00,00,
-1621841258326648,000000F3,false,Rx,0,8,30,0C,00,FF,F0,C0,FF,FF,
-1621841258307278,000000A5,false,Rx,0,8,0F,FD,FF,F7,7F,00,00,C1,
-1621841258307065,000000D9,false,Rx,0,8,AB,FD,00,10,00,F0,7F,C8,
-1621841258306894,000000AC,false,Rx,0,2,00,F0,00,00,00,00,00,00,
-1621841258306681,000000F3,false,Rx,0,8,6D,0D,00,FF,F0,C0,FF,FF,
-1621841258287268,000000A5,false,Rx,0,8,E8,FE,FF,F7,7F,00,00,C1,
-1621841258287054,000000D9,false,Rx,0,8,4C,FE,00,10,00,F0,7F,C8,
-1621841258286884,000000AC,false,Rx,0,2,00,F0,00,00,00,00,00,00,
-1621841258286670,000000F3,false,Rx,0,8,8A,0E,00,FF,F0,C0,FF,FF,
-1621841258267300,000002C4,false,Rx,0,8,00,00,FF,00,C8,64,FF,CF,
-1621841258267087,000000A5,false,Rx,0,8,E9,F0,FF,F7,7F,00,00,C1,
-1621841258266959,000000AC,false,Rx,0,2,00,F0,00,00,00,00,00,00,
-1621841258266703,000000D9,false,Rx,0,8,4D,F0,00,10,00,F0,7F,C8,
-1621841258266447,000000F3,false,Rx,0,8,8B,00,00,FF,F0,C0,FF,FF,
-1621841258247290,000000A5,false,Rx,0,8,B4,F1,FF,F7,7F,00,00,C1,
-1621841258247034,000000D9,false,Rx,0,8,10,F1,00,10,00,F0,7F,C8,
-1621841258246906,000000AC,false,Rx,0,2,00,F0,00,00,00,00,00,00,
-1621841258246650,000000F3,false,Rx,0,8,D6,01,00,FF,F0,C0,FF,FF,
-1621841258227279,000000A5,false,Rx,0,8,53,F2,FF,F7,7F,00,00,C1,
-1621841258227066,000000D9,false,Rx,0,8,1F,F2,00,10,00,F0,7F,C0,
-1621841258226895,000000AC,false,Rx,0,2,00,F0,00,00,00,00,00,00,
-1621841258226682,000000F3,false,Rx,0,8,31,02,00,FF,F0,C0,FF,FF,
-1621841258207269,000000A5,false,Rx,0,8,0E,F3,FF,F7,7F,00,00,C1,
-1621841258207056,000000D9,false,Rx,0,8,42,F3,00,10,00,F0,7F,C0,
-1621841258206885,000000AC,false,Rx,0,2,00,F0,00,00,00,00,00,00,
-1621841258206672,000000F3,false,Rx,0,8,6C,03,00,FF,F0,C0,FF,FF,
-1621841258187301,000000A5,false,Rx,0,8,80,F4,FF,F7,7F,00,00,C1,
-1621841258187045,000000D9,false,Rx,0,8,CC,F4,00,10,00,F0,7F,C0,
-1621841258186917,000000AC,false,Rx,0,2,00,F0,00,00,00,00,00,00,
-1621841258186661,000000F3,false,Rx,0,8,E2,04,00,FF,F0,C0,FF,FF,
-1621841258167291,000002C4,false,Rx,0,8,00,00,FF,00,C8,64,FF,CF,
-1621841258167035,000000A5,false,Rx,0,8,DD,F5,FF,F7,7F,00,00,C1,
-1621841258166907,000000AC,false,Rx,0,2,00,F0,00,00,00,00,00,00,
-1621841258166651,000000D9,false,Rx,0,8,91,F5,00,10,00,F0,7F,C0,
-1621841258166438,000000F3,false,Rx,0,8,BF,05,00,FF,F0,C0,FF,FF,
-1621841258166224,00000304,false,Rx,0,6,FF,FF,FF,FF,FF,FF,00,00,
-1621841258147280,000000A5,false,Rx,0,8,3A,F6,FF,F7,7F,00,00,C1,
-1621841258147067,000000D9,false,Rx,0,8,76,F6,00,10,00,F0,7F,C0,
-1621841258146939,000000AC,false,Rx,0,2,00,F0,00,00,00,00,00,00,
-1621841258146683,000000F3,false,Rx,0,8,58,06,00,FF,F0,C0,FF,FF,
-1621841258127270,000000A5,false,Rx,0,8,67,F7,FF,F7,7F,00,00,C1,
-1621841258127014,000000D9,false,Rx,0,8,2B,F7,00,10,00,F0,7F,C0,
-1621841258126886,000000AC,false,Rx,0,2,00,F0,00,00,00,00,00,00,
-1621841258126673,000000F3,false,Rx,0,8,05,07,00,FF,F0,C0,FF,FF,
-1621841258107302,000000A5,false,Rx,0,8,3B,F8,FF,F7,7F,00,00,C1,
-1621841258107046,000000D9,false,Rx,0,8,77,F8,00,10,00,F0,7F,C0,
-1621841258106918,000000AC,false,Rx,0,2,00,F0,00,00,00,00,00,00,
-1621841258106662,000000F3,false,Rx,0,8,59,08,00,FF,F0,C0,FF,FF,
-1621841258087292,000000A5,false,Rx,0,8,66,F9,FF,F7,7F,00,00,C1,
-1621841258087036,000000D9,false,Rx,0,8,2A,F9,00,10,00,F0,7F,C0,
-1621841258086908,000000AC,false,Rx,0,2,00,F0,00,00,00,00,00,00,
-1621841258086652,000000F3,false,Rx,0,8,04,09,00,FF,F0,C0,FF,FF,
-1621841258067324,000002C4,false,Rx,0,8,00,00,FF,00,C8,64,FF,CF,
-1621841258067068,000000A5,false,Rx,0,8,81,FA,FF,F7,7F,00,00,C1,
-1621841258066940,000000AC,false,Rx,0,2,00,F0,00,00,00,00,00,00,
-1621841258066684,000000D9,false,Rx,0,8,CD,FA,00,10,00,F0,7F,C0,
-1621841258066471,000000F3,false,Rx,0,8,E3,0A,00,FF,F0,C0,FF,FF,
-1621841258047271,000000A5,false,Rx,0,8,DC,FB,FF,F7,7F,00,00,C1,
-1621841258047058,000000D9,false,Rx,0,8,90,FB,00,10,00,F0,7F,C0,
-1621841258046887,000000AC,false,Rx,0,2,00,F0,00,00,00,00,00,00,
-1621841258046674,000000F3,false,Rx,0,8,BE,0B,00,FF,F0,C0,FF,FF,
-1621841258027304,000000A5,false,Rx,0,8,52,FC,FF,F7,7F,00,00,C1,
-1621841258027048,000000D9,false,Rx,0,8,1E,FC,00,10,00,F0,7F,C0,
-1621841258026920,000000AC,false,Rx,0,2,00,F0,00,00,00,00,00,00,
-1621841258026664,000000F3,false,Rx,0,8,30,0C,00,FF,F0,C0,FF,FF,
-1621841258007251,000000A5,false,Rx,0,8,0F,FD,FF,F7,7F,00,00,C1,
-1621841258007037,000000D9,false,Rx,0,8,43,FD,00,10,00,F0,7F,C0,
-1621841258006909,000000AC,false,Rx,0,2,00,F0,00,00,00,00,00,00,
-1621841258006653,000000F3,false,Rx,0,8,6D,0D,00,FF,F0,C0,FF,FF,
-1621841257987283,000000A5,false,Rx,0,8,E8,FE,FF,F7,7F,00,00,C1,
-1621841257987070,000000D9,false,Rx,0,8,A4,FE,00,10,00,F0,7F,C0,
-1621841257986942,000000AC,false,Rx,0,2,00,F0,00,00,00,00,00,00,
-1621841257986686,000000F3,false,Rx,0,8,8A,0E,00,FF,F0,C0,FF,FF,
-1621841257967273,000002C4,false,Rx,0,8,00,00,FF,00,C8,64,FF,CF,
-1621841257967059,000000A5,false,Rx,0,8,E9,F0,FF,F7,7F,00,00,C1,
-1621841257966889,000000AC,false,Rx,0,2,00,F0,00,00,00,00,00,00,
-1621841257966675,000000D9,false,Rx,0,8,A5,F0,00,10,00,F0,7F,C0,
-1621841257966419,000000F3,false,Rx,0,8,8B,00,00,FF,F0,C0,FF,FF,
-1621841257966206,00000304,false,Rx,0,6,FF,FF,FF,FF,FF,FF,00,00,
-1621841257947305,000000A5,false,Rx,0,8,B4,F1,FF,F7,7F,00,00,C1,
-1621841257947049,000000D9,false,Rx,0,8,F8,F1,00,10,00,F0,7F,C0,
-1621841257946921,000000AC,false,Rx,0,2,00,F0,00,00,00,00,00,00,
-1621841257946665,000000F3,false,Rx,0,8,D6,01,00,FF,F0,C0,FF,FF,
-1621841257927295,000000A5,false,Rx,0,8,53,F2,FF,F7,7F,00,00,C1,
-1621841257927039,000000D9,false,Rx,0,8,1F,F2,00,10,00,F0,7F,C0,
-1621841257926911,000000AC,false,Rx,0,2,00,F0,00,00,00,00,00,00,
-1621841257926655,000000F3,false,Rx,0,8,31,02,00,FF,F0,C0,FF,FF,
-1621841257907284,000000A5,false,Rx,0,8,0E,F3,FF,F7,7F,00,00,C1,
-1621841257907071,000000D9,false,Rx,0,8,42,F3,00,10,00,F0,7F,C0,
-1621841257906943,000000AC,false,Rx,0,2,00,F0,00,00,00,00,00,00,
-1621841257906687,000000F3,false,Rx,0,8,6C,03,00,FF,F0,C0,FF,FF,
-1621841257902122,00000512,false,Rx,0,8,00,00,00,00,00,00,00,12,
-1621841257887274,000000A5,false,Rx,0,8,80,F4,FF,F7,7F,00,00,C1,
-1621841257887018,000000D9,false,Rx,0,8,CC,F4,00,10,00,F0,7F,C0,
-1621841257886890,000000AC,false,Rx,0,2,00,F0,00,00,00,00,00,00,
-1621841257886677,000000F3,false,Rx,0,8,E2,04,00,FF,F0,C0,FF,FF,
-1621841257867306,000002C4,false,Rx,0,8,00,00,FF,00,C8,64,FF,CF,
-1621841257867093,000000A5,false,Rx,0,8,DD,F5,FF,F7,7F,00,00,C1,
-1621841257866965,000000AC,false,Rx,0,2,00,F0,00,00,00,00,00,00,
-1621841257866709,000000D9,false,Rx,0,8,91,F5,00,10,00,F0,7F,C0,
-1621841257866453,000000F3,false,Rx,0,8,BF,05,00,FF,F0,C0,FF,FF,
-1621841257847296,000000A5,false,Rx,0,8,3A,F6,FF,F7,7F,00,00,C1,
-1621841257847040,000000D9,false,Rx,0,8,76,F6,00,10,00,F0,7F,C0,
-1621841257846912,000000AC,false,Rx,0,2,00,F0,00,00,00,00,00,00,
-1621841257846656,000000F3,false,Rx,0,8,58,06,00,FF,F0,C0,FF,FF,
-1621841257827285,000000A5,false,Rx,0,8,67,F7,FF,F7,7F,00,00,C1,
-1621841257827072,000000D9,false,Rx,0,8,2B,F7,00,10,00,F0,7F,C0,
-1621841257826901,000000AC,false,Rx,0,2,00,F0,00,00,00,00,00,00,
-1621841257826688,000000F3,false,Rx,0,8,05,07,00,FF,F0,C0,FF,FF,
-1621841257807275,000000A5,false,Rx,0,8,3B,F8,FF,F7,7F,00,00,C1,
-1621841257807019,000000D9,false,Rx,0,8,77,F8,00,10,00,F0,7F,C0,
-1621841257806891,000000AC,false,Rx,0,2,00,F0,00,00,00,00,00,00,
-1621841257806678,000000F3,false,Rx,0,8,59,08,00,FF,F0,C0,FF,FF,
-1621841257787307,000000A5,false,Rx,0,8,66,F9,FF,F7,7F,00,00,C1,
-1621841257787051,000000D9,false,Rx,0,8,2A,F9,00,10,00,F0,7F,C0,
-1621841257786923,000000AC,false,Rx,0,2,00,F0,00,00,00,00,00,00,
-1621841257786667,000000F3,false,Rx,0,8,04,09,00,FF,F0,C0,FF,FF,
-1621841257767297,000002C4,false,Rx,0,8,00,00,FF,00,C8,64,FF,CF,
-1621841257767041,000000A5,false,Rx,0,8,81,FA,FF,F7,7F,00,00,C1,
-1621841257766913,000000AC,false,Rx,0,2,00,F0,00,00,00,00,00,00,
-1621841257766657,000000D9,false,Rx,0,8,CD,FA,00,10,00,F0,7F,C0,
-1621841257766444,000000F3,false,Rx,0,8,E3,0A,00,FF,F0,C0,FF,FF,
-1621841257766230,00000304,false,Rx,0,6,FF,FF,FF,FF,FF,FF,00,00,
-1621841257747287,000000A5,false,Rx,0,8,DC,FB,FF,F7,7F,00,00,C1,
-1621841257747073,000000D9,false,Rx,0,8,90,FB,00,10,00,F0,7F,C0,
-1621841257746903,000000AC,false,Rx,0,2,00,F0,00,00,00,00,00,00,
-1621841257746689,000000F3,false,Rx,0,8,BE,0B,00,FF,F0,C0,FF,FF,
-1621841257727276,000000A5,false,Rx,0,8,52,FC,FF,F7,7F,00,00,C1,
-1621841257727020,000000D9,false,Rx,0,8,1E,FC,00,10,00,F0,7F,C0,
-1621841257726892,000000AC,false,Rx,0,2,00,F0,00,00,00,00,00,00,
-1621841257726679,000000F3,false,Rx,0,8,30,0C,00,FF,F0,C0,FF,FF,
-1621841257707309,000000A5,false,Rx,0,8,0F,FD,FF,F7,7F,00,00,C1,
-1621841257707053,000000D9,false,Rx,0,8,43,FD,00,10,00,F0,7F,C0,
-1621841257706925,000000AC,false,Rx,0,2,00,F0,00,00,00,00,00,00,
-1621841257706669,000000F3,false,Rx,0,8,6D,0D,00,FF,F0,C0,FF,FF,
-1621841257687256,000000A5,false,Rx,0,8,E8,FE,FF,F7,7F,00,00,C1,
-1621841257687042,000000D9,false,Rx,0,8,A4,FE,00,10,00,F0,7F,C0,
-1621841257686914,000000AC,false,Rx,0,2,00,F0,00,00,00,00,00,00,
-1621841257686658,000000F3,false,Rx,0,8,8A,0E,00,FF,F0,C0,FF,FF,
-1621841257667331,000002C4,false,Rx,0,8,00,00,FF,00,C8,64,FF,CF,
-1621841257667075,000000A5,false,Rx,0,8,E9,F0,FF,F7,7F,00,00,C1,
-1621841257666947,000000AC,false,Rx,0,2,00,F0,00,00,00,00,00,00,
-1621841257666691,000000D9,false,Rx,0,8,A5,F0,00,10,00,F0,7F,C0,
-1621841257666477,000000F3,false,Rx,0,8,8B,00,00,FF,F0,C0,FF,FF,
-1621841257647278,000000A5,false,Rx,0,8,B4,F1,FF,F7,7F,00,00,C1,
-1621841257647022,000000D9,false,Rx,0,8,F8,F1,00,10,00,F0,7F,C0,
-1621841257646894,000000AC,false,Rx,0,2,00,F0,00,00,00,00,00,00,
-1621841257646680,000000F3,false,Rx,0,8,D6,01,00,FF,F0,C0,FF,FF,
-1621841257627310,000000A5,false,Rx,0,8,53,F2,FF,F7,7F,00,00,C1,
-1621841257627054,000000D9,false,Rx,0,8,1F,F2,00,10,00,F0,7F,C0,
-1621841257626926,000000AC,false,Rx,0,2,00,F0,00,00,00,00,00,00,
-1621841257626670,000000F3,false,Rx,0,8,31,02,00,FF,F0,C0,FF,FF,
-1621841257622190,00000592,false,Rx,0,8,41,00,00,00,00,5A,00,00,
-1621841257621977,000003B3,false,Rx,0,7,1F,00,FF,0F,00,F3,04,00,
-1621841257607257,000000A5,false,Rx,0,8,0E,F3,FF,F7,7F,00,00,C1,
-1621841257607044,000000D9,false,Rx,0,8,42,F3,00,10,00,F0,7F,C0,
-1621841257606916,000000AC,false,Rx,0,2,00,F0,00,00,00,00,00,00,
-1621841257606660,000000F3,false,Rx,0,8,6C,03,00,FF,F0,C0,FF,FF,
-1621841257587289,000000A5,false,Rx,0,8,80,F4,FF,F7,7F,00,00,C1,
-1621841257587076,000000D9,false,Rx,0,8,CC,F4,00,10,00,F0,7F,C0,
-1621841257586905,000000AC,false,Rx,0,2,00,F0,00,00,00,00,00,00,
-1621841257586692,000000F3,false,Rx,0,8,E2,04,00,FF,F0,C0,FF,FF,
-1621841257582169,000003B3,false,Rx,0,7,1F,00,FF,0F,00,F3,04,00,
-1621841257567279,000002C4,false,Rx,0,8,00,00,FF,00,C8,64,FF,CF,
-1621841257567066,000000A5,false,Rx,0,8,DD,F5,FF,F7,7F,00,00,C1,
-1621841257566895,000000AC,false,Rx,0,2,00,F0,00,00,00,00,00,00,
-1621841257566682,000000D9,false,Rx,0,8,91,F5,00,10,00,F0,7F,C0,
-1621841257566426,000000F3,false,Rx,0,8,BF,05,00,FF,F0,C0,FF,FF,
-1621841257566212,00000304,false,Rx,0,6,FF,FF,FF,FF,FF,FF,00,00,
-1621841257565999,000003F9,false,Rx,0,8,D2,F2,80,C0,A6,30,C0,FF,
-1621841257547377,000000A5,false,Rx,0,8,3A,F6,FF,F7,7F,00,00,C1,
-1621841257547121,000000D9,false,Rx,0,8,76,F6,00,10,00,F0,7F,C0,
-1621841257546993,000000AC,false,Rx,0,2,00,F0,00,00,00,00,00,00,
-1621841257546737,000000F3,false,Rx,0,8,58,06,00,FF,F0,C0,FF,FF,
-1621841257532188,000001D0,false,Rx,0,8,D6,F2,DF,FF,FF,FF,FF,FF,
-1621841257532017,000001B9,false,Rx,0,5,FF,FF,FF,14,FF,00,00,00,
-1621841257527324,000000A5,false,Rx,0,8,67,F7,FF,F7,7F,00,00,C1,
-1621841257527111,000000D9,false,Rx,0,8,2B,F7,00,10,00,F0,7F,C0,
-1621841257526983,000000AC,false,Rx,0,2,00,F0,00,00,00,00,00,00,
-1621841257526727,000000F3,false,Rx,0,8,05,07,00,FF,F0,C0,FF,FF,
-1621841257526514,00000592,false,Rx,0,8,80,10,11,10,2A,C9,DB,1B,
-1621841257517255,00000592,false,Rx,0,8,80,21,79,52,E8,21,D4,2E,
-1621841257507356,000000A5,false,Rx,0,8,3B,F8,FF,F7,7F,00,00,C1,
-1621841257507100,000000D9,false,Rx,0,8,77,F8,00,10,00,F0,7F,C0,
-1621841257506972,000000AC,false,Rx,0,2,00,F0,00,00,00,00,00,00,
-1621841257506759,000000F3,false,Rx,0,8,59,08,00,FF,F0,C0,FF,FF,
-1621841257506503,00000592,false,Rx,0,8,80,22,8A,21,81,3C,AC,A0,
-1621841257487346,000000A5,false,Rx,0,8,66,F9,FF,F7,7F,00,00,C1,
-1621841257487090,000000D9,false,Rx,0,8,2A,F9,00,10,00,F0,7F,C0,
-1621841257486962,000000AC,false,Rx,0,2,00,F0,00,00,00,00,00,00,
-1621841257486749,000000F3,false,Rx,0,8,04,09,00,FF,F0,C0,FF,FF,
-1621841257467378,000002C4,false,Rx,0,8,00,00,FF,00,C8,64,FF,CF,
-1621841257467122,000000A5,false,Rx,0,8,81,FA,FF,F7,7F,00,00,C1,
-1621841257466994,000000AC,false,Rx,0,2,00,F0,00,00,00,00,00,00,
-1621841257466781,000000D9,false,Rx,0,8,CD,FA,00,10,00,F0,7F,C0,
-1621841257466525,000000F3,false,Rx,0,8,E3,0A,00,FF,F0,C0,FF,FF,
-1621841257447325,000000A5,false,Rx,0,8,DC,FB,FF,F7,7F,00,00,C1,
-1621841257447112,000000D9,false,Rx,0,8,90,FB,00,10,00,F0,7F,C0,
-1621841257446984,000000AC,false,Rx,0,2,00,F0,00,00,00,00,00,00,
-1621841257446728,000000F3,false,Rx,0,8,BE,0B,00,FF,F0,C0,FF,FF,
-1621841257427358,000000A5,false,Rx,0,8,52,FC,FF,F7,7F,00,00,C1,
-1621841257427102,000000D9,false,Rx,0,8,1E,FC,00,10,00,F0,7F,C0,
-1621841257426974,000000AC,false,Rx,0,2,00,F0,00,00,00,00,00,00,
-1621841257426760,000000F3,false,Rx,0,8,30,0C,00,FF,F0,C0,FF,FF,
-1621841257407347,000000A5,false,Rx,0,8,0F,FD,FF,F7,7F,00,00,C1,
-1621841257407091,000000D9,false,Rx,0,8,43,FD,00,10,00,F0,7F,C0,
-1621841257406963,000000AC,false,Rx,0,2,00,F0,00,00,00,00,00,00,
-1621841257406750,000000F3,false,Rx,0,8,6D,0D,00,FF,F0,C0,FF,FF,
-1621841257387380,000000A5,false,Rx,0,8,E8,FE,FF,F7,7F,00,00,C1,
-1621841257387124,000000D9,false,Rx,0,8,A4,FE,00,10,00,F0,7F,C0,
-1621841257386996,000000AC,false,Rx,0,2,00,F0,00,00,00,00,00,00,
-1621841257386740,000000F3,false,Rx,0,8,8A,0E,00,FF,F0,C0,FF,FF,
-1621841257367369,000002C4,false,Rx,0,8,00,00,FF,00,C8,64,FF,CF,
-1621841257367113,000000A5,false,Rx,0,8,E9,F0,FF,F7,7F,00,00,C1,
-1621841257366985,000000AC,false,Rx,0,2,00,F0,00,00,00,00,00,00,
-1621841257366729,000000D9,false,Rx,0,8,A5,F0,00,10,00,F0,7F,C0,
-1621841257366516,000000F3,false,Rx,0,8,8B,00,00,FF,F0,C0,FF,FF,
-1621841257366260,00000304,false,Rx,0,6,FF,FF,FF,FF,FF,FF,00,00,
-1621841257347359,000000A5,false,Rx,0,8,B4,F1,FF,F7,7F,00,00,C1,
-1621841257347103,000000D9,false,Rx,0,8,F8,F1,00,10,00,F0,7F,C0,
-1621841257346975,000000AC,false,Rx,0,2,00,F0,00,00,00,00,00,00,
-1621841257346762,000000F3,false,Rx,0,8,D6,01,00,FF,F0,C0,FF,FF,
-1621841257327349,000000A5,false,Rx,0,8,53,F2,FF,F7,7F,00,00,C1,
-1621841257327093,000000D9,false,Rx,0,8,1F,F2,00,10,00,F0,7F,C0,
-1621841257326965,000000AC,false,Rx,0,2,00,F0,00,00,00,00,00,00,
-1621841257326751,000000F3,false,Rx,0,8,31,02,00,FF,F0,C0,FF,FF,
-1621841257307381,000000A5,false,Rx,0,8,0E,F3,FF,F7,7F,00,00,C1,
-1621841257307125,000000D9,false,Rx,0,8,42,F3,00,10,00,F0,7F,C0,
-1621841257306997,000000AC,false,Rx,0,2,00,F0,00,00,00,00,00,00,
-1621841257306741,000000F3,false,Rx,0,8,6C,03,00,FF,F0,C0,FF,FF,
-1621841257287328,000000A5,false,Rx,0,8,80,F4,FF,F7,7F,00,00,C1,
-1621841257287115,000000D9,false,Rx,0,8,CC,F4,00,10,00,F0,7F,C0,
-1621841257286987,000000AC,false,Rx,0,2,00,F0,00,00,00,00,00,00,
-1621841257286731,000000F3,false,Rx,0,8,E2,04,00,FF,F0,C0,FF,FF,
-1621841257267403,000002C4,false,Rx,0,8,00,00,FF,00,C8,64,FF,CF,
-1621841257267147,000000A5,false,Rx,0,8,DD,F5,FF,F7,7F,00,00,C1,
-1621841257267019,000000AC,false,Rx,0,2,00,F0,00,00,00,00,00,00,
-1621841257266763,000000D9,false,Rx,0,8,91,F5,00,10,00,F0,7F,C0,
-1621841257266550,000000F3,false,Rx,0,8,BF,05,00,FF,F0,C0,FF,FF,
-1621841257262155,00000512,false,Rx,0,8,00,00,00,00,00,00,00,12,
-1621841257247350,000000A5,false,Rx,0,8,3A,F6,FF,F7,7F,00,00,C1,
-1621841257247094,000000D9,false,Rx,0,8,76,F6,00,10,00,F0,7F,C0,
-1621841257246966,000000AC,false,Rx,0,2,00,F0,00,00,00,00,00,00,
-1621841257246753,000000F3,false,Rx,0,8,58,06,00,FF,F0,C0,FF,FF,
-1621841257227382,000000A5,false,Rx,0,8,67,F7,FF,F7,7F,00,00,C1,
-1621841257227126,000000D9,false,Rx,0,8,2B,F7,00,10,00,F0,7F,C0,
-1621841257226998,000000AC,false,Rx,0,2,00,F0,00,00,00,00,00,00,
-1621841257226742,000000F3,false,Rx,0,8,05,07,00,FF,F0,C0,FF,FF,
-1621841257207329,000000A5,false,Rx,0,8,3B,F8,FF,F7,7F,00,00,C1,
-1621841257207116,000000D9,false,Rx,0,8,77,F8,00,10,00,F0,7F,C0,
-1621841257206988,000000AC,false,Rx,0,2,00,F0,00,00,00,00,00,00,
-1621841257206732,000000F3,false,Rx,0,8,59,08,00,FF,F0,C0,FF,FF,
-1621841257187361,000000A5,false,Rx,0,8,66,F9,FF,F7,7F,00,00,C1,
-1621841257187105,000000D9,false,Rx,0,8,2A,F9,00,10,00,F0,7F,C0,
-1621841257186977,000000AC,false,Rx,0,2,00,F0,00,00,00,00,00,00,
-1621841257186764,000000F3,false,Rx,0,8,04,09,00,FF,F0,C0,FF,FF,
-1621841257167351,000002C4,false,Rx,0,8,00,00,FF,00,C8,64,FF,CF,
-1621841257167095,000000A5,false,Rx,0,8,81,FA,FF,F7,7F,00,00,C1,
-1621841257166967,000000AC,false,Rx,0,2,00,F0,00,00,00,00,00,00,
-1621841257166754,000000D9,false,Rx,0,8,CD,FA,00,10,00,F0,7F,C0,
-1621841257166498,000000F3,false,Rx,0,8,E3,0A,00,FF,F0,C0,FF,FF,
-1621841257166284,00000304,false,Rx,0,6,FF,FF,FF,FF,FF,FF,00,00,
-1621841257147383,000000A5,false,Rx,0,8,DC,FB,FF,F7,7F,00,00,C1,
-1621841257147127,000000D9,false,Rx,0,8,90,FB,00,10,00,F0,7F,C0,
-1621841257146999,000000AC,false,Rx,0,2,00,F0,00,00,00,00,00,00,
-1621841257146743,000000F3,false,Rx,0,8,BE,0B,00,FF,F0,C0,FF,FF,
-1621841257127330,000000A5,false,Rx,0,8,52,FC,FF,F7,7F,00,00,C1,
-1621841257127117,000000D9,false,Rx,0,8,1E,FC,00,10,00,F0,7F,C0,
-1621841257126989,000000AC,false,Rx,0,2,00,F0,00,00,00,00,00,00,
-1621841257126733,000000F3,false,Rx,0,8,30,0C,00,FF,F0,C0,FF,FF,
-1621841257107363,000000A5,false,Rx,0,8,0F,FD,FF,F7,7F,00,00,C1,
-1621841257107107,000000D9,false,Rx,0,8,43,FD,00,10,00,F0,7F,C0,
-1621841257106979,000000AC,false,Rx,0,2,00,F0,00,00,00,00,00,00,
-1621841257106765,000000F3,false,Rx,0,8,6D,0D,00,FF,F0,C0,FF,FF,
-1621841257087352,000000A5,false,Rx,0,8,E8,FE,FF,F7,7F,00,00,C1,
-1621841257087096,000000D9,false,Rx,0,8,A4,FE,00,10,00,F0,7F,C0,
-1621841257086968,000000AC,false,Rx,0,2,00,F0,00,00,00,00,00,00,
-1621841257086755,000000F3,false,Rx,0,8,8A,0E,00,FF,F0,C0,FF,FF,
-1621841257067385,000002C4,false,Rx,0,8,00,00,FF,00,C8,64,FF,CF,
-1621841257067129,000000A5,false,Rx,0,8,E9,F0,FF,F7,7F,00,00,C1,
-1621841257067001,000000AC,false,Rx,0,2,00,F0,00,00,00,00,00,00,
-1621841257066787,000000D9,false,Rx,0,8,A5,F0,00,10,00,F0,7F,C0,
-1621841257066531,000000F3,false,Rx,0,8,8B,00,00,FF,F0,C0,FF,FF,
-1621841257047332,000000A5,false,Rx,0,8,B4,F1,FF,F7,7F,00,00,C1,
-1621841257047118,000000D9,false,Rx,0,8,F8,F1,00,10,00,F0,7F,C0,
-1621841257046990,000000AC,false,Rx,0,2,00,F0,00,00,00,00,00,00,
-1621841257046734,000000F3,false,Rx,0,8,D6,01,00,FF,F0,C0,FF,FF,
-1621841257027364,000000A5,false,Rx,0,8,53,F2,FF,F7,7F,00,00,C1,
-1621841257027108,000000D9,false,Rx,0,8,1F,F2,00,10,00,F0,7F,C0,
-1621841257026980,000000AC,false,Rx,0,2,00,F0,00,00,00,00,00,00,
-1621841257026767,000000F3,false,Rx,0,8,31,02,00,FF,F0,C0,FF,FF,
-1621841257026511,00000592,false,Rx,0,8,80,10,11,10,4E,5C,C5,39,
-1621841257017252,00000592,false,Rx,0,8,80,21,6D,09,84,40,CF,11,
-1621841257007354,000000A5,false,Rx,0,8,0E,F3,FF,F7,7F,00,00,C1,
-1621841257007098,000000D9,false,Rx,0,8,42,F3,00,10,00,F0,7F,C0,
-1621841257006970,000000AC,false,Rx,0,2,00,F0,00,00,00,00,00,00,
-1621841257006714,000000F3,false,Rx,0,8,6C,03,00,FF,F0,C0,FF,FF,
-1621841257006500,00000592,false,Rx,0,8,80,22,C7,58,98,5E,58,D3,
-1621841256987386,000000A5,false,Rx,0,8,80,F4,FF,F7,7F,00,00,C1,
-1621841256987130,000000D9,false,Rx,0,8,CC,F4,00,10,00,F0,7F,C0,
-1621841256987002,000000AC,false,Rx,0,2,00,F0,00,00,00,00,00,00,
-1621841256986746,000000F3,false,Rx,0,8,E2,04,00,FF,F0,C0,FF,FF,
-1621841256967333,000002C4,false,Rx,0,8,00,00,FF,00,C8,64,FF,CF,
-1621841256967120,000000A5,false,Rx,0,8,DD,F5,FF,F7,7F,00,00,C1,
-1621841256966992,000000AC,false,Rx,0,2,00,F0,00,00,00,00,00,00,
-1621841256966736,000000D9,false,Rx,0,8,91,F5,00,10,00,F0,7F,C0,
-1621841256966480,000000F3,false,Rx,0,8,BF,05,00,FF,F0,C0,FF,FF,
-1621841256966266,00000304,false,Rx,0,6,FF,FF,FF,FF,FF,FF,00,00,
-1621841256947365,000000A5,false,Rx,0,8,3A,F6,FF,F7,7F,00,00,C1,
-1621841256947109,000000D9,false,Rx,0,8,76,F6,00,10,00,F0,7F,C0,
-1621841256946981,000000AC,false,Rx,0,2,00,F0,00,00,00,00,00,00,
-1621841256946768,000000F3,false,Rx,0,8,58,06,00,FF,F0,C0,FF,FF,
-1621841256927355,000000A5,false,Rx,0,8,67,F7,FF,F7,7F,00,00,C1,
-1621841256927099,000000D9,false,Rx,0,8,2B,F7,00,10,00,F0,7F,C0,
-1621841256926971,000000AC,false,Rx,0,2,00,F0,00,00,00,00,00,00,
-1621841256926715,000000F3,false,Rx,0,8,05,07,00,FF,F0,C0,FF,FF,
-1621841256907345,000000A5,false,Rx,0,8,3B,F8,FF,F7,7F,00,00,C1,
-1621841256907131,000000D9,false,Rx,0,8,77,F8,00,10,00,F0,7F,C0,
-1621841256907003,000000AC,false,Rx,0,2,00,F0,00,00,00,00,00,00,
-1621841256906747,000000F3,false,Rx,0,8,59,08,00,FF,F0,C0,FF,FF,
-1621841256887334,000000A5,false,Rx,0,8,66,F9,FF,F7,7F,00,00,C1,
-1621841256887121,000000D9,false,Rx,0,8,2A,F9,00,10,00,F0,7F,C0,
-1621841256886993,000000AC,false,Rx,0,2,00,F0,00,00,00,00,00,00,
-1621841256886737,000000F3,false,Rx,0,8,04,09,00,FF,F0,C0,FF,FF,
-1621841256867409,000002C4,false,Rx,0,8,00,00,FF,00,C8,64,FF,CF,
-1621841256867153,000000A5,false,Rx,0,8,81,FA,FF,F7,7F,00,00,C1,
-1621841256867025,000000AC,false,Rx,0,2,00,F0,00,00,00,00,00,00,
-1621841256866769,000000D9,false,Rx,0,8,CD,FA,00,10,00,F0,7F,C0,
-1621841256866556,000000F3,false,Rx,0,8,E3,0A,00,FF,F0,C0,FF,FF,
-1621841256847356,000000A5,false,Rx,0,8,DC,FB,FF,F7,7F,00,00,C1,
-1621841256847100,000000D9,false,Rx,0,8,90,FB,00,10,00,F0,7F,C0,
-1621841256846972,000000AC,false,Rx,0,2,00,F0,00,00,00,00,00,00,
-1621841256846716,000000F3,false,Rx,0,8,BE,0B,00,FF,F0,C0,FF,FF,
-1621841256827346,000000A5,false,Rx,0,8,52,FC,FF,F7,7F,00,00,C1,
-1621841256827132,000000D9,false,Rx,0,8,1E,FC,00,10,00,F0,7F,C0,
-1621841256827004,000000AC,false,Rx,0,2,00,F0,00,00,00,00,00,00,
-1621841256826748,000000F3,false,Rx,0,8,30,0C,00,FF,F0,C0,FF,FF,
-1621841256822311,000001B9,false,Rx,0,5,FF,FF,FF,02,FF,00,00,00,
-1621841256807335,000000A5,false,Rx,0,8,0F,FD,FF,F7,7F,00,00,C1,
-1621841256807079,000000D9,false,Rx,0,8,43,FD,00,10,00,F0,7F,C0,
-1621841256806951,000000AC,false,Rx,0,2,00,F0,00,00,00,00,00,00,
-1621841256806738,000000F3,false,Rx,0,8,6D,0D,00,FF,F0,C0,FF,FF,
-1621841256787368,000000A5,false,Rx,0,8,E8,FE,FF,F7,7F,00,00,C1,
-1621841256787112,000000D9,false,Rx,0,8,A4,FE,00,10,00,F0,7F,C0,
-1621841256786984,000000AC,false,Rx,0,2,00,F0,00,00,00,00,00,00,
-1621841256786770,000000F3,false,Rx,0,8,8A,0E,00,FF,F0,C0,FF,FF,
-1621841256767357,000002C4,false,Rx,0,8,00,00,FF,00,C8,64,FF,CF,
-1621841256767101,000000A5,false,Rx,0,8,E9,F0,FF,F7,7F,00,00,C1,
-1621841256766973,000000AC,false,Rx,0,2,00,F0,00,00,00,00,00,00,
-1621841256766717,000000D9,false,Rx,0,8,A5,F0,00,10,00,F0,7F,C0,
-1621841256766504,000000F3,false,Rx,0,8,8B,00,00,FF,F0,C0,FF,FF,
-1621841256766291,00000304,false,Rx,0,6,FF,FF,FF,FF,FF,FF,00,00,
-1621841256747347,000000A5,false,Rx,0,8,B4,F1,FF,F7,7F,00,00,C1,
-1621841256747134,000000D9,false,Rx,0,8,F8,F1,00,10,00,F0,7F,C0,
-1621841256747006,000000AC,false,Rx,0,2,00,F0,00,00,00,00,00,00,
-1621841256746750,000000F3,false,Rx,0,8,D6,01,00,FF,F0,C0,FF,FF,
-1621841256727337,000000A5,false,Rx,0,8,53,F2,FF,F7,7F,00,00,C1,
-1621841256727123,000000D9,false,Rx,0,8,1F,F2,00,10,00,F0,7F,C0,
-1621841256726953,000000AC,false,Rx,0,2,00,F0,00,00,00,00,00,00,
-1621841256726739,000000F3,false,Rx,0,8,31,02,00,FF,F0,C0,FF,FF,
-1621841256707369,000000A5,false,Rx,0,8,0E,F3,FF,F7,7F,00,00,C1,
-1621841256707113,000000D9,false,Rx,0,8,42,F3,00,10,00,F0,7F,C0,
-1621841256706985,000000AC,false,Rx,0,2,00,F0,00,00,00,00,00,00,
-1621841256706772,000000F3,false,Rx,0,8,6C,03,00,FF,F0,C0,FF,FF,
-1621841256687359,000000A5,false,Rx,0,8,80,F4,FF,F7,7F,00,00,C1,
-1621841256687103,000000D9,false,Rx,0,8,CC,F4,00,10,00,F0,7F,C0,
-1621841256686975,000000AC,false,Rx,0,2,00,F0,00,00,00,00,00,00,
-1621841256686719,000000F3,false,Rx,0,8,E2,04,00,FF,F0,C0,FF,FF,
-1621841256667391,000002C4,false,Rx,0,8,00,00,FF,00,C8,64,FF,CF,
-1621841256667135,000000A5,false,Rx,0,8,DD,F5,FF,F7,7F,00,00,C1,
-1621841256667007,000000AC,false,Rx,0,2,00,F0,00,00,00,00,00,00,
-1621841256666794,000000D9,false,Rx,0,8,91,F5,00,10,00,F0,7F,C0,
-1621841256666538,000000F3,false,Rx,0,8,BF,05,00,FF,F0,C0,FF,FF,
-1621841256647338,000000A5,false,Rx,0,8,3A,F6,FF,F7,7F,00,00,C1,
-1621841256647125,000000D9,false,Rx,0,8,76,F6,00,10,00,F0,7F,C0,
-1621841256646997,000000AC,false,Rx,0,2,00,F0,00,00,00,00,00,00,
-1621841256646741,000000F3,false,Rx,0,8,58,06,00,FF,F0,C0,FF,FF,
-1621841256627370,000000A5,false,Rx,0,8,67,F7,FF,F7,7F,00,00,C1,
-1621841256627114,000000D9,false,Rx,0,8,2B,F7,00,10,00,F0,7F,C0,
-1621841256626986,000000AC,false,Rx,0,2,00,F0,00,00,00,00,00,00,
-1621841256626730,000000F3,false,Rx,0,8,05,07,00,FF,F0,C0,FF,FF,
-1621841256622165,00000512,false,Rx,0,8,00,00,00,00,00,00,00,12,
-1621841256607360,000000A5,false,Rx,0,8,3B,F8,FF,F7,7F,00,00,C1,
-1621841256607104,000000D9,false,Rx,0,8,77,F8,00,10,00,F0,7F,C0,
-1621841256606976,000000AC,false,Rx,0,2,00,F0,00,00,00,00,00,00,
-1621841256606720,000000F3,false,Rx,0,8,59,08,00,FF,F0,C0,FF,FF,
-1621841256587350,000000A5,false,Rx,0,8,66,F9,FF,F7,7F,00,00,C1,
-1621841256587136,000000D9,false,Rx,0,8,2A,F9,00,10,00,F0,7F,C0,
-1621841256587008,000000AC,false,Rx,0,2,00,F0,00,00,00,00,00,00,
-1621841256586752,000000F3,false,Rx,0,8,04,09,00,FF,F0,C0,FF,FF,
-1621841256567339,000002C4,false,Rx,0,8,00,00,FF,00,C8,64,FF,CF,
-1621841256567126,000000A5,false,Rx,0,8,81,FA,FF,F7,7F,00,00,C1,
-1621841256566998,000000AC,false,Rx,0,2,00,F0,00,00,00,00,00,00,
-1621841256566742,000000D9,false,Rx,0,8,CD,FA,00,10,00,F0,7F,C0,
-1621841256566486,000000F3,false,Rx,0,8,E3,0A,00,FF,F0,C0,FF,FF,
-1621841256566273,00000304,false,Rx,0,6,FF,FF,FF,FF,FF,FF,00,00,
-1621841256566059,000003F9,false,Rx,0,8,8F,F3,80,C0,A6,30,C0,FF,
-1621841256547404,000000A5,false,Rx,0,8,DC,FB,FF,F7,7F,00,00,C1,
-1621841256547148,000000D9,false,Rx,0,8,90,FB,00,10,00,F0,7F,C0,
-1621841256547020,000000AC,false,Rx,0,2,00,F0,00,00,00,00,00,00,
-1621841256546764,000000F3,false,Rx,0,8,BE,0B,00,FF,F0,C0,FF,FF,
-1621841256532429,000001D0,false,Rx,0,8,8B,F3,DF,FF,FF,FF,FF,FF,
-1621841256532215,000001B9,false,Rx,0,5,FF,FF,FF,02,FF,00,00,00,
-1621841256527394,000000A5,false,Rx,0,8,52,FC,FF,F7,7F,00,00,C1,
-1621841256527138,000000D9,false,Rx,0,8,1E,FC,00,10,00,F0,7F,C0,
-1621841256527010,000000AC,false,Rx,0,2,00,F0,00,00,00,00,00,00,
-1621841256526754,000000F3,false,Rx,0,8,30,0C,00,FF,F0,C0,FF,FF,
-1621841256526541,00000592,false,Rx,0,8,80,10,11,10,CB,C9,64,7A,
-1621841256517282,00000592,false,Rx,0,8,80,21,25,D9,DD,A7,8E,56,
-1621841256507384,000000A5,false,Rx,0,8,0F,FD,FF,F7,7F,00,00,C1,
-1621841256507170,000000D9,false,Rx,0,8,43,FD,00,10,00,F0,7F,C0,
-1621841256507000,000000AC,false,Rx,0,2,00,F0,00,00,00,00,00,00,
-1621841256506786,000000F3,false,Rx,0,8,6D,0D,00,FF,F0,C0,FF,FF,
-1621841256506573,00000592,false,Rx,0,8,80,22,C4,27,8C,7B,74,2C,
-1621841256487373,000000A5,false,Rx,0,8,E8,FE,FF,F7,7F,00,00,C1,
-1621841256487160,000000D9,false,Rx,0,8,A4,FE,00,10,00,F0,7F,C0,
-1621841256486989,000000AC,false,Rx,0,2,00,F0,00,00,00,00,00,00,
-1621841256486776,000000F3,false,Rx,0,8,8A,0E,00,FF,F0,C0,FF,FF,
-1621841256467406,000002C4,false,Rx,0,8,00,00,FF,00,C8,64,FF,CF,
-1621841256467192,000000A5,false,Rx,0,8,E9,F0,FF,F7,7F,00,00,C1,
-1621841256467064,000000AC,false,Rx,0,2,00,F0,00,00,00,00,00,00,
-1621841256466808,000000D9,false,Rx,0,8,A5,F0,00,10,00,F0,7F,C0,
-1621841256466552,000000F3,false,Rx,0,8,8B,00,00,FF,F0,C0,FF,FF,
-1621841256447395,000000A5,false,Rx,0,8,B4,F1,FF,F7,7F,00,00,C1,
-1621841256447139,000000D9,false,Rx,0,8,F8,F1,00,10,00,F0,7F,C0,
-1621841256447011,000000AC,false,Rx,0,2,00,F0,00,00,00,00,00,00,
-1621841256446755,000000F3,false,Rx,0,8,D6,01,00,FF,F0,C0,FF,FF,
-1621841256427385,000000A5,false,Rx,0,8,53,F2,FF,F7,7F,00,00,C1,
-1621841256427172,000000D9,false,Rx,0,8,1F,F2,00,10,00,F0,7F,C0,
-1621841256427044,000000AC,false,Rx,0,2,00,F0,00,00,00,00,00,00,
-1621841256426788,000000F3,false,Rx,0,8,31,02,00,FF,F0,C0,FF,FF,
-1621841256407375,000000A5,false,Rx,0,8,0E,F3,FF,F7,7F,00,00,C1,
-1621841256407161,000000D9,false,Rx,0,8,42,F3,00,10,00,F0,7F,C0,
-1621841256406991,000000AC,false,Rx,0,2,00,F0,00,00,00,00,00,00,
-1621841256406777,000000F3,false,Rx,0,8,6C,03,00,FF,F0,C0,FF,FF,
-1621841256387407,000000A5,false,Rx,0,8,80,F4,FF,F7,7F,00,00,C1,
-1621841256387151,000000D9,false,Rx,0,8,CC,F4,00,10,00,F0,7F,C0,
-1621841256387023,000000AC,false,Rx,0,2,00,F0,00,00,00,00,00,00,
-1621841256386810,000000F3,false,Rx,0,8,E2,04,00,FF,F0,C0,FF,FF,
-1621841256367397,000002C4,false,Rx,0,8,00,00,FF,00,C8,64,FF,CF,
-1621841256367141,000000A5,false,Rx,0,8,DD,F5,FF,F7,7F,00,00,C1,
-1621841256367013,000000AC,false,Rx,0,2,00,F0,00,00,00,00,00,00,
-1621841256366757,000000D9,false,Rx,0,8,91,F5,00,10,00,F0,7F,C0,
-1621841256366543,000000F3,false,Rx,0,8,BF,05,00,FF,F0,C0,FF,FF,
-1621841256366330,00000304,false,Rx,0,6,FF,FF,FF,FF,FF,FF,00,00,
-1621841256347386,000000A5,false,Rx,0,8,3A,F6,FF,F7,7F,00,00,C1,
-1621841256347173,000000D9,false,Rx,0,8,76,F6,00,10,00,F0,7F,C0,
-1621841256347045,000000AC,false,Rx,0,2,00,F0,00,00,00,00,00,00,
-1621841256346789,000000F3,false,Rx,0,8,58,06,00,FF,F0,C0,FF,FF,
-1621841256327376,000000A5,false,Rx,0,8,67,F7,FF,F7,7F,00,00,C1,
-1621841256327120,000000D9,false,Rx,0,8,2B,F7,00,10,00,F0,7F,C0,
-1621841256326992,000000AC,false,Rx,0,2,00,F0,00,00,00,00,00,00,
-1621841256326779,000000F3,false,Rx,0,8,05,07,00,FF,F0,C0,FF,FF,
-1621841256307408,000000A5,false,Rx,0,8,3B,F8,FF,F7,7F,00,00,C1,
-1621841256307152,000000D9,false,Rx,0,8,77,F8,00,10,00,F0,7F,C0,
-1621841256307024,000000AC,false,Rx,0,2,00,F0,00,00,00,00,00,00,
-1621841256306768,000000F3,false,Rx,0,8,59,08,00,FF,F0,C0,FF,FF,
-1621841256287398,000000A5,false,Rx,0,8,66,F9,FF,F7,7F,00,00,C1,
-1621841256287142,000000D9,false,Rx,0,8,2A,F9,00,10,00,F0,7F,C0,
-1621841256287014,000000AC,false,Rx,0,2,00,F0,00,00,00,00,00,00,
-1621841256286758,000000F3,false,Rx,0,8,04,09,00,FF,F0,C0,FF,FF,
-1621841256267430,000002C4,false,Rx,0,8,00,00,FF,00,C8,64,FF,CF,
-1621841256267174,000000A5,false,Rx,0,8,81,FA,FF,F7,7F,00,00,C1,
-1621841256267046,000000AC,false,Rx,0,2,00,F0,00,00,00,00,00,00,
-1621841256266790,000000D9,false,Rx,0,8,CD,FA,00,10,00,F0,7F,C0,
-1621841256266577,000000F3,false,Rx,0,8,E3,0A,00,FF,F0,C0,FF,FF,
-1621841256247377,000000A5,false,Rx,0,8,DC,FB,FF,F7,7F,00,00,C1,
-1621841256247164,000000D9,false,Rx,0,8,90,FB,00,10,00,F0,7F,C0,
-1621841256246993,000000AC,false,Rx,0,2,00,F0,00,00,00,00,00,00,
-1621841256246780,000000F3,false,Rx,0,8,BE,0B,00,FF,F0,C0,FF,FF,
-1621841256227409,000000A5,false,Rx,0,8,52,FC,FF,F7,7F,00,00,C1,
-1621841256227153,000000D9,false,Rx,0,8,1E,FC,00,10,00,F0,7F,C0,
-1621841256227025,000000AC,false,Rx,0,2,00,F0,00,00,00,00,00,00,
-1621841256226769,000000F3,false,Rx,0,8,30,0C,00,FF,F0,C0,FF,FF,
-1621841256207399,000000A5,false,Rx,0,8,0F,FD,FF,F7,7F,00,00,C1,
-1621841256207143,000000D9,false,Rx,0,8,43,FD,00,10,00,F0,7F,C0,
-1621841256207015,000000AC,false,Rx,0,2,00,F0,00,00,00,00,00,00,
-1621841256206759,000000F3,false,Rx,0,8,6D,0D,00,FF,F0,C0,FF,FF,
-1621841256187389,000000A5,false,Rx,0,8,E8,FE,FF,F7,7F,00,00,C1,
-1621841256187175,000000D9,false,Rx,0,8,A4,FE,00,10,00,F0,7F,C0,
-1621841256187047,000000AC,false,Rx,0,2,00,F0,00,00,00,00,00,00,
-1621841256186791,000000F3,false,Rx,0,8,8A,0E,00,FF,F0,C0,FF,FF,
-1621841256167378,000002C4,false,Rx,0,8,00,00,FF,00,C8,64,FF,CF,
-1621841256167165,000000A5,false,Rx,0,8,E9,F0,FF,F7,7F,00,00,C1,
-1621841256166994,000000AC,false,Rx,0,2,00,F0,00,00,00,00,00,00,
-1621841256166781,000000D9,false,Rx,0,8,A5,F0,00,10,00,F0,7F,C0,
-1621841256166525,000000F3,false,Rx,0,8,8B,00,00,FF,F0,C0,FF,FF,
-1621841256166312,00000304,false,Rx,0,6,FF,FF,FF,FF,FF,FF,00,00,
-1621841256147411,000000A5,false,Rx,0,8,B4,F1,FF,F7,7F,00,00,C1,
-1621841256147155,000000D9,false,Rx,0,8,F8,F1,00,10,00,F0,7F,C0,
-1621841256147027,000000AC,false,Rx,0,2,00,F0,00,00,00,00,00,00,
-1621841256146813,000000F3,false,Rx,0,8,D6,01,00,FF,F0,C0,FF,FF,
-1621841256127400,000000A5,false,Rx,0,8,53,F2,FF,F7,7F,00,00,C1,
-1621841256127144,000000D9,false,Rx,0,8,1F,F2,00,10,00,F0,7F,C0,
-1621841256127016,000000AC,false,Rx,0,2,00,F0,00,00,00,00,00,00,
-1621841256126760,000000F3,false,Rx,0,8,31,02,00,FF,F0,C0,FF,FF,
-1621841256107390,000000A5,false,Rx,0,8,0E,F3,FF,F7,7F,00,00,C1,
-1621841256107177,000000D9,false,Rx,0,8,42,F3,00,10,00,F0,7F,C0,
-1621841256107049,000000AC,false,Rx,0,2,00,F0,00,00,00,00,00,00,
-1621841256106793,000000F3,false,Rx,0,8,6C,03,00,FF,F0,C0,FF,FF,
-1621841256087380,000000A5,false,Rx,0,8,80,F4,FF,F7,7F,00,00,C1,
-1621841256087166,000000D9,false,Rx,0,8,CC,F4,00,10,00,F0,7F,C0,
-1621841256086996,000000AC,false,Rx,0,2,00,F0,00,00,00,00,00,00,
-1621841256086782,000000F3,false,Rx,0,8,E2,04,00,FF,F0,C0,FF,FF,
-1621841256067412,000002C4,false,Rx,0,8,00,00,FF,00,C8,64,FF,CF,
-1621841256067199,000000A5,false,Rx,0,8,DD,F5,FF,F7,7F,00,00,C1,
-1621841256067071,000000AC,false,Rx,0,2,00,F0,00,00,00,00,00,00,
-1621841256066815,000000D9,false,Rx,0,8,91,F5,00,10,00,F0,7F,C0,
-1621841256066559,000000F3,false,Rx,0,8,BF,05,00,FF,F0,C0,FF,FF,
-1621841256047402,000000A5,false,Rx,0,8,3A,F6,FF,F7,7F,00,00,C1,
-1621841256047146,000000D9,false,Rx,0,8,76,F6,00,10,00,F0,7F,C0,
-1621841256047018,000000AC,false,Rx,0,2,00,F0,00,00,00,00,00,00,
-1621841256046762,000000F3,false,Rx,0,8,58,06,00,FF,F0,C0,FF,FF,
-1621841256027391,000000A5,false,Rx,0,8,67,F7,FF,F7,7F,00,00,C1,
-1621841256027178,000000D9,false,Rx,0,8,2B,F7,00,10,00,F0,7F,C0,
-1621841256027007,000000AC,false,Rx,0,2,00,F0,00,00,00,00,00,00,
-1621841256026794,000000F3,false,Rx,0,8,05,07,00,FF,F0,C0,FF,FF,
-1621841256022271,00000592,false,Rx,0,8,80,10,11,10,A9,4A,81,12,
-1621841256012330,00000592,false,Rx,0,8,80,21,9E,16,F1,65,41,0D,
-1621841256007381,000000A5,false,Rx,0,8,3B,F8,FF,F7,7F,00,00,C1,
-1621841256007125,000000D9,false,Rx,0,8,77,F8,00,10,00,F0,7F,C0,
-1621841256006997,000000AC,false,Rx,0,2,00,F0,00,00,00,00,00,00,
-1621841256006784,000000F3,false,Rx,0,8,59,08,00,FF,F0,C0,FF,FF,
-1621841256002304,00000592,false,Rx,0,8,80,22,BB,FB,D3,3E,B4,54,
-1621841255987413,000000A5,false,Rx,0,8,66,F9,FF,F7,7F,00,00,C1,
-1621841255987157,000000D9,false,Rx,0,8,2A,F9,00,10,00,F0,7F,C0,
-1621841255987029,000000AC,false,Rx,0,2,00,F0,00,00,00,00,00,00,
-1621841255986773,000000F3,false,Rx,0,8,04,09,00,FF,F0,C0,FF,FF,
-1621841255982208,00000512,false,Rx,0,8,00,00,00,00,00,00,00,12,
-1621841255967403,000002C4,false,Rx,0,8,00,00,FF,00,C8,64,FF,CF,
-1621841255967147,000000A5,false,Rx,0,8,81,FA,FF,F7,7F,00,00,C1,
-1621841255967019,000000AC,false,Rx,0,2,00,F0,00,00,00,00,00,00,
-1621841255966763,000000D9,false,Rx,0,8,CD,FA,00,10,00,F0,7F,C0,
-1621841255966550,000000F3,false,Rx,0,8,E3,0A,00,FF,F0,C0,FF,FF,
-1621841255966336,00000304,false,Rx,0,6,FF,FF,FF,FF,FF,FF,00,00,
-1621841255947393,000000A5,false,Rx,0,8,DC,FB,FF,F7,7F,00,00,C1,
-1621841255947179,000000D9,false,Rx,0,8,90,FB,00,10,00,F0,7F,C0,
-1621841255947051,000000AC,false,Rx,0,2,00,F0,00,00,00,00,00,00,
-1621841255946795,000000F3,false,Rx,0,8,BE,0B,00,FF,F0,C0,FF,FF,
-1621841255927382,000000A5,false,Rx,0,8,52,FC,FF,F7,7F,00,00,C1,
-1621841255927126,000000D9,false,Rx,0,8,1E,FC,00,10,00,F0,7F,C0,
-1621841255926998,000000AC,false,Rx,0,2,00,F0,00,00,00,00,00,00,
-1621841255926785,000000F3,false,Rx,0,8,30,0C,00,FF,F0,C0,FF,FF,
-1621841255907414,000000A5,false,Rx,0,8,0F,FD,FF,F7,7F,00,00,C1,
-1621841255907158,000000D9,false,Rx,0,8,43,FD,00,10,00,F0,7F,C0,
-1621841255907030,000000AC,false,Rx,0,2,00,F0,00,00,00,00,00,00,
-1621841255906774,000000F3,false,Rx,0,8,6D,0D,00,FF,F0,C0,FF,FF,
-1621841255887404,000000A5,false,Rx,0,8,E8,FE,FF,F7,7F,00,00,C1,
-1621841255887148,000000D9,false,Rx,0,8,A4,FE,00,10,00,F0,7F,C0,
-1621841255887020,000000AC,false,Rx,0,2,00,F0,00,00,00,00,00,00,
-1621841255886764,000000F3,false,Rx,0,8,8A,0E,00,FF,F0,C0,FF,FF,
-1621841255867436,000002C4,false,Rx,0,8,00,00,FF,00,C8,64,FF,CF,
-1621841255867180,000000A5,false,Rx,0,8,E9,F0,FF,F7,7F,00,00,C1,
-1621841255867052,000000AC,false,Rx,0,2,00,F0,00,00,00,00,00,00,
-1621841255866796,000000D9,false,Rx,0,8,A5,F0,00,10,00,F0,7F,C0,
-1621841255866583,000000F3,false,Rx,0,8,8B,00,00,FF,F0,C0,FF,FF,
-1621841255847383,000000A5,false,Rx,0,8,B4,F1,FF,F7,7F,00,00,C1,
-1621841255847127,000000D9,false,Rx,0,8,F8,F1,00,10,00,F0,7F,C0,
-1621841255846999,000000AC,false,Rx,0,2,00,F0,00,00,00,00,00,00,
-1621841255846786,000000F3,false,Rx,0,8,D6,01,00,FF,F0,C0,FF,FF,
-1621841255827416,000000A5,false,Rx,0,8,53,F2,FF,F7,7F,00,00,C1,
-1621841255827160,000000D9,false,Rx,0,8,1F,F2,00,10,00,F0,7F,C0,
-1621841255827032,000000AC,false,Rx,0,2,00,F0,00,00,00,00,00,00,
-1621841255826776,000000F3,false,Rx,0,8,31,02,00,FF,F0,C0,FF,FF,
-1621841255807405,000000A5,false,Rx,0,8,0E,F3,FF,F7,7F,00,00,C1,
-1621841255807149,000000D9,false,Rx,0,8,42,F3,00,10,00,F0,7F,C0,
-1621841255807021,000000AC,false,Rx,0,2,00,F0,00,00,00,00,00,00,
-1621841255806765,000000F3,false,Rx,0,8,6C,03,00,FF,F0,C0,FF,FF,
-1621841255787395,000000A5,false,Rx,0,8,80,F4,FF,F7,7F,00,00,C1,
-1621841255787182,000000D9,false,Rx,0,8,CC,F4,00,10,00,F0,7F,C0,
-1621841255787054,000000AC,false,Rx,0,2,00,F0,00,00,00,00,00,00,
-1621841255786798,000000F3,false,Rx,0,8,E2,04,00,FF,F0,C0,FF,FF,
-1621841255767385,000002C4,false,Rx,0,8,00,00,FF,00,C8,64,FF,CF,
-1621841255767171,000000A5,false,Rx,0,8,DD,F5,FF,F7,7F,00,00,C1,
-1621841255767043,000000AC,false,Rx,0,2,00,F0,00,00,00,00,00,00,
-1621841255766787,000000D9,false,Rx,0,8,91,F5,00,10,00,F0,7F,C0,
-1621841255766531,000000F3,false,Rx,0,8,BF,05,00,FF,F0,C0,FF,FF,
-1621841255766318,00000304,false,Rx,0,6,FF,FF,FF,FF,FF,FF,00,00,
-1621841255747417,000000A5,false,Rx,0,8,3A,F6,FF,F7,7F,00,00,C1,
-1621841255747161,000000D9,false,Rx,0,8,76,F6,00,10,00,F0,7F,C0,
-1621841255747033,000000AC,false,Rx,0,2,00,F0,00,00,00,00,00,00,
-1621841255746777,000000F3,false,Rx,0,8,58,06,00,FF,F0,C0,FF,FF,
-1621841255727407,000000A5,false,Rx,0,8,67,F7,FF,F7,7F,00,00,C1,
-1621841255727151,000000D9,false,Rx,0,8,2B,F7,00,10,00,F0,7F,C0,
-1621841255727023,000000AC,false,Rx,0,2,00,F0,00,00,00,00,00,00,
-1621841255726767,000000F3,false,Rx,0,8,05,07,00,FF,F0,C0,FF,FF,
-1621841255707396,000000A5,false,Rx,0,8,3B,F8,FF,F7,7F,00,00,C1,
-1621841255707183,000000D9,false,Rx,0,8,77,F8,00,10,00,F0,7F,C0,
-1621841255707012,000000AC,false,Rx,0,2,00,F0,00,00,00,00,00,00,
-1621841255706799,000000F3,false,Rx,0,8,59,08,00,FF,F0,C0,FF,FF,
-1621841255687386,000000A5,false,Rx,0,8,66,F9,FF,F7,7F,00,00,C1,
-1621841255687130,000000D9,false,Rx,0,8,2A,F9,00,10,00,F0,7F,C0,
-1621841255687002,000000AC,false,Rx,0,2,00,F0,00,00,00,00,00,00,
-1621841255686789,000000F3,false,Rx,0,8,04,09,00,FF,F0,C0,FF,FF,
-1621841255667418,000002C4,false,Rx,0,8,00,00,FF,00,C8,64,FF,CF,
-1621841255667205,000000A5,false,Rx,0,8,81,FA,FF,F7,7F,00,00,C1,
-1621841255667034,000000AC,false,Rx,0,2,00,F0,00,00,00,00,00,00,
-1621841255666821,000000D9,false,Rx,0,8,CD,FA,00,10,00,F0,7F,C0,
-1621841255666565,000000F3,false,Rx,0,8,E3,0A,00,FF,F0,C0,FF,FF,
-1621841255647408,000000A5,false,Rx,0,8,DC,FB,FF,F7,7F,00,00,C1,
-1621841255647152,000000D9,false,Rx,0,8,90,FB,00,10,00,F0,7F,C0,
-1621841255647024,000000AC,false,Rx,0,2,00,F0,00,00,00,00,00,00,
-1621841255646768,000000F3,false,Rx,0,8,BE,0B,00,FF,F0,C0,FF,FF,
-1621841255627398,000000A5,false,Rx,0,8,52,FC,FF,F7,7F,00,00,C1,
-1621841255627142,000000D9,false,Rx,0,8,1E,FC,00,10,00,F0,7F,C0,
-1621841255627014,000000AC,false,Rx,0,2,00,F0,00,00,00,00,00,00,
-1621841255626800,000000F3,false,Rx,0,8,30,0C,00,FF,F0,C0,FF,FF,
-1621841255607387,000000A5,false,Rx,0,8,0F,FD,FF,F7,7F,00,00,C1,
-1621841255607131,000000D9,false,Rx,0,8,43,FD,00,10,00,F0,7F,C0,
-1621841255607003,000000AC,false,Rx,0,2,00,F0,00,00,00,00,00,00,
-1621841255606790,000000F3,false,Rx,0,8,6D,0D,00,FF,F0,C0,FF,FF,
-1621841255587419,000000A5,false,Rx,0,8,E8,FE,FF,F7,7F,00,00,C1,
-1621841255587163,000000D9,false,Rx,0,8,A4,FE,00,10,00,F0,7F,C0,
-1621841255587035,000000AC,false,Rx,0,2,00,F0,00,00,00,00,00,00,
-1621841255586779,000000F3,false,Rx,0,8,8A,0E,00,FF,F0,C0,FF,FF,
-1621841255567409,000002C4,false,Rx,0,8,00,00,FF,00,C8,64,FF,CF,
-1621841255567153,000000A5,false,Rx,0,8,E9,F0,FF,F7,7F,00,00,C1,
-1621841255567025,000000AC,false,Rx,0,2,00,F0,00,00,00,00,00,00,
-1621841255566769,000000D9,false,Rx,0,8,A5,F0,00,10,00,F0,7F,C0,
-1621841255566556,000000F3,false,Rx,0,8,8B,00,00,FF,F0,C0,FF,FF,
-1621841255566342,00000304,false,Rx,0,6,FF,FF,FF,FF,FF,FF,00,00,
-1621841255566086,000003F9,false,Rx,0,8,01,F4,80,C0,A6,30,C0,FF,
-1621841255547385,000000A5,false,Rx,0,8,B4,F1,FF,F7,7F,00,00,C1,
-1621841255547171,000000D9,false,Rx,0,8,F8,F1,00,10,00,F0,7F,C0,
-1621841255547001,000000AC,false,Rx,0,2,00,F0,00,00,00,00,00,00,
-1621841255546787,000000F3,false,Rx,0,8,D6,01,00,FF,F0,C0,FF,FF,
-1621841255532409,000001D0,false,Rx,0,8,05,F4,DF,FF,FF,FF,FF,FF,
-1621841255532238,000001B9,false,Rx,0,5,FF,FF,FF,02,FF,00,00,00,
-1621841255527374,000000A5,false,Rx,0,8,53,F2,FF,F7,7F,00,00,C1,
-1621841255527118,000000D9,false,Rx,0,8,1F,F2,00,10,00,F0,7F,C0,
-1621841255526990,000000AC,false,Rx,0,2,00,F0,00,00,00,00,00,00,
-1621841255526777,000000F3,false,Rx,0,8,31,02,00,FF,F0,C0,FF,FF,
-1621841255522254,00000592,false,Rx,0,8,80,10,11,10,8B,E3,E3,B0,
-1621841255512313,00000592,false,Rx,0,8,80,21,41,85,E6,E6,26,C6,
-1621841255507407,000000A5,false,Rx,0,8,0E,F3,FF,F7,7F,00,00,C1,
-1621841255507151,000000D9,false,Rx,0,8,42,F3,00,10,00,F0,7F,C0,
-1621841255507023,000000AC,false,Rx,0,2,00,F0,00,00,00,00,00,00,
-1621841255506767,000000F3,false,Rx,0,8,6C,03,00,FF,F0,C0,FF,FF,
-1621841255502287,00000592,false,Rx,0,8,80,22,3C,69,F1,42,53,16,
-1621841255487396,000000A5,false,Rx,0,8,80,F4,FF,F7,7F,00,00,C1,
-1621841255487140,000000D9,false,Rx,0,8,CC,F4,00,10,00,F0,7F,C0,
-1621841255487012,000000AC,false,Rx,0,2,00,F0,00,00,00,00,00,00,
-1621841255486756,000000F3,false,Rx,0,8,E2,04,00,FF,F0,C0,FF,FF,
-1621841255467429,000002C4,false,Rx,0,8,00,00,FF,00,C8,64,FF,CF,
-1621841255467173,000000A5,false,Rx,0,8,DD,F5,FF,F7,7F,00,00,C1,
-1621841255467045,000000AC,false,Rx,0,2,00,F0,00,00,00,00,00,00,
-1621841255466789,000000D9,false,Rx,0,8,91,F5,00,10,00,F0,7F,C0,
-1621841255466575,000000F3,false,Rx,0,8,BF,05,00,FF,F0,C0,FF,FF,
-1621841255447376,000000A5,false,Rx,0,8,3A,F6,FF,F7,7F,00,00,C1,
-1621841255447120,000000D9,false,Rx,0,8,76,F6,00,10,00,F0,7F,C0,
-1621841255446992,000000AC,false,Rx,0,2,00,F0,00,00,00,00,00,00,
-1621841255446778,000000F3,false,Rx,0,8,58,06,00,FF,F0,C0,FF,FF,
-1621841255427408,000000A5,false,Rx,0,8,67,F7,FF,F7,7F,00,00,C1,
-1621841255427152,000000D9,false,Rx,0,8,2B,F7,00,10,00,F0,7F,C0,
-1621841255427024,000000AC,false,Rx,0,2,00,F0,00,00,00,00,00,00,
-1621841255426768,000000F3,false,Rx,0,8,05,07,00,FF,F0,C0,FF,FF,
-1621841255407355,000000A5,false,Rx,0,8,3B,F8,FF,F7,7F,00,00,C1,
-1621841255407142,000000D9,false,Rx,0,8,77,F8,00,10,00,F0,7F,C0,
-1621841255407014,000000AC,false,Rx,0,2,00,F0,00,00,00,00,00,00,
-1621841255406758,000000F3,false,Rx,0,8,59,08,00,FF,F0,C0,FF,FF,
-1621841255387387,000000A5,false,Rx,0,8,66,F9,FF,F7,7F,00,00,C1,
-1621841255387131,000000D9,false,Rx,0,8,2A,F9,00,10,00,F0,7F,C0,
-1621841255387003,000000AC,false,Rx,0,2,00,F0,00,00,00,00,00,00,
-1621841255386790,000000F3,false,Rx,0,8,04,09,00,FF,F0,C0,FF,FF,
-1621841255367377,000002C4,false,Rx,0,8,00,00,FF,00,C8,64,FF,CF,
-1621841255367121,000000A5,false,Rx,0,8,81,FA,FF,F7,7F,00,00,C1,
-1621841255366993,000000AC,false,Rx,0,2,00,F0,00,00,00,00,00,00,
-1621841255366780,000000D9,false,Rx,0,8,CD,FA,00,10,00,F0,7F,C0,
-1621841255366524,000000F3,false,Rx,0,8,E3,0A,00,FF,F0,C0,FF,FF,
-1621841255366310,00000304,false,Rx,0,6,FF,FF,FF,FF,FF,FF,00,00,
-1621841255347409,000000A5,false,Rx,0,8,DC,FB,FF,F7,7F,00,00,C1,
-1621841255347153,000000D9,false,Rx,0,8,90,FB,00,10,00,F0,7F,C0,
-1621841255347025,000000AC,false,Rx,0,2,00,F0,00,00,00,00,00,00,
-1621841255346769,000000F3,false,Rx,0,8,BE,0B,00,FF,F0,C0,FF,FF,
-1621841255342204,00000512,false,Rx,0,8,00,00,00,00,00,00,00,12,
-1621841255327356,000000A5,false,Rx,0,8,52,FC,FF,F7,7F,00,00,C1,
-1621841255327143,000000D9,false,Rx,0,8,1E,FC,00,10,00,F0,7F,C0,
-1621841255327015,000000AC,false,Rx,0,2,00,F0,00,00,00,00,00,00,
-1621841255326759,000000F3,false,Rx,0,8,30,0C,00,FF,F0,C0,FF,FF,
-1621841255307389,000000A5,false,Rx,0,8,0F,FD,FF,F7,7F,00,00,C1,
-1621841255307133,000000D9,false,Rx,0,8,43,FD,00,10,00,F0,7F,C0,
-1621841255307005,000000AC,false,Rx,0,2,00,F0,00,00,00,00,00,00,
-1621841255306791,000000F3,false,Rx,0,8,6D,0D,00,FF,F0,C0,FF,FF,
-1621841255287378,000000A5,false,Rx,0,8,E8,FE,FF,F7,7F,00,00,C1,
-1621841255287122,000000D9,false,Rx,0,8,A4,FE,00,10,00,F0,7F,C0,
-1621841255286994,000000AC,false,Rx,0,2,00,F0,00,00,00,00,00,00,
-1621841255286781,000000F3,false,Rx,0,8,8A,0E,00,FF,F0,C0,FF,FF,
-1621841255267410,000002C4,false,Rx,0,8,00,00,FF,00,C8,64,FF,CF,
-1621841255267154,000000A5,false,Rx,0,8,E9,F0,FF,F7,7F,00,00,C1,
-1621841255267026,000000AC,false,Rx,0,2,00,F0,00,00,00,00,00,00,
-1621841255266813,000000D9,false,Rx,0,8,A5,F0,00,10,00,F0,7F,C0,
-1621841255266557,000000F3,false,Rx,0,8,8B,00,00,FF,F0,C0,FF,FF,
-1621841255247357,000000A5,false,Rx,0,8,B4,F1,FF,F7,7F,00,00,C1,
-1621841255247144,000000D9,false,Rx,0,8,F8,F1,00,10,00,F0,7F,C0,
-1621841255247016,000000AC,false,Rx,0,2,00,F0,00,00,00,00,00,00,
-1621841255246760,000000F3,false,Rx,0,8,D6,01,00,FF,F0,C0,FF,FF,
-1621841255227390,000000A5,false,Rx,0,8,53,F2,FF,F7,7F,00,00,C1,
-1621841255227134,000000D9,false,Rx,0,8,1F,F2,00,10,00,F0,7F,C0,
-1621841255227006,000000AC,false,Rx,0,2,00,F0,00,00,00,00,00,00,
-1621841255226792,000000F3,false,Rx,0,8,31,02,00,FF,F0,C0,FF,FF,
-1621841255207379,000000A5,false,Rx,0,8,0E,F3,FF,F7,7F,00,00,C1,
-1621841255207123,000000D9,false,Rx,0,8,42,F3,00,10,00,F0,7F,C0,
-1621841255206995,000000AC,false,Rx,0,2,00,F0,00,00,00,00,00,00,
-1621841255206782,000000F3,false,Rx,0,8,6C,03,00,FF,F0,C0,FF,FF,
-1621841255187412,000000A5,false,Rx,0,8,80,F4,FF,F7,7F,00,00,C1,
-1621841255187156,000000D9,false,Rx,0,8,CC,F4,00,10,00,F0,7F,C0,
-1621841255187028,000000AC,false,Rx,0,2,00,F0,00,00,00,00,00,00,
-1621841255186772,000000F3,false,Rx,0,8,E2,04,00,FF,F0,C0,FF,FF,
-1621841255167401,000002C4,false,Rx,0,8,00,00,FF,00,C8,64,FF,CF,
-1621841255167145,000000A5,false,Rx,0,8,DD,F5,FF,F7,7F,00,00,C1,
-1621841255167017,000000AC,false,Rx,0,2,00,F0,00,00,00,00,00,00,
-1621841255166761,000000D9,false,Rx,0,8,91,F5,00,10,00,F0,7F,C0,
-1621841255166548,000000F3,false,Rx,0,8,BF,05,00,FF,F0,C0,FF,FF,
-1621841255166335,00000304,false,Rx,0,6,FF,FF,FF,FF,FF,FF,00,00,
-1621841255147391,000000A5,false,Rx,0,8,3A,F6,FF,F7,7F,00,00,C1,
-1621841255147135,000000D9,false,Rx,0,8,76,F6,00,10,00,F0,7F,C0,
-1621841255147007,000000AC,false,Rx,0,2,00,F0,00,00,00,00,00,00,
-1621841255146794,000000F3,false,Rx,0,8,58,06,00,FF,F0,C0,FF,FF,
-1621841255127381,000000A5,false,Rx,0,8,67,F7,FF,F7,7F,00,00,C1,
-1621841255127125,000000D9,false,Rx,0,8,2B,F7,00,10,00,F0,7F,C0,
-1621841255126997,000000AC,false,Rx,0,2,00,F0,00,00,00,00,00,00,
-1621841255126741,000000F3,false,Rx,0,8,05,07,00,FF,F0,C0,FF,FF,
-1621841255107413,000000A5,false,Rx,0,8,3B,F8,FF,F7,7F,00,00,C1,
-1621841255107157,000000D9,false,Rx,0,8,77,F8,00,10,00,F0,7F,C0,
-1621841255107029,000000AC,false,Rx,0,2,00,F0,00,00,00,00,00,00,
-1621841255106773,000000F3,false,Rx,0,8,59,08,00,FF,F0,C0,FF,FF,
-1621841255087360,000000A5,false,Rx,0,8,66,F9,FF,F7,7F,00,00,C1,
-1621841255087147,000000D9,false,Rx,0,8,2A,F9,00,10,00,F0,7F,C0,
-1621841255087019,000000AC,false,Rx,0,2,00,F0,00,00,00,00,00,00,
-1621841255086763,000000F3,false,Rx,0,8,04,09,00,FF,F0,C0,FF,FF,
-1621841255067435,000002C4,false,Rx,0,8,00,00,FF,00,C8,64,FF,CF,
-1621841255067179,000000A5,false,Rx,0,8,81,FA,FF,F7,7F,00,00,C1,
-1621841255067051,000000AC,false,Rx,0,2,00,F0,00,00,00,00,00,00,
-1621841255066795,000000D9,false,Rx,0,8,CD,FA,00,10,00,F0,7F,C0,
-1621841255066582,000000F3,false,Rx,0,8,E3,0A,00,FF,F0,C0,FF,FF,
-1621841255047382,000000A5,false,Rx,0,8,DC,FB,FF,F7,7F,00,00,C1,
-1621841255047126,000000D9,false,Rx,0,8,90,FB,00,10,00,F0,7F,C0,
-1621841255046998,000000AC,false,Rx,0,2,00,F0,00,00,00,00,00,00,
-1621841255046785,000000F3,false,Rx,0,8,BE,0B,00,FF,F0,C0,FF,FF,
-1621841255027414,000000A5,false,Rx,0,8,52,FC,FF,F7,7F,00,00,C1,
-1621841255027158,000000D9,false,Rx,0,8,1E,FC,00,10,00,F0,7F,C0,
-1621841255027030,000000AC,false,Rx,0,2,00,F0,00,00,00,00,00,00,
-1621841255026774,000000F3,false,Rx,0,8,30,0C,00,FF,F0,C0,FF,FF,
-1621841255017260,00000592,false,Rx,0,8,80,10,11,10,3E,5A,3E,7D,
-1621841255007361,000000A5,false,Rx,0,8,0F,FD,FF,F7,7F,00,00,C1,
-1621841255007148,000000D9,false,Rx,0,8,43,FD,00,10,00,F0,7F,C0,
-1621841255006977,000000AC,false,Rx,0,2,00,F0,00,00,00,00,00,00,
-1621841255006764,000000F3,false,Rx,0,8,6D,0D,00,FF,F0,C0,FF,FF,
-1621841255006551,00000592,false,Rx,0,8,80,21,14,28,60,25,5E,D4,
-1621841254997292,00000592,false,Rx,0,8,80,22,DF,BB,EE,86,4D,1E,
-1621841254987394,000000A5,false,Rx,0,8,E8,FE,FF,F7,7F,00,00,C1,
-1621841254987138,000000D9,false,Rx,0,8,A4,FE,00,10,00,F0,7F,C0,
-1621841254987010,000000AC,false,Rx,0,2,00,F0,00,00,00,00,00,00,
-1621841254986796,000000F3,false,Rx,0,8,8A,0E,00,FF,F0,C0,FF,FF,
-1621841254967383,000002C4,false,Rx,0,8,00,00,FF,00,C8,64,FF,CF,
-1621841254967127,000000A5,false,Rx,0,8,E9,F0,FF,F7,7F,00,00,C1,
-1621841254966999,000000AC,false,Rx,0,2,00,F0,00,00,00,00,00,00,
-1621841254966743,000000D9,false,Rx,0,8,A5,F0,00,10,00,F0,7F,C0,
-1621841254966530,000000F3,false,Rx,0,8,8B,00,00,FF,F0,C0,FF,FF,
-1621841254966317,00000304,false,Rx,0,6,FF,FF,FF,FF,FF,FF,00,00,
-1621841254947415,000000A5,false,Rx,0,8,B4,F1,FF,F7,7F,00,00,C1,
-1621841254947159,000000D9,false,Rx,0,8,F8,F1,00,10,00,F0,7F,C0,
-1621841254947031,000000AC,false,Rx,0,2,00,F0,00,00,00,00,00,00,
-1621841254946775,000000F3,false,Rx,0,8,D6,01,00,FF,F0,C0,FF,FF,
-1621841254927362,000000A5,false,Rx,0,8,53,F2,FF,F7,7F,00,00,C1,
-1621841254927149,000000D9,false,Rx,0,8,1F,F2,00,10,00,F0,7F,C0,
-1621841254927021,000000AC,false,Rx,0,2,00,F0,00,00,00,00,00,00,
-1621841254926765,000000F3,false,Rx,0,8,31,02,00,FF,F0,C0,FF,FF,
-1621841254907395,000000A5,false,Rx,0,8,0E,F3,FF,F7,7F,00,00,C1,
-1621841254907139,000000D9,false,Rx,0,8,42,F3,00,10,00,F0,7F,C0,
-1621841254907011,000000AC,false,Rx,0,2,00,F0,00,00,00,00,00,00,
-1621841254906797,000000F3,false,Rx,0,8,6C,03,00,FF,F0,C0,FF,FF,
-1621841254887384,000000A5,false,Rx,0,8,80,F4,FF,F7,7F,00,00,C1,
-1621841254887128,000000D9,false,Rx,0,8,CC,F4,00,10,00,F0,7F,C0,
-1621841254887000,000000AC,false,Rx,0,2,00,F0,00,00,00,00,00,00,
-1621841254886787,000000F3,false,Rx,0,8,E2,04,00,FF,F0,C0,FF,FF,
-1621841254867417,000002C4,false,Rx,0,8,00,00,FF,00,C8,64,FF,CF,
-1621841254867161,000000A5,false,Rx,0,8,DD,F5,FF,F7,7F,00,00,C1,
-1621841254867033,000000AC,false,Rx,0,2,00,F0,00,00,00,00,00,00,
-1621841254866819,000000D9,false,Rx,0,8,91,F5,00,10,00,F0,7F,C0,
-1621841254866563,000000F3,false,Rx,0,8,BF,05,00,FF,F0,C0,FF,FF,
-1621841254847364,000000A5,false,Rx,0,8,3A,F6,FF,F7,7F,00,00,C1,
-1621841254847150,000000D9,false,Rx,0,8,76,F6,00,10,00,F0,7F,C0,
-1621841254847022,000000AC,false,Rx,0,2,00,F0,00,00,00,00,00,00,
-1621841254846766,000000F3,false,Rx,0,8,58,06,00,FF,F0,C0,FF,FF,
-1621841254827396,000000A5,false,Rx,0,8,67,F7,FF,F7,7F,00,00,C1,
-1621841254827140,000000D9,false,Rx,0,8,2B,F7,00,10,00,F0,7F,C0,
-1621841254827012,000000AC,false,Rx,0,2,00,F0,00,00,00,00,00,00,
-1621841254826799,000000F3,false,Rx,0,8,05,07,00,FF,F0,C0,FF,FF,
-1621841254807386,000000A5,false,Rx,0,8,3B,F8,FF,F7,7F,00,00,C1,
-1621841254807130,000000D9,false,Rx,0,8,77,F8,00,10,00,F0,7F,C0,
-1621841254807002,000000AC,false,Rx,0,2,00,F0,00,00,00,00,00,00,
-1621841254806746,000000F3,false,Rx,0,8,59,08,00,FF,F0,C0,FF,FF,
-1621841254787418,000000A5,false,Rx,0,8,66,F9,FF,F7,7F,00,00,C1,
-1621841254787162,000000D9,false,Rx,0,8,2A,F9,00,10,00,F0,7F,C0,
-1621841254787034,000000AC,false,Rx,0,2,00,F0,00,00,00,00,00,00,
-1621841254786778,000000F3,false,Rx,0,8,04,09,00,FF,F0,C0,FF,FF,
-1621841254767365,000002C4,false,Rx,0,8,00,00,FF,00,C8,64,FF,CF,
-1621841254767152,000000A5,false,Rx,0,8,81,FA,FF,F7,7F,00,00,C1,
-1621841254767024,000000AC,false,Rx,0,2,00,F0,00,00,00,00,00,00,
-1621841254766768,000000D9,false,Rx,0,8,CD,FA,00,10,00,F0,7F,C0,
-1621841254766512,000000F3,false,Rx,0,8,E3,0A,00,FF,F0,C0,FF,FF,
-1621841254766298,00000304,false,Rx,0,6,FF,FF,FF,FF,FF,FF,00,00,
-1621841254747397,00000592,false,Rx,0,8,26,85,F5,00,FF,FF,FF,FF,
-1621841254747141,000000A5,false,Rx,0,8,DC,FB,FF,F7,7F,00,00,C1,
-1621841254747013,000000AC,false,Rx,0,2,00,F0,00,00,00,00,00,00,
-1621841254746800,000000D9,false,Rx,0,8,90,FB,00,10,00,F0,7F,C0,
-1621841254746544,000000F3,false,Rx,0,8,BE,0B,00,FF,F0,C0,FF,FF,
-1621841254727387,000000A5,false,Rx,0,8,52,FC,FF,F7,7F,00,00,C1,
-1621841254727131,000000D9,false,Rx,0,8,1E,FC,00,10,00,F0,7F,C0,
-1621841254727003,000000AC,false,Rx,0,2,00,F0,00,00,00,00,00,00,
-1621841254726747,000000F3,false,Rx,0,8,30,0C,00,FF,F0,C0,FF,FF,
-1621841254707377,000000A5,false,Rx,0,8,0F,FD,FF,F7,7F,00,00,C1,
-1621841254707163,000000D9,false,Rx,0,8,43,FD,00,10,00,F0,7F,C0,
-1621841254707035,000000AC,false,Rx,0,2,00,F0,00,00,00,00,00,00,
-1621841254706779,000000F3,false,Rx,0,8,6D,0D,00,FF,F0,C0,FF,FF,
-1621841254702214,00000512,false,Rx,0,8,00,00,00,00,00,00,00,12,
-1621841254687366,000000A5,false,Rx,0,8,E8,FE,FF,F7,7F,00,00,C1,
-1621841254687153,000000D9,false,Rx,0,8,A4,FE,00,10,00,F0,7F,C0,
-1621841254687025,000000AC,false,Rx,0,2,00,F0,00,00,00,00,00,00,
-1621841254686769,000000F3,false,Rx,0,8,8A,0E,00,FF,F0,C0,FF,FF,
-1621841254667441,000002C4,false,Rx,0,8,00,00,FF,00,C8,64,FF,CF,
-1621841254667185,000000A5,false,Rx,0,8,E9,F0,FF,F7,7F,00,00,C1,
-1621841254667057,000000AC,false,Rx,0,2,00,F0,00,00,00,00,00,00,
-1621841254666801,000000D9,false,Rx,0,8,A5,F0,00,10,00,F0,7F,C0,
-1621841254666545,000000F3,false,Rx,0,8,8B,00,00,FF,F0,C0,FF,FF,
-1621841254647388,000000A5,false,Rx,0,8,B4,F1,FF,F7,7F,00,00,C1,
-1621841254647132,000000D9,false,Rx,0,8,F8,F1,00,10,00,F0,7F,C0,
-1621841254647004,000000AC,false,Rx,0,2,00,F0,00,00,00,00,00,00,
-1621841254646791,000000F3,false,Rx,0,8,D6,01,00,FF,F0,C0,FF,FF,
-1621841254627378,000000A5,false,Rx,0,8,53,F2,FF,F7,7F,00,00,C1,
-1621841254627164,000000D9,false,Rx,0,8,1F,F2,00,10,00,F0,7F,C0,
-1621841254627036,000000AC,false,Rx,0,2,00,F0,00,00,00,00,00,00,
-1621841254626780,000000F3,false,Rx,0,8,31,02,00,FF,F0,C0,FF,FF,
-1621841254622343,000001B9,false,Rx,0,5,FF,FF,FF,14,FF,00,00,00,
-1621841254607367,000000A5,false,Rx,0,8,0E,F3,FF,F7,7F,00,00,C1,
-1621841254607154,000000D9,false,Rx,0,8,42,F3,00,10,00,F0,7F,C0,
-1621841254607026,000000AC,false,Rx,0,2,00,F0,00,00,00,00,00,00,
-1621841254606770,000000F3,false,Rx,0,8,6C,03,00,FF,F0,C0,FF,FF,
-1621841254587400,000000A5,false,Rx,0,8,80,F4,FF,F7,7F,00,00,C1,
-1621841254587144,000000D9,false,Rx,0,8,CC,F4,00,10,00,F0,7F,C0,
-1621841254587016,000000AC,false,Rx,0,2,00,F0,00,00,00,00,00,00,
-1621841254586802,000000F3,false,Rx,0,8,E2,04,00,FF,F0,C0,FF,FF,
-1621841254567389,000002C4,false,Rx,0,8,00,00,FF,00,C8,64,FF,CF,
-1621841254567133,000000A5,false,Rx,0,8,DD,F5,FF,F7,7F,00,00,C1,
-1621841254567005,000000AC,false,Rx,0,2,00,F0,00,00,00,00,00,00,
-1621841254566792,000000D9,false,Rx,0,8,91,F5,00,10,00,F0,7F,C0,
-1621841254566536,000000F3,false,Rx,0,8,BF,05,00,FF,F0,C0,FF,FF,
-1621841254566323,00000304,false,Rx,0,6,FF,FF,FF,FF,FF,FF,00,00,
-1621841254566067,000003F9,false,Rx,0,8,5C,F5,80,C0,A6,30,C0,FF,
-1621841254547349,000000A5,false,Rx,0,8,3A,F6,FF,F7,7F,00,00,C1,
-1621841254547136,000000D9,false,Rx,0,8,76,F6,00,10,00,F0,7F,C0,
-1621841254547008,000000AC,false,Rx,0,2,00,F0,00,00,00,00,00,00,
-1621841254546752,000000F3,false,Rx,0,8,58,06,00,FF,F0,C0,FF,FF,
-1621841254532373,000001D0,false,Rx,0,8,58,F5,DF,FF,FF,FF,FF,FF,
-1621841254532203,000001B9,false,Rx,0,5,FF,FF,FF,14,FF,00,00,00,
-1621841254527339,000000A5,false,Rx,0,8,67,F7,FF,F7,7F,00,00,C1,
-1621841254527125,000000D9,false,Rx,0,8,2B,F7,00,10,00,F0,7F,C0,
-1621841254526955,000000AC,false,Rx,0,2,00,F0,00,00,00,00,00,00,
-1621841254526741,000000F3,false,Rx,0,8,05,07,00,FF,F0,C0,FF,FF,
-1621841254507371,000000A5,false,Rx,0,8,3B,F8,FF,F7,7F,00,00,C1,
-1621841254507115,000000D9,false,Rx,0,8,77,F8,00,10,00,F0,7F,C0,
-1621841254506987,000000AC,false,Rx,0,2,00,F0,00,00,00,00,00,00,
-1621841254506774,000000F3,false,Rx,0,8,59,08,00,FF,F0,C0,FF,FF,
-1621841254487361,000000A5,false,Rx,0,8,66,F9,FF,F7,7F,00,00,C1,
-1621841254487105,000000D9,false,Rx,0,8,2A,F9,00,10,00,F0,7F,C0,
-1621841254486977,000000AC,false,Rx,0,2,00,F0,00,00,00,00,00,00,
-1621841254486721,000000F3,false,Rx,0,8,04,09,00,FF,F0,C0,FF,FF,
-1621841254467393,000002C4,false,Rx,0,8,00,00,FF,00,C8,64,FF,CF,
-1621841254467137,000000A5,false,Rx,0,8,81,FA,FF,F7,7F,00,00,C1,
-1621841254467009,000000AC,false,Rx,0,2,00,F0,00,00,00,00,00,00,
-1621841254466796,000000D9,false,Rx,0,8,CD,FA,00,10,00,F0,7F,C0,
-1621841254466540,000000F3,false,Rx,0,8,E3,0A,00,FF,F0,C0,FF,FF,
-1621841254447340,000000A5,false,Rx,0,8,DC,FB,FF,F7,7F,00,00,C1,
-1621841254447127,000000D9,false,Rx,0,8,90,FB,00,10,00,F0,7F,C0,
-1621841254446999,000000AC,false,Rx,0,2,00,F0,00,00,00,00,00,00,
-1621841254446743,000000F3,false,Rx,0,8,BE,0B,00,FF,F0,C0,FF,FF,
-1621841254427415,00000592,false,Rx,0,8,0C,15,01,32,14,01,FF,FF,
-1621841254427159,000000A5,false,Rx,0,8,52,FC,FF,F7,7F,00,00,C1,
-1621841254427031,000000AC,false,Rx,0,2,00,F0,00,00,00,00,00,00,
-1621841254426775,000000D9,false,Rx,0,8,1E,FC,00,10,00,F0,7F,C0,
-1621841254426562,000000F3,false,Rx,0,8,30,0C,00,FF,F0,C0,FF,FF,
-1621841254417346,00000592,false,Rx,0,8,26,85,F6,00,FF,FF,FF,FF,
-1621841254407362,000000A5,false,Rx,0,8,0F,FD,FF,F7,7F,00,00,C1,
-1621841254407106,000000D9,false,Rx,0,8,43,FD,00,10,00,F0,7F,C0,
-1621841254406978,000000AC,false,Rx,0,2,00,F0,00,00,00,00,00,00,
-1621841254406722,000000F3,false,Rx,0,8,6D,0D,00,FF,F0,C0,FF,FF,
-1621841254387352,000000A5,false,Rx,0,8,E8,FE,FF,F7,7F,00,00,C1,
-1621841254387138,000000D9,false,Rx,0,8,A4,FE,00,10,00,F0,7F,C0,
-1621841254387010,000000AC,false,Rx,0,2,00,F0,00,00,00,00,00,00,
-1621841254386754,000000F3,false,Rx,0,8,8A,0E,00,FF,F0,C0,FF,FF,
-1621841254367341,000002C4,false,Rx,0,8,00,00,FF,00,C8,64,FF,CF,
-1621841254367128,000000A5,false,Rx,0,8,E9,F0,FF,F7,7F,00,00,C1,
-1621841254367000,000000AC,false,Rx,0,2,00,F0,00,00,00,00,00,00,
-1621841254366744,000000D9,false,Rx,0,8,A5,F0,00,10,00,F0,7F,C0,
-1621841254366488,000000F3,false,Rx,0,8,8B,00,00,FF,F0,C0,FF,FF,
-1621841254366275,00000304,false,Rx,0,6,FF,FF,FF,FF,FF,FF,00,00,
-1621841254347374,000000A5,false,Rx,0,8,B4,F1,FF,F7,7F,00,00,C1,
-1621841254347118,000000D9,false,Rx,0,8,F8,F1,00,10,00,F0,7F,C0,
-1621841254346990,000000AC,false,Rx,0,2,00,F0,00,00,00,00,00,00,
-1621841254346776,000000F3,false,Rx,0,8,D6,01,00,FF,F0,C0,FF,FF,
-1621841254327363,000000A5,false,Rx,0,8,53,F2,FF,F7,7F,00,00,C1,
-1621841254327107,000000D9,false,Rx,0,8,1F,F2,00,10,00,F0,7F,C0,
-1621841254326979,000000AC,false,Rx,0,2,00,F0,00,00,00,00,00,00,
-1621841254326723,000000F3,false,Rx,0,8,31,02,00,FF,F0,C0,FF,FF,
-1621841254307353,000000A5,false,Rx,0,8,0E,F3,FF,F7,7F,00,00,C1,
-1621841254307139,000000D9,false,Rx,0,8,42,F3,00,10,00,F0,7F,C0,
-1621841254307011,000000AC,false,Rx,0,2,00,F0,00,00,00,00,00,00,
-1621841254306755,000000F3,false,Rx,0,8,6C,03,00,FF,F0,C0,FF,FF,
-1621841254287342,000000A5,false,Rx,0,8,80,F4,FF,F7,7F,00,00,C1,
-1621841254287129,000000D9,false,Rx,0,8,CC,F4,00,10,00,F0,7F,C0,
-1621841254287001,000000AC,false,Rx,0,2,00,F0,00,00,00,00,00,00,
-1621841254286745,000000F3,false,Rx,0,8,E2,04,00,FF,F0,C0,FF,FF,
-1621841254267417,00000592,false,Rx,0,8,0C,15,01,32,14,01,FF,FF,
-1621841254267161,000000A5,false,Rx,0,8,DD,F5,FF,F7,7F,00,00,C1,
-1621841254267033,000000AC,false,Rx,0,2,00,F0,00,00,00,00,00,00,
-1621841254266777,000000D9,false,Rx,0,8,91,F5,00,10,00,F0,7F,C0,
-1621841254266564,000000F3,false,Rx,0,8,BF,05,00,FF,F0,C0,FF,FF,
-1621841254266308,000002C4,false,Rx,0,8,00,00,FF,00,C8,64,FF,CF,
-1621841254257348,00000592,false,Rx,0,8,26,85,F6,00,FF,FF,FF,FF,
-1621841254247364,000000A5,false,Rx,0,8,3A,F6,FF,F7,7F,00,00,C1,
-1621841254247108,000000D9,false,Rx,0,8,76,F6,00,10,00,F0,7F,C0,
-1621841254246980,000000AC,false,Rx,0,2,00,F0,00,00,00,00,00,00,
-1621841254246724,000000F3,false,Rx,0,8,58,06,00,FF,F0,C0,FF,FF,
-1621841254227354,000000A5,false,Rx,0,8,67,F7,FF,F7,7F,00,00,C1,
-1621841254227141,000000D9,false,Rx,0,8,2B,F7,00,10,00,F0,7F,C0,
-1621841254227013,000000AC,false,Rx,0,2,00,F0,00,00,00,00,00,00,
-1621841254226757,000000F3,false,Rx,0,8,05,07,00,FF,F0,C0,FF,FF,
-1621841254207344,000000A5,false,Rx,0,8,3B,F8,FF,F7,7F,00,00,C1,
-1621841254207130,000000D9,false,Rx,0,8,77,F8,00,10,00,F0,7F,C0,
-1621841254206960,000000AC,false,Rx,0,2,00,F0,00,00,00,00,00,00,
-1621841254206746,000000F3,false,Rx,0,8,59,08,00,FF,F0,C0,FF,FF,
-1621841254187376,000000A5,false,Rx,0,8,66,F9,FF,F7,7F,00,00,C1,
-1621841254187120,000000D9,false,Rx,0,8,2A,F9,00,10,00,F0,7F,C0,
-1621841254186992,000000AC,false,Rx,0,2,00,F0,00,00,00,00,00,00,
-1621841254186779,000000F3,false,Rx,0,8,04,09,00,FF,F0,C0,FF,FF,
-1621841254167366,000002C4,false,Rx,0,8,00,00,FF,00,C8,64,FF,CF,
-1621841254167110,000000A5,false,Rx,0,8,81,FA,FF,F7,7F,00,00,C1,
-1621841254166982,000000AC,false,Rx,0,2,00,F0,00,00,00,00,00,00,
-1621841254166726,000000D9,false,Rx,0,8,CD,FA,00,10,00,F0,7F,C0,
-1621841254166512,000000F3,false,Rx,0,8,E3,0A,00,FF,F0,C0,FF,FF,
-1621841254166299,00000304,false,Rx,0,6,FF,FF,FF,FF,FF,FF,00,00,
-1621841254147355,000000A5,false,Rx,0,8,DC,FB,FF,F7,7F,00,00,C1,
-1621841254147142,000000D9,false,Rx,0,8,90,FB,00,10,00,F0,7F,C0,
-1621841254147014,000000AC,false,Rx,0,2,00,F0,00,00,00,00,00,00,
-1621841254146758,000000F3,false,Rx,0,8,BE,0B,00,FF,F0,C0,FF,FF,
-1621841254127345,000000A5,false,Rx,0,8,52,FC,FF,F7,7F,00,00,C1,
-1621841254127089,000000D9,false,Rx,0,8,1E,FC,00,10,00,F0,7F,C0,
-1621841254126961,000000AC,false,Rx,0,2,00,F0,00,00,00,00,00,00,
-1621841254126748,000000F3,false,Rx,0,8,30,0C,00,FF,F0,C0,FF,FF,
-1621841254107420,00000592,false,Rx,0,8,0C,15,01,32,14,01,FF,FF,
-1621841254107164,000000A5,false,Rx,0,8,0F,FD,FF,F7,7F,00,00,C1,
-1621841254107036,000000AC,false,Rx,0,2,00,F0,00,00,00,00,00,00,
-1621841254106780,000000D9,false,Rx,0,8,43,FD,00,10,00,F0,7F,C0,
-1621841254106567,000000F3,false,Rx,0,8,6D,0D,00,FF,F0,C0,FF,FF,
-1621841254097351,00000592,false,Rx,0,8,26,85,F6,00,FF,FF,FF,FF,
-1621841254087367,000000A5,false,Rx,0,8,E8,FE,FF,F7,7F,00,00,C1,
-1621841254087111,000000D9,false,Rx,0,8,A4,FE,00,10,00,F0,7F,C0,
-1621841254086983,000000AC,false,Rx,0,2,00,F0,00,00,00,00,00,00,
-1621841254086727,000000F3,false,Rx,0,8,8A,0E,00,FF,F0,C0,FF,FF,
-1621841254067399,000002C4,false,Rx,0,8,00,00,FF,00,C8,64,FF,CF,
-1621841254067143,000000A5,false,Rx,0,8,E9,F0,FF,F7,7F,00,00,C1,
-1621841254067015,000000AC,false,Rx,0,2,00,F0,00,00,00,00,00,00,
-1621841254066759,000000D9,false,Rx,0,8,A5,F0,00,10,00,F0,7F,C0,
-1621841254066546,000000F3,false,Rx,0,8,8B,00,00,FF,F0,C0,FF,FF,
-1621841254047346,000000A5,false,Rx,0,8,B4,F1,FF,F7,7F,00,00,C1,
-1621841254047133,000000D9,false,Rx,0,8,F8,F1,00,10,00,F0,7F,C0,
-1621841254046962,000000AC,false,Rx,0,2,00,F0,00,00,00,00,00,00,
-1621841254046749,000000F3,false,Rx,0,8,D6,01,00,FF,F0,C0,FF,FF,
-1621841254027379,000000A5,false,Rx,0,8,53,F2,FF,F7,7F,00,00,C1,
-1621841254027123,000000D9,false,Rx,0,8,1F,F2,00,10,00,F0,7F,C0,
-1621841254026995,000000AC,false,Rx,0,2,00,F0,00,00,00,00,00,00,
-1621841254026739,000000F3,false,Rx,0,8,31,02,00,FF,F0,C0,FF,FF,
-1621841254007368,000000A5,false,Rx,0,8,0E,F3,FF,F7,7F,00,00,C1,
-1621841254007112,000000D9,false,Rx,0,8,42,F3,00,10,00,F0,7F,C0,
-1621841254006984,000000AC,false,Rx,0,2,00,F0,00,00,00,00,00,00,
-1621841254006728,000000F3,false,Rx,0,8,6C,03,00,FF,F0,C0,FF,FF,
-1621841253987358,000000A5,false,Rx,0,8,80,F4,FF,F7,7F,00,00,C1,
-1621841253987144,000000D9,false,Rx,0,8,CC,F4,00,10,00,F0,7F,C0,
-1621841253987016,000000AC,false,Rx,0,2,00,F0,00,00,00,00,00,00,
-1621841253986760,000000F3,false,Rx,0,8,E2,04,00,FF,F0,C0,FF,FF,
-1621841253967347,000002C4,false,Rx,0,8,00,00,FF,00,C8,64,FF,CF,
-1621841253967134,000000A5,false,Rx,0,8,DD,F5,FF,F7,7F,00,00,C1,
-1621841253967006,000000AC,false,Rx,0,2,00,F0,00,00,00,00,00,00,
-1621841253966750,000000D9,false,Rx,0,8,91,F5,00,10,00,F0,7F,C0,
-1621841253966494,000000F3,false,Rx,0,8,BF,05,00,FF,F0,C0,FF,FF,
-1621841253966281,00000304,false,Rx,0,6,FF,FF,FF,FF,FF,FF,00,00,
-1621841253947380,000000A5,false,Rx,0,8,3A,F6,FF,F7,7F,00,00,C1,
-1621841253947124,000000D9,false,Rx,0,8,76,F6,00,10,00,F0,7F,C0,
-1621841253946996,000000AC,false,Rx,0,2,00,F0,00,00,00,00,00,00,
-1621841253946740,000000F3,false,Rx,0,8,58,06,00,FF,F0,C0,FF,FF,
-1621841253927369,000000A5,false,Rx,0,8,67,F7,FF,F7,7F,00,00,C1,
-1621841253927113,000000D9,false,Rx,0,8,2B,F7,00,10,00,F0,7F,C0,
-1621841253926985,000000AC,false,Rx,0,2,00,F0,00,00,00,00,00,00,
-1621841253926729,000000F3,false,Rx,0,8,05,07,00,FF,F0,C0,FF,FF,
-1621841253907359,000000A5,false,Rx,0,8,3B,F8,FF,F7,7F,00,00,C1,
-1621841253907146,000000D9,false,Rx,0,8,77,F8,00,10,00,F0,7F,C0,
-1621841253906975,000000AC,false,Rx,0,2,00,F0,00,00,00,00,00,00,
-1621841253906762,000000F3,false,Rx,0,8,59,08,00,FF,F0,C0,FF,FF,
-1621841253887349,000000A5,false,Rx,0,8,66,F9,FF,F7,7F,00,00,C1,
-1621841253887093,000000D9,false,Rx,0,8,2A,F9,00,10,00,F0,7F,C0,
-1621841253886965,000000AC,false,Rx,0,2,00,F0,00,00,00,00,00,00,
-1621841253886751,000000F3,false,Rx,0,8,04,09,00,FF,F0,C0,FF,FF,
-1621841253867381,000002C4,false,Rx,0,8,00,00,FF,00,C8,64,FF,CF,
-1621841253867168,000000A5,false,Rx,0,8,81,FA,FF,F7,7F,00,00,C1,
-1621841253867040,000000AC,false,Rx,0,2,00,F0,00,00,00,00,00,00,
-1621841253866784,000000D9,false,Rx,0,8,CD,FA,00,10,00,F0,7F,C0,
-1621841253866528,000000F3,false,Rx,0,8,E3,0A,00,FF,F0,C0,FF,FF,
-1621841253847371,000000A5,false,Rx,0,8,DC,FB,FF,F7,7F,00,00,C1,
-1621841253847115,000000D9,false,Rx,0,8,90,FB,00,10,00,F0,7F,C0,
-1621841253846987,000000AC,false,Rx,0,2,00,F0,00,00,00,00,00,00,
-1621841253846731,000000F3,false,Rx,0,8,BE,0B,00,FF,F0,C0,FF,FF,
-1621841253827360,000000A5,false,Rx,0,8,52,FC,FF,F7,7F,00,00,C1,
-1621841253827147,000000D9,false,Rx,0,8,1E,FC,00,10,00,F0,7F,C0,
-1621841253826976,000000AC,false,Rx,0,2,00,F0,00,00,00,00,00,00,
-1621841253826763,000000F3,false,Rx,0,8,30,0C,00,FF,F0,C0,FF,FF,
-1621841253807350,000000A5,false,Rx,0,8,0F,FD,FF,F7,7F,00,00,C1,
-1621841253807094,000000D9,false,Rx,0,8,43,FD,00,10,00,F0,7F,C0,
-1621841253806966,000000AC,false,Rx,0,2,00,F0,00,00,00,00,00,00,
-1621841253806753,000000F3,false,Rx,0,8,6D,0D,00,FF,F0,C0,FF,FF,
-1621841253787382,000000A5,false,Rx,0,8,E8,FE,FF,F7,7F,00,00,C1,
-1621841253787126,000000D9,false,Rx,0,8,A4,FE,00,10,00,F0,7F,C0,
-1621841253786998,000000AC,false,Rx,0,2,00,F0,00,00,00,00,00,00,
-1621841253786742,000000F3,false,Rx,0,8,8A,0E,00,FF,F0,C0,FF,FF,
-1621841253767372,000002C4,false,Rx,0,8,00,00,FF,00,C8,64,FF,CF,
-1621841253767116,000000A5,false,Rx,0,8,E9,F0,FF,F7,7F,00,00,C1,
-1621841253766988,000000AC,false,Rx,0,2,00,F0,00,00,00,00,00,00,
-1621841253766732,000000D9,false,Rx,0,8,A5,F0,00,10,00,F0,7F,C0,
-1621841253766519,000000F3,false,Rx,0,8,8B,00,00,FF,F0,C0,FF,FF,
-1621841253766305,00000304,false,Rx,0,6,FF,FF,FF,FF,FF,FF,00,00,
-1621841253747362,000000A5,false,Rx,0,8,B4,F1,FF,F7,7F,00,00,C1,
-1621841253747148,000000D9,false,Rx,0,8,F8,F1,00,10,00,F0,7F,C0,
-1621841253747020,000000AC,false,Rx,0,2,00,F0,00,00,00,00,00,00,
-1621841253746764,000000F3,false,Rx,0,8,D6,01,00,FF,F0,C0,FF,FF,
-1621841253727351,000000A5,false,Rx,0,8,53,F2,FF,F7,7F,00,00,C1,
-1621841253727095,000000D9,false,Rx,0,8,1F,F2,00,10,00,F0,7F,C0,
-1621841253726967,000000AC,false,Rx,0,2,00,F0,00,00,00,00,00,00,
-1621841253726754,000000F3,false,Rx,0,8,31,02,00,FF,F0,C0,FF,FF,
-1621841253707384,000000A5,false,Rx,0,8,0E,F3,FF,F7,7F,00,00,C1,
-1621841253707128,000000D9,false,Rx,0,8,42,F3,00,10,00,F0,7F,C0,
-1621841253707000,000000AC,false,Rx,0,2,00,F0,00,00,00,00,00,00,
-1621841253706744,000000F3,false,Rx,0,8,6C,03,00,FF,F0,C0,FF,FF,
-1621841253687373,000000A5,false,Rx,0,8,80,F4,FF,F7,7F,00,00,C1,
-1621841253687117,000000D9,false,Rx,0,8,CC,F4,00,10,00,F0,7F,C0,
-1621841253686989,000000AC,false,Rx,0,2,00,F0,00,00,00,00,00,00,
-1621841253686733,000000F3,false,Rx,0,8,E2,04,00,FF,F0,C0,FF,FF,
-1621841253667405,000002C4,false,Rx,0,8,00,00,FF,00,C8,64,FF,CF,
-1621841253667149,000000A5,false,Rx,0,8,DD,F5,FF,F7,7F,00,00,C1,
-1621841253667021,000000AC,false,Rx,0,2,00,F0,00,00,00,00,00,00,
-1621841253666765,000000D9,false,Rx,0,8,91,F5,00,10,00,F0,7F,C0,
-1621841253666552,000000F3,false,Rx,0,8,BF,05,00,FF,F0,C0,FF,FF,
-1621841253647352,000000A5,false,Rx,0,8,3A,F6,FF,F7,7F,00,00,C1,
-1621841253647096,000000D9,false,Rx,0,8,76,F6,00,10,00,F0,7F,C0,
-1621841253646968,000000AC,false,Rx,0,2,00,F0,00,00,00,00,00,00,
-1621841253646755,000000F3,false,Rx,0,8,58,06,00,FF,F0,C0,FF,FF,
-1621841253627385,000000A5,false,Rx,0,8,67,F7,FF,F7,7F,00,00,C1,
-1621841253627129,000000D9,false,Rx,0,8,2B,F7,00,10,00,F0,7F,C0,
-1621841253627001,000000AC,false,Rx,0,2,00,F0,00,00,00,00,00,00,
-1621841253626745,000000F3,false,Rx,0,8,05,07,00,FF,F0,C0,FF,FF,
-1621841253607374,000000A5,false,Rx,0,8,3B,F8,FF,F7,7F,00,00,C1,
-1621841253607118,000000D9,false,Rx,0,8,77,F8,00,10,00,F0,7F,C0,
-1621841253606990,000000AC,false,Rx,0,2,00,F0,00,00,00,00,00,00,
