Time Stamp,ID,Extended,Dir,Bus,LEN,D1,D2,D3,D4,D5,D6,D7,D8
-1621841258546081,00000512,false,Rx,0,8,00,00,00,00,00,00,00,12,
-1621841258511309,0000010E,false,Rx,0,8,FE,E7,7F,FF,00,7D,FF,FF,
-1621841258511053,000002E3,false,Rx,0,8,74,F0,FF,FF,FF,FF,FF,FF,
-1621841258510797,000000A5,false,Rx,0,8,08,F0,FF,FF,FF,FF,FF,FF,
-1621841258510584,000000AA,false,Rx,0,8,FF,FC,FF,7E,C0,5D,D0,F7,
-1621841258510328,000002B3,false,Rx,0,8,FF,FF,FF,FF,FF,EF,7F,FF,
-1621841258510072,000003F9,false,Rx,0,8,89,F0,FF,FF,30,30,FF,FF,
-1621841258506318,000003D0,false,Rx,0,2,FE,FF,00,00,00,00,00,00,
-1621841258506104,000003FB,false,Rx,0,6,FF,FF,FF,FF,FF,FF,00,00,
-1621841258505934,0000041D,false,Rx,0,4,FF,F7,7F,FF,00,00,00,00,
-1621841258501283,000000AA,false,Rx,0,8,FF,FC,FF,7E,C0,5D,D0,F7,
-1621841258501027,000000A5,false,Rx,0,8,55,F1,FF,FF,FF,FF,FF,FF,
-1621841258491257,0000010E,false,Rx,0,8,FE,E7,7F,FF,00,7D,FF,FF,
-1621841258491044,000000AA,false,Rx,0,8,FF,FC,FF,7E,C0,5D,D0,F7,
-1621841258490788,000000A5,false,Rx,0,8,B2,F2,FF,FF,FF,FF,FF,FF,
-1621841258481274,000000AA,false,Rx,0,8,FF,FC,FF,7E,C0,5D,D0,F7,
-1621841258481018,000000A5,false,Rx,0,8,EF,F3,FF,FF,FF,FF,FF,FF,
-1621841258471291,0000010E,false,Rx,0,8,FE,E7,7F,FF,00,7D,FF,FF,
-1621841258471077,000000AA,false,Rx,0,8,FF,FC,FF,7E,C0,5D,D0,F7,
-1621841258470821,000000A5,false,Rx,0,8,61,F4,FF,FF,FF,FF,FF,FF,
-1621841258461265,000000AA,false,Rx,0,8,FF,FC,FF,7E,C0,5D,D0,F7,
-1621841258461009,000000A5,false,Rx,0,8,3C,F5,FF,FF,FF,FF,FF,FF,
-1621841258456273,000003FC,false,Rx,0,3,00,FF,FF,00,00,00,00,00,
-1621841258451281,0000010E,false,Rx,0,8,FE,E7,7F,FF,00,7D,FF,FF,
-1621841258451068,000000AA,false,Rx,0,8,FF,FC,FF,7E,C0,5D,D0,F7,
-1621841258450812,000000A5,false,Rx,0,8,DB,F6,FF,FF,FF,FF,FF,FF,
-1621841258446119,00000512,false,Rx,0,8,00,00,00,00,00,00,00,12,
-1621841258442834,00000105,false,Rx,0,8,5E,F1,7F,E0,2E,00,FC,0F,
-1621841258442578,000001D0,false,Rx,0,8,5C,F3,9D,F8,FF,FF,FF,FF,
-1621841258441298,000000AA,false,Rx,0,8,FF,FC,FF,7E,C0,5D,D0,F7,
-1621841258441042,000000A5,false,Rx,0,8,86,F7,FF,FF,FF,FF,FF,FF,
-1621841258440786,0000019E,false,Rx,0,8,0F,00,FF,FF,FF,FF,FF,FF,
-1621841258436306,000003C9,false,Rx,0,8,C7,00,00,0A,6A,00,F1,34,
-1621841258436050,0000019E,false,Rx,0,8,00,00,00,00,00,00,FF,FF,
-1621841258435837,000002B3,false,Rx,0,8,00,08,08,00,0F,E0,7F,00,
-1621841258435581,000003F9,false,Rx,0,8,9C,01,80,C0,A6,30,C0,FF,
-1621841258435367,000003FB,false,Rx,0,6,FF,FF,FF,FF,1F,00,00,00,
-1621841258435239,000003FC,false,Rx,0,3,B1,F9,0F,00,00,00,00,00,
-1621841258434983,00000418,false,Rx,0,8,FF,3C,FF,00,C0,0F,FF,FF,
-1621841258434813,0000041D,false,Rx,0,4,FF,F7,7F,FF,00,00,00,00,
-1621841258432808,00000105,false,Rx,0,8,B9,F2,7F,E0,2E,00,FC,0F,
-1621841258431314,0000010E,false,Rx,0,8,FE,E7,7F,00,00,7D,00,F0,
-1621841258431058,000000AA,false,Rx,0,8,00,FC,00,7D,C0,5D,D0,F7,
-1621841258430802,000000A5,false,Rx,0,8,95,F8,FF,FF,FF,00,00,FF,
-1621841258422824,00000105,false,Rx,0,8,E4,F3,7F,E0,2E,00,FC,0F,
-1621841258421288,000000AA,false,Rx,0,8,00,FC,00,7D,C0,5D,D0,F7,
-1621841258421032,000000A5,false,Rx,0,8,C8,F9,FF,FF,FF,00,00,FF,
-1621841258412798,00000105,false,Rx,0,8,6A,F4,7F,E0,2E,00,FC,0F,
-1621841258411305,0000010E,false,Rx,0,8,FE,E7,7F,00,00,7D,00,F0,
-1621841258411049,000002E3,false,Rx,0,8,A3,01,0F,00,FF,FF,FF,FF,
-1621841258410836,000000A5,false,Rx,0,8,2F,FA,FF,FF,FF,00,00,FF,
-1621841258410580,000000AA,false,Rx,0,8,00,FC,00,7D,C0,5D,D0,F7,
-1621841258410324,000002B3,false,Rx,0,8,00,08,08,00,0F,E0,7F,00,
-1621841258406313,000003C9,false,Rx,0,8,C7,00,00,0A,6A,00,F1,34,
-1621841258406057,00000418,false,Rx,0,8,FF,3C,FF,00,C0,0F,FF,FF,
-1621841258402815,00000105,false,Rx,0,8,37,F5,7F,E0,2E,00,FC,0F,
-1621841258401279,000000AA,false,Rx,0,8,00,FC,00,7D,C0,5D,D0,F7,
-1621841258401023,000000A5,false,Rx,0,8,72,FB,FF,FF,FF,00,00,FF,
-1621841258392831,00000105,false,Rx,0,8,D0,F6,7F,E0,2E,00,FC,0F,
-1621841258391296,0000010E,false,Rx,0,8,FE,E7,7F,00,00,7D,00,F0,
-1621841258391040,000000AA,false,Rx,0,8,00,FC,00,7D,C0,5D,D0,F7,
-1621841258390826,000000A5,false,Rx,0,8,FC,FC,FF,FF,FF,00,00,FF,
-1621841258382805,00000105,false,Rx,0,8,8D,F7,7F,E0,2E,00,FC,0F,
-1621841258381270,000000AA,false,Rx,0,8,00,FC,00,7D,C0,5D,D0,F7,
-1621841258381014,000000A5,false,Rx,0,8,A1,FD,FF,FF,FF,00,00,FF,
-1621841258372822,00000105,false,Rx,0,8,D1,F8,7F,E0,2E,00,FC,0F,
-1621841258371286,0000010E,false,Rx,0,8,FE,E7,7F,00,00,7D,00,F0,
-1621841258371073,000000AA,false,Rx,0,8,00,FC,00,7D,C0,5D,D0,F7,
-1621841258370817,000000A5,false,Rx,0,8,46,FE,FF,FF,FF,00,00,FF,
-1621841258362796,00000105,false,Rx,0,8,8C,F9,7F,E0,2E,00,FC,0F,
-1621841258361303,000000AA,false,Rx,0,8,00,FC,00,7D,C0,5D,D0,F7,
-1621841258361047,000000A5,false,Rx,0,8,47,F0,FF,FF,FF,00,00,FF,
-1621841258352813,00000105,false,Rx,0,8,6B,FA,7F,E0,2E,00,FC,0F,
-1621841258351319,0000010E,false,Rx,0,8,FE,E7,7F,00,00,7D,00,F0,
-1621841258351063,000000AA,false,Rx,0,8,00,FC,00,7D,C0,5D,D0,F7,
-1621841258350807,000000A5,false,Rx,0,8,1A,F1,FF,FF,FF,00,00,FF,
-1621841258346114,00000512,false,Rx,0,8,00,00,00,00,00,00,00,12,
-1621841258342829,00000105,false,Rx,0,8,36,FB,7F,E0,2E,00,FC,0F,
-1621841258341293,000000AA,false,Rx,0,8,00,FC,00,7D,C0,5D,D0,F7,
-1621841258341037,000000A5,false,Rx,0,8,FD,F2,FF,FF,FF,00,00,FF,
-1621841258332803,00000105,false,Rx,0,8,B8,FC,7F,E0,2E,00,FC,0F,
-1621841258331310,0000010E,false,Rx,0,8,FE,E7,7F,00,00,7D,00,F0,
-1621841258331054,000000AA,false,Rx,0,8,00,FC,00,7D,C0,5D,D0,F7,
-1621841258330798,000000A5,false,Rx,0,8,A0,F3,FF,FF,FF,00,00,FF,
-1621841258322820,00000105,false,Rx,0,8,E5,FD,7F,E0,2E,00,FC,0F,
-1621841258321284,000000AA,false,Rx,0,8,00,FC,00,7D,C0,5D,D0,F7,
-1621841258321028,000000A5,false,Rx,0,8,2E,F4,FF,FF,FF,00,00,FF,
-1621841258312836,00000105,false,Rx,0,8,02,FE,7F,E0,2E,00,FC,0F,
-1621841258311301,0000010E,false,Rx,0,8,FE,E7,7F,00,00,7D,00,F0,
-1621841258311045,000002E3,false,Rx,0,8,44,02,0F,00,FF,FF,FF,FF,
-1621841258310831,000000A5,false,Rx,0,8,73,F5,FF,FF,FF,00,00,FF,
-1621841258310575,000000AA,false,Rx,0,8,00,FC,00,7D,C0,5D,D0,F7,
-1621841258310319,000002B3,false,Rx,0,8,00,08,08,00,0F,E0,7F,00,
-1621841258302810,00000105,false,Rx,0,8,03,F0,7F,E0,2E,00,FC,0F,
-1621841258301275,000000AA,false,Rx,0,8,00,FC,00,7D,C0,5D,D0,F7,
-1621841258301019,000000A5,false,Rx,0,8,94,F6,FF,FF,FF,00,00,FF,
-1621841258292827,00000105,false,Rx,0,8,5E,F1,7F,E0,2E,00,FC,0F,
-1621841258291291,0000010E,false,Rx,0,8,FE,E7,7F,00,00,7D,00,F0,
-1621841258291035,000000AA,false,Rx,0,8,00,FC,00,7D,C0,5D,D0,F7,
-1621841258290822,000000A5,false,Rx,0,8,C9,F7,FF,FF,FF,00,00,FF,
-1621841258282801,00000105,false,Rx,0,8,B9,F2,7F,E0,2E,00,FC,0F,
-1621841258281308,000000AA,false,Rx,0,8,00,FC,00,7D,C0,5D,D0,F7,
-1621841258281052,000000A5,false,Rx,0,8,95,F8,FF,FF,FF,00,00,FF,
-1621841258272818,00000105,false,Rx,0,8,E4,F3,7F,E0,2E,00,FC,0F,
-1621841258271324,0000010E,false,Rx,0,8,FE,E7,7F,00,00,7D,00,F0,
-1621841258271068,000000AA,false,Rx,0,8,00,FC,00,7D,C0,5D,D0,F7,
-1621841258270812,000000A5,false,Rx,0,8,C8,F9,FF,FF,FF,00,00,FF,
-1621841258262834,00000105,false,Rx,0,8,6A,F4,7F,E0,2E,00,FC,0F,
-1621841258261256,000000AA,false,Rx,0,8,00,FC,00,7D,C0,5D,D0,F7,
-1621841258261042,000000A5,false,Rx,0,8,2F,FA,FF,FF,FF,00,00,FF,
-1621841258256264,000002B3,false,Rx,0,8,00,08,08,08,0F,E0,7F,00,
-1621841258252808,00000105,false,Rx,0,8,37,F5,7F,E0,2E,00,FC,0F,
-1621841258251315,0000010E,false,Rx,0,8,C6,E8,7F,00,00,7D,00,F0,
-1621841258251059,000000AA,false,Rx,0,8,00,FC,00,7D,C0,5D,D0,F7,
-1621841258250846,000000A5,false,Rx,0,8,72,FB,FF,FF,FF,00,00,FF,
-1621841258242825,00000105,false,Rx,0,8,D0,F6,7F,E0,2E,00,FC,0F,
-1621841258241289,000000AA,false,Rx,0,8,00,88,00,7D,C0,5D,D0,F7,
-1621841258241076,000000A5,false,Rx,0,8,FC,FC,FF,FF,FF,00,00,FF,
-1621841258232841,00000105,false,Rx,0,8,8D,F7,7F,E0,2E,00,FC,0F,
-1621841258231306,0000010E,false,Rx,0,8,FE,E7,7F,00,00,7D,00,F0,
-1621841258231050,000000AA,false,Rx,0,8,00,88,00,7D,C0,5D,D0,F7,
-1621841258230794,000000A5,false,Rx,0,8,A1,FD,FF,FF,FF,00,00,FF,
-1621841258226271,000002B3,false,Rx,0,8,00,08,08,08,0F,60,81,00,
-1621841258222815,00000105,false,Rx,0,8,D1,F8,7F,E0,2E,00,FC,0F,
-1621841258221280,000000AA,false,Rx,0,8,00,88,00,7D,C0,5D,D0,F7,
-1621841258221024,000000A5,false,Rx,0,8,46,FE,FF,FF,FF,00,00,FF,
-1621841258212832,00000105,false,Rx,0,8,8C,F9,7F,E0,2E,00,FC,0F,
-1621841258211296,0000010E,false,Rx,0,8,FE,E7,7F,00,00,7D,00,F0,
-1621841258211083,000002E3,false,Rx,0,8,19,03,0F,00,FF,FF,FF,FF,
-1621841258210827,000000A5,false,Rx,0,8,47,F0,FF,FF,FF,00,00,FF,
-1621841258210614,000000AA,false,Rx,0,8,00,88,00,7D,C0,5D,D0,F7,
-1621841258210358,000002B3,false,Rx,0,8,00,08,08,08,0F,60,81,00,
-1621841258202806,00000105,false,Rx,0,8,6B,FA,7F,E0,2E,00,FC,0F,
-1621841258201313,000000AA,false,Rx,0,8,00,88,00,7D,C0,5D,D0,F7,
-1621841258201057,000000A5,false,Rx,0,8,1A,F1,FF,FF,FF,00,00,FF,
-1621841258192823,00000105,false,Rx,0,8,36,FB,7F,E0,2E,00,FC,0F,
-1621841258191329,0000010E,false,Rx,0,8,FE,E7,7F,00,00,7D,00,F0,
-1621841258191073,000000AA,false,Rx,0,8,00,88,00,7D,C0,5D,D0,F7,
-1621841258190817,000000A5,false,Rx,0,8,FD,F2,FF,FF,FF,00,00,FF,
-1621841258182839,00000105,false,Rx,0,8,B8,FC,7F,E0,2E,00,FC,0F,
-1621841258181261,000000AA,false,Rx,0,8,00,88,00,7D,C0,5D,D0,F7,
-1621841258181005,000000A5,false,Rx,0,8,A0,F3,FF,FF,FF,00,00,FF,
-1621841258172813,00000105,false,Rx,0,8,E5,FD,7F,E0,2E,00,FC,0F,
-1621841258171320,0000010E,false,Rx,0,8,FE,E7,7F,00,00,7D,00,F0,
-1621841258171064,000000AA,false,Rx,0,8,00,88,00,7D,C0,5D,D0,F7,
-1621841258170851,000000A5,false,Rx,0,8,2E,F4,FF,FF,FF,00,00,FF,
-1621841258162830,00000105,false,Rx,0,8,02,FE,7F,E0,2E,00,FC,0F,
-1621841258161294,000000AA,false,Rx,0,8,00,88,00,7D,C0,5D,D0,F7,
-1621841258161081,000000A5,false,Rx,0,8,73,F5,FF,FF,FF,00,00,FF,
-1621841258152804,00000105,false,Rx,0,8,03,F0,7F,E0,2E,00,FC,0F,
-1621841258151311,0000010E,false,Rx,0,8,FE,E7,7F,00,00,7D,00,F0,
-1621841258151097,000000AA,false,Rx,0,8,00,88,00,7D,C0,5D,D0,F7,
-1621841258150841,000000A5,false,Rx,0,8,94,F6,FF,FF,FF,00,00,FF,
-1621841258142820,00000105,false,Rx,0,8,5E,F1,7F,E0,2E,00,FC,0F,
-1621841258141285,000000AA,false,Rx,0,8,00,88,00,7D,C0,5D,D0,F7,
-1621841258141029,000000A5,false,Rx,0,8,C9,F7,FF,FF,FF,00,00,FF,
-1621841258132837,00000105,false,Rx,0,8,B9,F2,7F,E0,2E,00,FC,0F,
-1621841258131301,0000010E,false,Rx,0,8,FE,E7,7F,00,00,7D,00,F0,
-1621841258131045,000000AA,false,Rx,0,8,00,88,00,7D,C0,5D,D0,F7,
-1621841258130789,000000A5,false,Rx,0,8,95,F8,FF,FF,FF,00,00,FF,
-1621841258122811,00000105,false,Rx,0,8,E4,F3,7F,E0,2E,00,FC,0F,
-1621841258121318,000000AA,false,Rx,0,8,00,88,00,7D,C0,5D,D0,F7,
-1621841258121062,000000A5,false,Rx,0,8,C8,F9,FF,FF,FF,00,00,FF,
-1621841258112828,00000105,false,Rx,0,8,6A,F4,7F,E0,2E,00,FC,0F,
-1621841258111334,0000010E,false,Rx,0,8,FE,E7,7F,00,00,7D,00,F0,
-1621841258111078,000002E3,false,Rx,0,8,97,04,0F,00,FF,FF,FF,FF,
-1621841258110822,000000A5,false,Rx,0,8,2F,FA,FF,FF,FF,00,00,FF,
-1621841258110609,000000AA,false,Rx,0,8,00,88,00,7D,C0,5D,D0,F7,
-1621841258110353,000002B3,false,Rx,0,8,00,08,08,08,0F,60,81,00,
-1621841258102844,00000105,false,Rx,0,8,37,F5,7F,E0,2E,00,FC,0F,
-1621841258101266,000000AA,false,Rx,0,8,00,88,00,7D,C0,5D,D0,F7,
-1621841258101052,000000A5,false,Rx,0,8,72,FB,FF,FF,FF,00,00,FF,
-1621841258092818,00000105,false,Rx,0,8,D0,F6,7F,E0,2E,00,FC,0F,
-1621841258091282,0000010E,false,Rx,0,8,FE,E7,7F,00,00,7D,00,F0,
-1621841258091069,000000AA,false,Rx,0,8,00,88,00,7D,C0,5D,D0,F7,
-1621841258090813,000000A5,false,Rx,0,8,FC,FC,FF,FF,FF,00,00,FF,
-1621841258082835,00000105,false,Rx,0,8,8D,F7,7F,E0,2E,00,FC,0F,
-1621841258081299,000000AA,false,Rx,0,8,00,88,00,7D,C0,5D,D0,F7,
-1621841258081043,000000A5,false,Rx,0,8,A1,FD,FF,FF,FF,00,00,FF,
-1621841258072809,00000105,false,Rx,0,8,D1,F8,7F,E0,2E,00,FC,0F,
-1621841258071316,0000010E,false,Rx,0,8,FE,E7,7F,00,00,7D,00,F0,
-1621841258071102,000000AA,false,Rx,0,8,00,88,00,7D,C0,5D,D0,F7,
-1621841258070846,000000A5,false,Rx,0,8,46,FE,FF,FF,FF,00,00,FF,
-1621841258062825,00000105,false,Rx,0,8,8C,F9,7F,E0,2E,00,FC,0F,
-1621841258061290,000000AA,false,Rx,0,8,00,88,00,7D,C0,5D,D0,F7,
-1621841258061034,000000A5,false,Rx,0,8,47,F0,FF,FF,FF,00,00,FF,
-1621841258052842,00000105,false,Rx,0,8,6B,FA,7F,E0,2E,00,FC,0F,
-1621841258051306,0000010E,false,Rx,0,8,FE,E7,7F,00,00,7D,00,F0,
-1621841258051093,000000AA,false,Rx,0,8,00,88,00,7D,C0,5D,D0,F7,
-1621841258050837,000000A5,false,Rx,0,8,1A,F1,FF,FF,FF,00,00,FF,
-1621841258042816,00000105,false,Rx,0,8,36,FB,7F,E0,2E,00,FC,0F,
-1621841258041323,000000AA,false,Rx,0,8,00,88,00,7D,C0,5D,D0,F7,
-1621841258041067,000000A5,false,Rx,0,8,FD,F2,FF,FF,FF,00,00,FF,
-1621841258032833,00000105,false,Rx,0,8,B8,FC,7F,E0,2E,00,FC,0F,
-1621841258031339,0000010E,false,Rx,0,8,FE,E7,7F,00,00,7D,00,F0,
-1621841258031083,000000AA,false,Rx,0,8,00,88,00,7D,C0,5D,D0,F7,
-1621841258030827,000000A5,false,Rx,0,8,A0,F3,FF,FF,FF,00,00,FF,
-1621841258022849,00000105,false,Rx,0,8,E5,FD,7F,E0,2E,00,FC,0F,
-1621841258021313,000000AA,false,Rx,0,8,00,88,00,7D,C0,5D,D0,F7,
-1621841258021057,000000A5,false,Rx,0,8,2E,F4,FF,FF,FF,00,00,FF,
-1621841258012823,00000105,false,Rx,0,8,02,FE,7F,E0,2E,00,FC,0F,
-1621841258011330,0000010E,false,Rx,0,8,FE,E7,7F,00,00,7D,00,F0,
-1621841258011074,000002E3,false,Rx,0,8,CA,05,0F,00,FF,FF,FF,FF,
-1621841258010861,000000A5,false,Rx,0,8,73,F5,FF,FF,FF,00,00,FF,
-1621841258010605,000000AA,false,Rx,0,8,00,88,00,7D,C0,5D,D0,F7,
-1621841258010349,000002B3,false,Rx,0,8,00,08,08,08,0F,60,81,00,
-1621841258002840,00000105,false,Rx,0,8,03,F0,7F,E0,2E,00,FC,0F,
-1621841258001304,000000AA,false,Rx,0,8,00,88,00,7D,C0,5D,D0,F7,
-1621841258001091,000000A5,false,Rx,0,8,94,F6,FF,FF,FF,00,00,FF,
-1621841257992814,00000105,false,Rx,0,8,5E,F1,7F,E0,2E,00,FC,0F,
-1621841257991321,0000010E,false,Rx,0,8,FE,E7,7F,00,00,7D,00,F0,
-1621841257991107,000000AA,false,Rx,0,8,00,88,00,7D,C0,5D,D0,F7,
-1621841257990851,000000A5,false,Rx,0,8,C9,F7,FF,FF,FF,00,00,FF,
-1621841257982830,00000105,false,Rx,0,8,B9,F2,7F,E0,2E,00,FC,0F,
-1621841257981295,000000AA,false,Rx,0,8,00,88,00,7D,C0,5D,D0,F7,
-1621841257981039,000000A5,false,Rx,0,8,95,F8,FF,FF,FF,00,00,FF,
-1621841257972847,00000105,false,Rx,0,8,E4,F3,7F,E0,2E,00,FC,0F,
-1621841257971311,0000010E,false,Rx,0,8,FE,E7,7F,00,00,7D,00,F0,
-1621841257971098,000000AA,false,Rx,0,8,00,88,00,7D,C0,5D,D0,F7,
-1621841257970842,000000A5,false,Rx,0,8,C8,F9,FF,FF,FF,00,00,FF,
-1621841257962821,00000105,false,Rx,0,8,6A,F4,7F,E0,2E,00,FC,0F,
-1621841257961328,000000AA,false,Rx,0,8,00,88,00,7D,C0,5D,D0,F7,
-1621841257961072,000000A5,false,Rx,0,8,2F,FA,FF,FF,FF,00,00,FF,
-1621841257956336,000003C9,false,Rx,0,8,C7,00,00,0A,94,00,F1,34,
-1621841257952838,00000105,false,Rx,0,8,37,F5,7F,E0,2E,00,FC,0F,
-1621841257951302,0000010E,false,Rx,0,8,FE,E7,7F,00,00,7D,00,F0,
-1621841257951088,000000AA,false,Rx,0,8,00,88,00,7D,C0,5D,D0,F7,
-1621841257950832,000000A5,false,Rx,0,8,72,FB,FF,FF,FF,00,00,FF,
-1621841257942854,00000105,false,Rx,0,8,D0,F6,7F,E0,2E,00,FC,0F,
-1621841257941276,000000AA,false,Rx,0,8,00,88,00,7D,C0,5D,D0,F7,
-1621841257941062,000000A5,false,Rx,0,8,FC,FC,FF,FF,FF,00,00,FF,
-1621841257940806,0000019E,false,Rx,0,8,0F,00,FF,FF,FF,FF,FF,FF,
-1621841257932828,00000105,false,Rx,0,8,8D,F7,7F,E0,2E,00,FC,0F,
-1621841257931292,0000010E,false,Rx,0,8,FE,E7,7F,00,00,7D,00,F0,
-1621841257931079,000000AA,false,Rx,0,8,00,88,00,7D,C0,5D,D0,F7,
-1621841257930823,000000A5,false,Rx,0,8,A1,FD,FF,FF,FF,00,00,FF,
-1621841257922845,00000105,false,Rx,0,8,D1,F8,7F,E0,2E,00,FC,0F,
-1621841257921309,000000AA,false,Rx,0,8,00,88,00,7D,C0,5D,D0,F7,
-1621841257921053,000000A5,false,Rx,0,8,46,FE,FF,FF,FF,00,00,FF,
-1621841257912819,00000105,false,Rx,0,8,8C,F9,7F,E0,2E,00,FC,0F,
-1621841257911326,0000010E,false,Rx,0,8,FE,E7,7F,00,00,7D,00,F0,
-1621841257911070,000002E3,false,Rx,0,8,2D,06,0F,00,FF,FF,FF,FF,
-1621841257910856,000000A5,false,Rx,0,8,47,F0,FF,FF,FF,00,00,FF,
-1621841257910600,000000AA,false,Rx,0,8,00,88,00,7D,C0,5D,D0,F7,
-1621841257910344,000002B3,false,Rx,0,8,00,08,08,08,0F,60,81,00,
-1621841257902835,00000105,false,Rx,0,8,6B,FA,7F,E0,2E,00,FC,0F,
-1621841257901300,000000AA,false,Rx,0,8,00,88,00,7D,C0,5D,D0,F7,
-1621841257901044,000000A5,false,Rx,0,8,1A,F1,FF,FF,FF,00,00,FF,
-1621841257892852,00000105,false,Rx,0,8,36,FB,7F,E0,2E,00,FC,0F,
-1621841257891316,0000010E,false,Rx,0,8,FE,E7,7F,00,00,7D,00,F0,
-1621841257891060,000000AA,false,Rx,0,8,00,88,00,7D,C0,5D,D0,F7,
-1621841257890847,000000A5,false,Rx,0,8,FD,F2,FF,FF,FF,00,00,FF,
-1621841257882826,00000105,false,Rx,0,8,B8,FC,7F,E0,2E,00,FC,0F,
-1621841257881333,000000AA,false,Rx,0,8,00,88,00,7D,C0,5D,D0,F7,
-1621841257881077,000000A5,false,Rx,0,8,A0,F3,FF,FF,FF,00,00,FF,
-1621841257872843,00000105,false,Rx,0,8,E5,FD,7F,E0,2E,00,FC,0F,
-1621841257871349,0000010E,false,Rx,0,8,FE,E7,7F,00,00,7D,00,F0,
-1621841257871093,000000AA,false,Rx,0,8,00,88,00,7D,C0,5D,D0,F7,
-1621841257870837,000000A5,false,Rx,0,8,2E,F4,FF,FF,FF,00,00,FF,
-1621841257862817,00000105,false,Rx,0,8,02,FE,7F,E0,2E,00,FC,0F,
-1621841257861281,000000AA,false,Rx,0,8,00,88,00,7D,C0,5D,D0,F7,
-1621841257861067,000000A5,false,Rx,0,8,73,F5,FF,FF,FF,00,00,FF,
-1621841257852833,00000105,false,Rx,0,8,03,F0,7F,E0,2E,00,FC,0F,
-1621841257851340,0000010E,false,Rx,0,8,FE,E7,7F,00,00,7D,00,F0,
-1621841257851084,000000AA,false,Rx,0,8,00,88,00,7D,C0,5D,D0,F7,
-1621841257850871,000000A5,false,Rx,0,8,94,F6,FF,FF,FF,00,00,FF,
-1621841257842850,00000105,false,Rx,0,8,5E,F1,7F,E0,2E,00,FC,0F,
-1621841257841314,000000AA,false,Rx,0,8,00,88,00,7D,C0,5D,D0,F7,
-1621841257841058,000000A5,false,Rx,0,8,C9,F7,FF,FF,FF,00,00,FF,
-1621841257832824,00000105,false,Rx,0,8,B9,F2,7F,E0,2E,00,FC,0F,
-1621841257831288,0000010E,false,Rx,0,8,FE,E7,7F,00,00,7D,00,F0,
-1621841257831075,000000AA,false,Rx,0,8,00,88,00,7D,C0,5D,D0,F7,
-1621841257830819,000000A5,false,Rx,0,8,95,F8,FF,FF,FF,00,00,FF,
-1621841257822840,00000105,false,Rx,0,8,E4,F3,7F,E0,2E,00,FC,0F,
-1621841257821305,000000AA,false,Rx,0,8,00,88,00,7D,C0,5D,D0,F7,
-1621841257821049,000000A5,false,Rx,0,8,C8,F9,FF,FF,FF,00,00,FF,
-1621841257812857,00000105,false,Rx,0,8,6A,F4,7F,E0,2E,00,FC,0F,
-1621841257811321,0000010E,false,Rx,0,8,FE,E7,7F,00,00,7D,00,F0,
-1621841257811108,000002E3,false,Rx,0,8,70,07,0F,00,FF,FF,FF,FF,
-1621841257810852,000000A5,false,Rx,0,8,2F,FA,FF,FF,FF,00,00,FF,
-1621841257810596,000000AA,false,Rx,0,8,00,88,00,7D,C0,5D,D0,F7,
-1621841257810383,000002B3,false,Rx,0,8,00,08,08,08,0F,60,81,00,
-1621841257802831,00000105,false,Rx,0,8,37,F5,7F,E0,2E,00,FC,0F,
-1621841257801338,000000AA,false,Rx,0,8,00,88,00,7D,C0,5D,D0,F7,
-1621841257801082,000000A5,false,Rx,0,8,72,FB,FF,FF,FF,00,00,FF,
-1621841257792848,00000105,false,Rx,0,8,D0,F6,7F,E0,2E,00,FC,0F,
-1621841257791354,0000010E,false,Rx,0,8,FE,E7,7F,00,00,7D,00,F0,
-1621841257791098,000000AA,false,Rx,0,8,00,88,00,7D,C0,5D,D0,F7,
-1621841257790842,000000A5,false,Rx,0,8,FC,FC,FF,FF,FF,00,00,FF,
-1621841257782835,00000105,false,Rx,0,8,8D,F7,7F,E0,2E,00,FC,0F,
-1621841257781257,000000AA,false,Rx,0,8,00,88,00,7D,C0,5D,D0,F7,
-1621841257781001,000000A5,false,Rx,0,8,A1,FD,FF,FF,FF,00,00,FF,
-1621841257772809,00000105,false,Rx,0,8,D1,F8,7F,E0,2E,00,FC,0F,
-1621841257771316,0000010E,false,Rx,0,8,FE,E7,7F,00,00,7D,00,F0,
-1621841257771060,000000AA,false,Rx,0,8,00,88,00,7D,C0,5D,D0,F7,
-1621841257770847,000000A5,false,Rx,0,8,46,FE,FF,FF,FF,00,00,FF,
-1621841257762826,00000105,false,Rx,0,8,8C,F9,7F,E0,2E,00,FC,0F,
-1621841257761290,000000AA,false,Rx,0,8,00,88,00,7D,C0,5D,D0,F7,
-1621841257761034,000000A5,false,Rx,0,8,47,F0,FF,FF,FF,00,00,FF,
-1621841257752800,00000105,false,Rx,0,8,6B,FA,7F,E0,2E,00,FC,0F,
-1621841257751307,0000010E,false,Rx,0,8,FE,E7,7F,00,00,7D,00,F0,
-1621841257751051,000000AA,false,Rx,0,8,00,88,00,7D,C0,5D,D0,F7,
-1621841257750837,000000A5,false,Rx,0,8,1A,F1,FF,FF,FF,00,00,FF,
-1621841257742816,00000105,false,Rx,0,8,36,FB,7F,E0,2E,00,FC,0F,
-1621841257741281,000000AA,false,Rx,0,8,00,88,00,7D,C0,5D,D0,F7,
-1621841257741025,000000A5,false,Rx,0,8,FD,F2,FF,FF,FF,00,00,FF,
-1621841257732833,00000105,false,Rx,0,8,B8,FC,7F,E0,2E,00,FC,0F,
-1621841257731254,0000010E,false,Rx,0,8,FE,E7,7F,00,00,7D,00,F0,
-1621841257731041,000000AA,false,Rx,0,8,00,88,00,7D,C0,5D,D0,F7,
-1621841257730785,000000A5,false,Rx,0,8,A0,F3,FF,FF,FF,00,00,FF,
-1621841257722807,00000105,false,Rx,0,8,E5,FD,7F,E0,2E,00,FC,0F,
-1621841257721314,000000AA,false,Rx,0,8,00,88,00,7D,C0,5D,D0,F7,
-1621841257721058,000000A5,false,Rx,0,8,2E,F4,FF,FF,FF,00,00,FF,
-1621841257712824,00000105,false,Rx,0,8,02,FE,7F,E0,2E,00,FC,0F,
-1621841257711330,0000010E,false,Rx,0,8,FE,E7,7F,00,00,7D,00,F0,
-1621841257711074,000002E3,false,Rx,0,8,2C,08,0F,00,FF,FF,FF,FF,
-1621841257710818,000000A5,false,Rx,0,8,73,F5,FF,FF,FF,00,00,FF,
-1621841257710605,000000AA,false,Rx,0,8,00,88,00,7D,C0,5D,D0,F7,
-1621841257710349,000002B3,false,Rx,0,8,00,08,08,08,0F,60,81,00,
-1621841257706083,00000512,false,Rx,0,8,00,00,00,00,00,00,00,12,
-1621841257702798,00000105,false,Rx,0,8,03,F0,7F,E0,2E,00,FC,0F,
-1621841257701262,000000AA,false,Rx,0,8,00,88,00,7D,C0,5D,D0,F7,
-1621841257701048,000000A5,false,Rx,0,8,94,F6,FF,FF,FF,00,00,FF,
-1621841257692814,00000105,false,Rx,0,8,5E,F1,7F,E0,2E,00,FC,0F,
-1621841257691278,0000010E,false,Rx,0,8,FE,E7,7F,00,00,7D,00,F0,
-1621841257691065,000000AA,false,Rx,0,8,00,88,00,7D,C0,5D,D0,F7,
-1621841257690809,000000A5,false,Rx,0,8,C9,F7,FF,FF,FF,00,00,FF,
-1621841257682831,00000105,false,Rx,0,8,B9,F2,7F,E0,2E,00,FC,0F,
-1621841257681295,000000AA,false,Rx,0,8,00,88,00,7D,C0,5D,D0,F7,
-1621841257681039,000000A5,false,Rx,0,8,95,F8,FF,FF,FF,00,00,FF,
-1621841257672847,00000105,false,Rx,0,8,E4,F3,7F,E0,2E,00,FC,0F,
-1621841257671312,0000010E,false,Rx,0,8,FE,E7,7F,00,00,7D,00,F0,
-1621841257671056,000000AA,false,Rx,0,8,00,88,00,7D,C0,5D,D0,F7,
-1621841257670842,000000A5,false,Rx,0,8,C8,F9,FF,FF,FF,00,00,FF,
-1621841257662821,00000105,false,Rx,0,8,6A,F4,7F,E0,2E,00,FC,0F,
-1621841257661286,000000AA,false,Rx,0,8,00,88,00,7D,C0,5D,D0,F7,
-1621841257661030,000000A5,false,Rx,0,8,2F,FA,FF,FF,FF,00,00,FF,
-1621841257652838,00000105,false,Rx,0,8,37,F5,7F,E0,2E,00,FC,0F,
-1621841257651302,0000010E,false,Rx,0,8,FE,E7,7F,00,00,7D,00,F0,
-1621841257651089,000000AA,false,Rx,0,8,00,88,00,7D,C0,5D,D0,F7,
-1621841257650833,000000A5,false,Rx,0,8,72,FB,FF,FF,FF,00,00,FF,
-1621841257642812,00000105,false,Rx,0,8,D0,F6,7F,E0,2E,00,FC,0F,
-1621841257641319,000000AA,false,Rx,0,8,00,88,00,7D,C0,5D,D0,F7,
-1621841257641063,000000A5,false,Rx,0,8,FC,FC,FF,FF,FF,00,00,FF,
-1621841257632829,00000105,false,Rx,0,8,8D,F7,7F,E0,2E,00,FC,0F,
-1621841257631335,0000010E,false,Rx,0,8,FE,E7,7F,00,00,7D,00,F0,
-1621841257631079,000000AA,false,Rx,0,8,00,88,00,7D,C0,5D,D0,F7,
-1621841257630823,000000A5,false,Rx,0,8,A1,FD,FF,FF,FF,00,00,FF,
-1621841257622845,00000105,false,Rx,0,8,D1,F8,7F,E0,2E,00,FC,0F,
-1621841257621267,000000AA,false,Rx,0,8,00,88,00,7D,C0,5D,D0,F7,
-1621841257621053,000000A5,false,Rx,0,8,46,FE,FF,FF,FF,00,00,FF,
-1621841257612819,00000105,false,Rx,0,8,8C,F9,7F,E0,2E,00,FC,0F,
-1621841257611326,0000010E,false,Rx,0,8,FE,E7,7F,00,00,7D,00,F0,
-1621841257611070,000002E3,false,Rx,0,8,71,09,0F,00,FF,FF,FF,FF,
-1621841257610857,000000A5,false,Rx,0,8,47,F0,FF,FF,FF,00,00,FF,
-1621841257610601,000000AA,false,Rx,0,8,00,88,00,7D,C0,5D,D0,F7,
-1621841257610345,000002B3,false,Rx,0,8,00,08,08,08,0F,60,81,00,
-1621841257602836,00000105,false,Rx,0,8,6B,FA,7F,E0,2E,00,FC,0F,
-1621841257601300,000000AA,false,Rx,0,8,00,88,00,7D,C0,5D,D0,F7,
-1621841257601044,000000A5,false,Rx,0,8,1A,F1,FF,FF,FF,00,00,FF,
-1621841257592810,00000105,false,Rx,0,8,36,FB,7F,E0,2E,00,FC,0F,
-1621841257591317,0000010E,false,Rx,0,8,FE,E7,7F,00,00,7D,00,F0,
-1621841257591061,000000AA,false,Rx,0,8,00,88,00,7D,C0,5D,D0,F7,
-1621841257590847,000000A5,false,Rx,0,8,FD,F2,FF,FF,FF,00,00,FF,
-1621841257582826,00000105,false,Rx,0,8,B8,FC,7F,E0,2E,00,FC,0F,
-1621841257581248,000000AA,false,Rx,0,8,00,88,00,7D,C0,5D,D0,F7,
-1621841257581035,000000A5,false,Rx,0,8,A0,F3,FF,FF,FF,00,00,FF,
-1621841257572843,00000105,false,Rx,0,8,E5,FD,7F,E0,2E,00,FC,0F,
-1621841257571307,0000010E,false,Rx,0,8,FE,E7,7F,00,00,7D,00,F0,
-1621841257571094,000000AA,false,Rx,0,8,00,88,00,7D,C0,5D,D0,F7,
-1621841257570838,000000A5,false,Rx,0,8,2E,F4,FF,FF,FF,00,00,FF,
-1621841257562817,00000105,false,Rx,0,8,02,FE,7F,E0,2E,00,FC,0F,
-1621841257561324,000000AA,false,Rx,0,8,00,88,00,7D,C0,5D,D0,F7,
-1621841257561068,000000A5,false,Rx,0,8,73,F5,FF,FF,FF,00,00,FF,
-1621841257552834,00000105,false,Rx,0,8,03,F0,7F,E0,2E,00,FC,0F,
-1621841257552578,000001D0,false,Rx,0,8,D2,F4,9D,F8,FF,FF,FF,FF,
-1621841257551298,0000010E,false,Rx,0,8,FE,E7,7F,00,00,7D,00,F0,
