Time Stamp,ID,Extended,Bus,LEN,D1,D2,D3,D4,D5,D6,D7,D8
000000000,00000112,false,0,8,FA,1F,C7,0E,3A,72,85,5F
000000001,00000197,false,0,4,85,08,0E,C0,00,00,00,00
000000002,00000302,false,0,7,FF,FF,FF,7F,FC,FF,FF,00
000000003,00000100,false,0,8,65,F8,7F,C0,5D,66,87,70
000000004,000003A7,false,0,7,D0,F1,00,00,1F,11,F0,00
000000005,000003E6,false,0,2,82,00,00,00,00,00,00,00
000000006,0000015F,false,0,8,76,F5,00,7D,00,EE,00,7D
000000007,0000012F,false,0,8,3B,26,86,1C,F1,35,30,00
000000008,00000112,false,0,8,FA,1F,C7,0E,3A,72,85,5F
000000009,000000A5,false,0,8,3A,F6,FF,F7,7F,00,00,C1
000000010,000000AC,false,0,2,00,F0,00,00,00,00,00,00
000000011,000000D9,false,0,8,9E,F6,00,10,00,F0,7F,C8
000000012,000000F3,false,0,8,58,06,00,FF,F0,C0,FF,FF
000000013,00000100,false,0,8,38,F9,7F,C0,5D,66,87,70
000000014,000000A5,false,0,8,3B,F8,FF,F7,7F,00,00,C1
000000015,000000AC,false,0,2,00,F0,00,00,00,00,00,00
000000016,000000D9,false,0,8,9F,F8,00,10,00,F0,7F,C8
000000017,000000F3,false,0,8,59,08,00,FF,F0,C0,FF,FF
000000018,00000100,false,0,8,51,FD,7F,C0,5D,66,87,70
000000019,00000199,false,0,6,FF,FF,B9,7E,FF,3F,00,00
000000020,0000019A,false,0,6,FF,FF,81,7E,FF,3F,00,00
000000021,0000019F,false,0,6,FF,FF,0C,80,FF,2F,00,00
000000022,00000254,false,0,8,FF,7F,FF,7F,FF,7F,FF,7F
000000023,00000258,false,0,2,44,44,00,00,00,00,00,00
000000024,00000206,false,0,8,66,24,5C,FF,FF,FF,FF,FF
000000025,00000163,false,0,8,FF,FF,0E,25,FF,FF,FF,FF
000000026,00000173,false,0,8,DD,FD,00,0E,30,00,DE,10
000000027,000000EF,false,0,8,3B,F7,00,7D,21,FE,7C,FF
000000028,000001A1,false,0,5,14,C4,00,00,8A,00,00,00
000000029,00000112,false,0,8,FA,1F,C7,0E,3A,72,85,5F
000000030,000002C5,false,0,7,94,F1,00,20,06,20,CA,00
000000031,00000197,false,0,4,89,00,0E,C0,00,00,00,00
000000032,00000100,false,0,8,B6,FE,7F,C0,5D,66,87,70
000000033,000002A7,false,0,5,12,F1,FE,FF,14,00,00,00
000000034,0000015F,false,0,8,90,F8,00,7D,00,EE,00,7D
000000035,00000112,false,0,8,FA,1F,C6,0E,3A,72,85,5F
000000036,000000A5,false,0,8,66,F9,FF,F7,7F,00,00,C1
000000037,000000AC,false,0,2,00,F0,00,00,00,00,00,00
000000038,000000D9,false,0,8,C2,F9,00,10,00,F0,7F,C8
000000039,000000F3,false,0,8,04,09,00,FF,F0,C0,FF,FF
000000040,00000100,false,0,8,B7,F0,7F,C0,5D,66,87,70
000000041,00000199,false,0,6,FF,FF,AF,7E,FF,3F,00,00
000000042,0000019A,false,0,6,FF,FF,6D,7E,FF,3F,00,00
000000043,0000019F,false,0,6,FF,FF,06,80,FF,2F,00,00
000000044,00000254,false,0,8,FF,7F,FF,7F,FF,7F,FF,7F
000000045,00000258,false,0,2,44,44,00,00,00,00,00,00
000000046,000000EF,false,0,8,67,F8,00,7D,21,FE,7C,FF
000000047,000001A1,false,0,5,33,C6,00,00,8A,00,00,00
000000048,00000112,false,0,8,FA,1F,C6,0E,3A,72,85,5F
000000049,00000302,false,0,7,FF,FF,FF,7F,FC,FF,FF,00
000000050,00000100,false,0,8,EA,F1,7F,C0,5D,66,87,70
000000051,000007BD,false,0,8,00,00,00,C0,FF,C0,01,00
000000052,000007BE,false,0,8,05,00,00,00,00,00,00,E0
000000053,00000201,false,0,8,65,4A,65,4A,FF,FF,FF,FF
000000054,0000015F,false,0,8,CD,F9,00,7D,00,EE,00,7D
000000055,00000112,false,0,8,FA,1F,C6,0E,3A,72,85,5F
000000056,000002F5,false,0,8,70,0F,60,29,22,0A,06,10
000000057,00000197,false,0,4,06,01,0E,C0,00,00,00,01
000000058,000002C4,false,0,8,00,00,FF,00,C8,64,FF,CF
000000059,000000A5,false,0,8,81,FA,FF,F7,7F,00,00,C1
000000060,000000D9,false,0,8,25,FA,00,10,00,F0,7F,C8
000000061,000000AC,false,0,2,00,F0,00,00,00,00,00,00
000000062,000000F3,false,0,8,E3,0A,00,FF,F0,C0,FF,FF
000000063,00000304,false,0,6,FF,FF,BF,37,FF,FF,00,00
000000064,00000100,false,0,8,0D,F2,7F,C0,5D,66,87,70
000000065,00000199,false,0,6,FF,FF,B9,7E,FF,3F,00,00
000000066,0000019A,false,0,6,FF,FF,81,7E,FF,3F,00,00
000000067,0000019F,false,0,6,FF,FF,F8,7F,FF,2F,00,00
000000068,00000254,false,0,8,FF,7F,FF,7F,FF,7F,FF,7F
000000069,00000258,false,0,2,44,44,00,00,00,00,00,00
000000070,000003D8,false,0,8,A0,FF,FF,FF,FF,FF,FF,FF
000000071,00000206,false,0,8,3B,25,5C,FF,FF,FF,FF,FF
000000072,00000201,false,0,8,68,4A,68,4A,FF,FF,FF,FF
000000073,000000C0,false,0,2,F3,40,00,00,00,00,00,00
000000074,0000003C,false,0,8,FF,5F,00,00,00,00,FF,FF
000000075,000000EF,false,0,8,3A,F9,00,7D,21,FE,7C,FF
000000076,000001A1,false,0,5,C6,C8,00,00,8A,00,00,00
000000077,00000112,false,0,8,FA,1F,C6,0E,3A,72,85,5F
000000078,00000100,false,0,8,50,F3,7F,C0,5D,66,87,70
000000079,0000036F,false,0,5,21,F2,FE,FF,14,00,00,00
000000080,0000015F,false,0,8,2A,FA,00,7D,00,EE,00,7D
000000081,0000012F,false,0,8,0E,2D,86,1C,F1,35,30,00
000000082,00000112,false,0,8,FA,1F,C6,0E,3A,72,85,5F
000000083,000000A5,false,0,8,DC,FB,FF,F7,7F,00,00,C1
000000084,000000AC,false,0,2,00,F0,00,00,00,00,00,00
000000085,000000D9,false,0,8,78,FB,00,10,00,F0,7F,C8
000000086,000000F3,false,0,8,BE,0B,00,FF,F0,C0,FF,FF
000000087,00000100,false,0,8,DE,F4,7F,C0,5D,66,87,70
000000088,00000199,false,0,6,FF,FF,A5,7E,FF,3F,00,00
000000089,0000019A,false,0,6,FF,FF,8B,7E,FF,3F,00,00
000000090,0000019F,false,0,6,FF,FF,F9,7F,FF,2F,00,00
000000091,00000254,false,0,8,FF,7F,FF,7F,FF,7F,FF,7F
000000092,00000258,false,0,2,44,44,00,00,00,00,00,00
000000093,000000EF,false,0,8,DD,FA,00,7D,21,FE,7C,FF
000000094,000001A1,false,0,5,E1,CA,00,00,8A,00,00,00
000000095,00000112,false,0,8,FA,1F,C6,0E,3A,72,85,5F
000000096,000000A9,false,0,8,C0,78,00,90,F1,00,00,FF
000000097,00000197,false,0,4,8A,02,0E,C0,00,00,00,00
000000098,00000302,false,0,7,FF,FF,FF,7F,FC,FF,FF,00
000000099,00000100,false,0,8,83,F5,7F,C0,5D,66,87,70
000000100,000001AE,false,0,2,F7,FF,00,00,00,00,00,00
000000101,0000015F,false,0,8,77,FB,00,7D,00,EE,00,7D
000000102,00000112,false,0,8,FA,1F,C7,0E,3A,72,85,5F
000000103,000002A1,false,0,5,80,58,02,00,F0,00,00,00
000000104,000000A5,false,0,8,52,FC,FF,F7,7F,00,00,C1
000000105,000000AC,false,0,2,00,F0,00,00,00,00,00,00
000000106,000000D9,false,0,8,F6,FC,00,10,00,F0,7F,C8
000000107,000000F3,false,0,8,30,0C,00,FF,F0,C0,FF,FF
000000108,00000100,false,0,8,64,F6,7F,C0,5D,66,87,70
000000109,00000199,false,0,6,FF,FF,B9,7E,FF,3F,00,00
000000110,0000019A,false,0,6,FF,FF,8B,7E,FF,3F,00,00
000000111,0000019F,false,0,6,FF,FF,12,80,FF,2F,00,00
000000112,00000254,false,0,8,FF,7F,FF,7F,FF,7F,FF,7F
000000113,00000258,false,0,2,44,44,00,00,00,00,00,00
000000114,000002BB,false,0,5,21,FC,00,00,F2,00,00,00
000000115,000002E8,false,0,8,C0,18,C5,FF,FF,F4,F9,51
000000116,000007BD,false,0,8,01,2D,55,7F,49,57,57,00
000000117,000007BE,false,0,8,07,04,00,62,06,67,00,00
000000118,00000108,false,0,8,00,7D,FF,FF,07,F1,FF,FF
000000119,000003FD,false,0,5,B5,09,00,00,FF,00,00,00
000000120,00000206,false,0,8,DC,26,5C,FF,FF,FF,FF,FF
000000121,00000212,false,0,8,42,FA,F9,FF,FF,FF,FF,FF
000000122,000002DB,false,0,8,FF,FF,FF,FF,BF,FF,FF,FF
000000123,000002F1,false,0,8,B3,0F,00,00,00,00,00,A0
000000124,000000EF,false,0,8,80,FB,00,7D,21,FE,7C,FF
000000125,0000032B,false,0,8,FF,FF,FF,FF,FF,FF,00,FF
000000126,00000331,false,0,8,FF,FF,FF,EF,7F,FE,F7,FF
000000127,000001A1,false,0,5,88,CC,00,00,8A,00,00,00
000000128,000003E9,false,0,8,08,52,00,00,00,00,00,00
000000129,00000112,false,0,8,FA,1F,C7,0E,3A,72,85,5F
000000130,00000100,false,0,8,39,F7,7F,C0,5D,66,87,70
000000131,000002A7,false,0,5,A8,F2,FE,FF,14,00,00,00
000000132,00000201,false,0,8,73,4A,73,4A,FF,FF,FF,FF
000000133,0000015F,false,0,8,F9,FC,00,7D,00,EE,00,7D
000000134,00000112,false,0,8,FA,1F,C6,0E,3A,72,85,5F
000000135,000002B0,false,0,6,43,4D,05,C8,FF,FF,00,00
000000136,00000301,false,0,7,FF,FF,FF,7F,FF,FF,CF,00
000000137,00000197,false,0,4,05,03,0E,C0,00,00,00,00
000000138,000000A5,false,0,8,0F,FD,FF,F7,7F,00,00,C1
000000139,000000AC,false,0,2,00,F0,00,00,00,00,00,00
000000140,000002A7,false,0,5,34,FA,FE,FF,14,00,00,00
000000141,000007BD,false,0,8,00,00,00,C0,FF,C0,01,00
000000142,000007BE,false,0,8,0B,00,00,00,00,00,00,00
000000143,000003B4,false,0,8,00,FF,30,F0,98,FF,00,00
000000144,0000015F,false,0,8,43,FE,00,7D,00,EE,00,7D
000000145,00000112,false,0,8,FB,1F,C6,0E,3A,72,85,5F
000000146,00000397,false,0,7,00,2A,00,57,14,77,01,00
000000147,000002F5,false,0,8,71,0F,60,29,22,0A,06,10
000000148,000002C4,false,0,8,00,00,FF,00,C8,64,FF,CF
000000149,000000A5,false,0,8,E9,F0,FF,F7,7F,00,00,C1
000000150,000000AC,false,0,2,00,F0,00,00,00,00,00,00
000000151,000000D9,false,0,8,4D,F0,00,10,00,F0,7F,C8
000000152,000000F3,false,0,8,8B,00,00,FF,F0,C0,FF,FF
000000153,00000100,false,0,8,0C,FC,7F,C0,5D,66,87,70
000000154,00000199,false,0,6,FF,FF,B9,7E,FF,3F,00,00
000000155,0000019A,false,0,6,FF,FF,77,7E,FF,3F,00,00
000000156,0000019F,false,0,6,FF,FF,FB,7F,FF,2F,00,00
000000157,00000254,false,0,8,FF,7F,FF,7F,FF,7F,FF,7F
000000158,00000258,false,0,2,44,44,00,00,00,00,00,00
000000159,00000201,false,0,8,07,4B,07,4B,FF,FF,FF,FF
000000160,00000510,false,0,8,40,10,20,00,00,00,00,00
000000161,000000EF,false,0,8,B4,FE,00,7D,21,FE,7C,FF
000000162,000001A1,false,0,5,E0,C3,00,00,8A,00,00,00
000000163,0000003C,false,0,8,FF,5F,00,00,00,00,FF,FF
000000164,00000112,false,0,8,FA,1F,C6,0E,3A,72,85,5F
000000165,00000302,false,0,7,FF,FF,FF,7F,FC,FF,FF,00
000000166,00000100,false,0,8,51,FD,7F,C0,5D,66,87,70
000000167,0000015F,false,0,8,42,F0,00,7D,00,EE,00,7D
000000168,00000348,false,0,8,E7,00,0A,7F,FE,0B,D8,11
000000169,0000012F,false,0,8,DC,25,86,1C,F1,35,30,00
000000170,00000112,false,0,8,FB,1F,C7,0E,3A,72,85,5F
000000171,00000314,false,0,3,11,02,FF,00,00,00,00,00
000000172,00000197,false,0,4,86,0A,0E,C0,00,00,00,01
000000173,000000A5,false,0,8,B4,F1,FF,F7,7F,00,00,C1
000000174,000000AC,false,0,2,00,F0,00,00,00,00,00,00
000000175,000000D9,false,0,8,10,F1,00,10,00,F0,7F,C8
000000176,000000F3,false,0,8,D6,01,00,FF,F0,C0,FF,FF
000000177,00000100,false,0,8,B6,FE,7F,C0,5D,66,87,70
000000178,00000199,false,0,6,FF,FF,AF,7E,FF,3F,00,00
000000179,0000019A,false,0,6,FF,FF,8B,7E,FF,3F,00,00
000000180,0000019F,false,0,6,FF,FF,F9,7F,FF,2F,00,00
000000181,00000254,false,0,8,FF,7F,FF,7F,FF,7F,FF,7F
000000182,00000258,false,0,2,44,44,00,00,00,00,00,00
000000183,00000297,false,0,7,B8,EB,F0,FC,F2,92,EA,00
000000184,00000206,false,0,8,DD,28,5C,FF,FF,FF,FF,FF
000000185,000000EF,false,0,8,B5,F0,00,7D,21,FE,7C,FF
000000186,000001A1,false,0,5,89,C5,00,00,8A,00,00,00
000000187,00000112,false,0,8,FA,1F,C7,0E,3A,72,85,5F
000000188,000000A9,false,0,8,B0,78,00,90,F1,00,00,FF
000000189,00000239,false,0,8,31,89,2A,69,01,FF,FF,FF
000000190,00000100,false,0,8,B7,F0,7F,C0,5D,66,87,70
000000191,0000036E,false,0,5,A0,F6,FE,FF,14,00,00,00
000000192,00000272,false,0,8,5B,F9,01,11,FF,FF,FF,FF
000000193,000001AE,false,0,2,F7,FF,00,00,00,00,00,00
000000194,0000015F,false,0,8,1F,F1,00,7D,00,EE,00,7D
000000195,0000043D,false,0,8,0A,F7,E6,FF,1E,0F,01,F0
000000196,00000112,false,0,8,FA,1F,C6,0E,3A,72,85,5F
000000197,000002A1,false,0,5,80,58,02,00,F0,00,00,00
000000198,00000431,false,0,8,CA,FF,FF,FF,FF,7C,F3,4B
000000199,000000A5,false,0,8,53,F2,FF,F7,7F,00,00,C1
000000200,000000AC,false,0,2,00,F0,00,00,00,00,00,00
000000201,000000D9,false,0,8,F7,F2,00,10,00,F0,7F,C8
000000202,000000F3,false,0,8,31,02,00,FF,F0,C0,FF,FF
000000203,00000100,false,0,8,EA,F1,7F,C0,5D,66,87,70
000000204,00000199,false,0,6,FF,FF,B9,7E,FF,3F,00,00
000000205,0000019A,false,0,6,FF,FF,81,7E,FF,3F,00,00
000000206,0000019F,false,0,6,FF,FF,0B,80,FF,2F,00,00
000000207,00000254,false,0,8,FF,7F,FF,7F,FF,7F,FF,7F
000000208,00000258,false,0,2,44,44,00,00,00,00,00,00
000000209,000002BB,false,0,5,07,F7,00,00,F2,00,00,00
000000210,000002E8,false,0,8,C0,18,C5,FF,FF,F4,F1,B9
000000211,000003FD,false,0,5,29,01,00,00,FF,00,00,00
000000212,00000108,false,0,8,00,7D,FF,FF,07,F1,FF,FF
000000213,00000201,false,0,8,10,4B,10,4B,FF,FF,FF,FF
000000214,00000212,false,0,8,90,F2,F9,FF,FF,FF,FF,FF
000000215,000002DB,false,0,8,FF,FF,FF,FF,BF,FF,FF,FF
000000216,000002F1,false,0,8,B4,0F,00,00,00,00,00,A0
000000217,000000EF,false,0,8,E8,F1,00,7D,21,FE,7C,FF
000000218,000001A1,false,0,5,AE,C7,00,00,8A,00,00,00
000000219,00000112,false,0,8,FA,1F,C6,0E,3A,72,85,5F
000000220,00000432,false,0,8,4C,ED,10,B1,8A,FF,00,FF
000000221,00000349,false,0,5,FE,FF,F4,1A,00,00,00,00
000000222,00000197,false,0,4,09,0B,0E,C0,00,00,00,00
000000223,00000302,false,0,7,FF,FF,FF,7F,FC,FF,FF,00
000000224,00000100,false,0,8,0D,F2,7F,C0,5D,66,87,70
000000225,00000201,false,0,8,12,4B,12,4B,FF,FF,FF,FF
000000226,0000015F,false,0,8,F8,F2,00,7D,00,EE,00,7D
000000227,0000043C,false,0,8,FE,FE,FF,FF,FF,FF,FF,FF
000000228,00000112,false,0,8,FA,1F,C6,0E,3A,72,85,5F
000000229,000002B0,false,0,6,42,4D,05,C8,FF,FF,00,00
000000230,0000038E,false,0,8,00,00,0E,0E,99,09,84,F2
000000231,000000A5,false,0,8,0E,F3,FF,F7,7F,00,00,C1
000000232,000000AC,false,0,2,00,F0,00,00,00,00,00,00
000000233,000000D9,false,0,8,AA,F3,00,10,00,F0,7F,C8
000000234,000000F3,false,0,8,6C,03,00,FF,F0,C0,FF,FF
000000235,00000100,false,0,8,50,F3,7F,C0,5D,66,87,70
000000236,00000199,false,0,6,FF,FF,B9,7E,FF,3F,00,00
000000237,0000019A,false,0,6,FF,FF,8B,7E,FF,3F,00,00
000000238,0000019F,false,0,6,FF,FF,0D,80,FF,2F,00,00
000000239,00000254,false,0,8,FF,7F,FF,7F,FF,7F,FF,7F
000000240,00000258,false,0,2,44,44,00,00,00,00,00,00
000000241,000005C0,false,0,8,08,04,00,FE,FF,FF,FF,FF
000000242,00000206,false,0,8,80,29,5C,FF,FF,FF,FF,FF
000000243,00000163,false,0,8,FF,FF,0E,25,FF,FF,FF,FF
000000244,00000173,false,0,8,DC,F3,00,0E,30,00,DE,10
000000245,000000EF,false,0,8,0F,F2,00,7D,21,FE,7C,FF
000000246,000001A1,false,0,5,5B,C9,00,00,8A,00,00,00
000000247,00000112,false,0,8,FA,1F,C6,0E,3A,72,85,5F
000000248,000002C5,false,0,7,9E,F9,00,20,06,20,CA,00
000000249,0000051A,false,0,8,00,00,00,00,50,00,00,1A
000000250,00000100,false,0,8,DE,F4,7F,C0,5D,66,87,70
000000251,000002A7,false,0,5,A9,FB,FE,FF,14,00,00,00
000000252,0000015F,false,0,8,A5,F3,00,7D,00,EE,00,7D
000000253,0000034A,false,0,8,6D,A9,D2,1B,10,A5,D0,24
000000254,00000112,false,0,8,FA,1F,C6,0E,3A,72,85,5F
000000255,00000197,false,0,4,83,0C,0E,C0,00,00,00,00
000000256,000000A5,false,0,8,80,F4,FF,F7,7F,00,00,C1
000000257,000000AC,false,0,2,00,F0,00,00,00,00,00,00
000000258,000000D9,false,0,8,24,F4,00,10,00,F0,7F,C8
000000259,000000F3,false,0,8,E2,04,00,FF,F0,C0,FF,FF
000000260,00000100,false,0,8,83,F5,7F,C0,5D,66,87,70
000000261,00000199,false,0,6,FF,FF,A5,7E,FF,3F,00,00
000000262,0000019A,false,0,6,FF,FF,8B,7E,FF,3F,00,00
000000263,0000019F,false,0,6,FF,FF,EE,7F,FF,2F,00,00
000000264,00000254,false,0,8,FF,7F,FF,7F,FF,7F,FF,7F
000000265,00000258,false,0,2,44,44,00,00,00,00,00,00
000000266,00000199,false,0,6,FF,FF,B9,7E,FF,3F,00,00
000000267,0000019A,false,0,6,FF,FF,9F,7E,FF,3F,00,00
000000268,0000019F,false,0,6,FF,FF,F2,7F,FF,2F,00,00
000000269,00000254,false,0,8,FF,7F,FF,7F,FF,7F,FF,7F
000000270,00000258,false,0,2,44,44,00,00,00,00,00,00
000000271,000000EF,false,0,8,81,F5,00,7D,21,FE,7C,FF
000000272,000001A1,false,0,5,5A,C0,00,00,8A,00,00,00
000000273,00000112,false,0,8,FA,1F,C6,0E,3A,72,85,5F
000000274,000000A9,false,0,8,C0,78,00,90,F1,00,00,FF
000000275,00000302,false,0,7,FF,FF,FF,7F,FC,FF,FF,00
000000276,00000100,false,0,8,DF,FA,7F,C0,5D,66,87,70
000000277,000001AE,false,0,2,F7,FF,00,00,00,00,00,00
000000278,0000015F,false,0,8,91,F6,00,7D,00,EE,00,7D
000000279,00000112,false,0,8,FA,1F,C6,0E,3A,72,85,5F
000000280,000002A1,false,0,5,80,58,02,00,F0,00,00,00
000000281,00000197,false,0,4,8F,04,0E,C0,00,00,00,00
000000282,000000A5,false,0,8,67,F7,FF,F7,7F,00,00,C1
000000283,000000AC,false,0,2,00,F0,00,00,00,00,00,00
000000284,000000D9,false,0,8,C3,F7,00,10,00,F0,7F,C8
000000285,000000F3,false,0,8,05,07,00,FF,F0,C0,FF,FF
000000286,00000100,false,0,8,82,FB,7F,C0,5D,66,87,70
000000287,00000199,false,0,6,FF,FF,B9,7E,FF,3F,00,00
000000288,0000019A,false,0,6,FF,FF,8B,7E,FF,3F,00,00
000000289,0000019F,false,0,6,FF,FF,F7,7F,FF,2F,00,00
000000290,00000254,false,0,8,FF,7F,FF,7F,FF,7F,FF,7F
000000291,00000258,false,0,2,44,44,00,00,00,00,00,00
000000292,000002BB,false,0,5,D4,F2,00,00,F2,00,00,00
000000293,000002E8,false,0,8,C0,18,C5,FF,FF,F4,F8,4C
000000294,000007BE,false,0,8,0C,41,04,68,00,00,00,00
000000295,000003FD,false,0,5,28,08,00,00,FF,00,00,00
000000296,00000108,false,0,8,00,7D,FF,FF,07,F1,FF,FF
000000297,00000206,false,0,8,3A,2B,5C,FF,FF,FF,FF,FF
000000298,00000212,false,0,8,A5,F9,F9,FF,FF,FF,FF,FF
000000299,000002DB,false,0,8,FF,FF,FF,FF,BF,FF,FF,FF
000000300,000002F1,false,0,8,B3,0F,00,00,00,00,00,A0
000000301,0000032B,false,0,8,FF,FF,FF,FF,FF,FF,00,FF
000000302,000000EF,false,0,8,66,F6,00,7D,21,FE,7C,FF
000000303,00000331,false,0,8,FF,FF,FF,EF,7F,FE,F7,FF
000000304,000001A1,false,0,5,7D,C2,00,00,8A,00,00,00
000000305,000003E9,false,0,8,08,52,00,00,00,00,00,00
000000306,00000112,false,0,8,FA,1F,C6,0E,3A,72,85,5F
000000307,00000100,false,0,8,0C,FC,7F,C0,5D,66,87,70
000000308,0000036F,false,0,5,20,FB,FE,FF,14,00,00,00
000000309,00000201,false,0,8,B1,4B,B1,4B,FF,FF,FF,FF
000000310,0000015F,false,0,8,CC,F7,00,7D,00,EE,00,7D
000000311,00000112,false,0,8,FA,1F,C7,0E,3A,72,85,5F
000000312,000002B0,false,0,6,43,4D,05,C8,FF,FF,00,00
000000313,00000301,false,0,7,FF,FF,FF,7F,FF,FF,CF,00
000000314,000000A5,false,0,8,3B,F8,FF,F7,7F,00,00,C1
000000315,000000AC,false,0,2,00,F0,00,00,00,00,00,00
000000316,000000D9,false,0,8,9F,F8,00,10,00,F0,7F,C8
000000317,000000F3,false,0,8,59,08,00,FF,F0,C0,FF,FF
000000318,00000100,false,0,8,51,FD,7F,C0,5D,66,87,70
000000319,00000199,false,0,6,FF,FF,AF,7E,FF,3F,00,00
000000320,0000019A,false,0,6,FF,FF,81,7E,FF,3F,00,00
000000321,0000019F,false,0,6,FF,FF,04,80,FF,2F,00,00
000000322,00000254,false,0,8,FF,7F,FF,7F,FF,7F,FF,7F
000000323,00000258,false,0,2,44,44,00,00,00,00,00,00
000000324,00000163,false,0,8,FF,FF,0E,25,FF,FF,FF,FF
000000325,00000173,false,0,8,DD,FD,00,0E,30,00,DE,10
000000326,000000EF,false,0,8,3B,F7,00,7D,21,FE,7C,FF
000000327,000001A1,false,0,5,14,C4,00,00,8A,00,00,00
000000328,00000112,false,0,8,FA,1F,C7,0E,3A,72,85,5F
000000329,000002C5,false,0,7,94,F1,00,20,06,20,CA,00
000000330,00000197,false,0,4,00,05,0E,C0,00,00,00,00
000000331,00000302,false,0,7,FF,FF,FF,7F,FC,FF,FF,00
000000332,00000100,false,0,8,B6,FE,7F,C0,5D,66,87,70
000000333,0000015F,false,0,8,90,F8,00,7D,00,EE,00,7D
000000334,000001E1,false,0,6,39,FD,04,FF,FF,FF,00,00
000000335,00000112,false,0,8,FA,1F,C6,0E,3A,72,85,5F
000000336,000000A5,false,0,8,66,F9,FF,F7,7F,00,00,C1
000000337,000000AC,false,0,2,00,F0,00,00,00,00,00,00
000000338,000000D9,false,0,8,C2,F9,00,10,00,F0,7F,C8
000000339,000000F3,false,0,8,04,09,00,FF,F0,C0,FF,FF
000000340,00000100,false,0,8,B7,F0,7F,C0,5D,66,87,70
000000341,00000199,false,0,6,FF,FF,C3,7E,FF,3F,00,00
000000342,0000019A,false,0,6,FF,FF,8B,7E,FF,3F,00,00
000000343,0000019F,false,0,6,FF,FF,E9,7F,FF,2F,00,00
000000344,00000254,false,0,8,FF,7F,FF,7F,FF,7F,FF,7F
000000345,00000258,false,0,2,44,44,00,00,00,00,00,00
000000346,00000206,false,0,8,B4,2C,5C,FF,FF,FF,FF,FF
000000347,000002F5,false,0,8,71,0F,60,29,22,0A,06,10
000000348,000000EF,false,0,8,67,F8,00,7D,21,FE,7C,FF
000000349,000001A1,false,0,5,33,C6,00,00,8A,00,00,00
000000350,00000112,false,0,8,FA,1F,C6,0E,3A,72,85,5F
000000351,00000239,false,0,8,31,89,2A,69,01,FF,FF,FF
000000352,000001EE,false,0,2,00,FC,00,00,00,00,00,00
000000353,00000100,false,0,8,EA,F1,7F,C0,5D,66,87,70
000000354,000002A7,false,0,5,5C,F5,FE,FF,14,00,00,00
000000355,000007BD,false,0,8,00,00,00,C0,FF,C0,01,00
000000356,000007BE,false,0,8,07,04,00,62,06,67,00,00
000000357,00000201,false,0,8,BA,4B,BA,4B,FF,FF,FF,FF
000000358,000003B4,false,0,8,00,FF,30,F0,98,FF,00,00
000000359,0000015F,false,0,8,CD,F9,00,7D,00,EE,00,7D
000000360,00000112,false,0,8,FA,1F,C6,0E,3A,72,85,5F
000000361,00000397,false,0,7,00,2A,00,57,14,77,01,00
000000362,00000197,false,0,4,8C,06,0E,C0,00,00,00,00
000000363,000002C4,false,0,8,00,00,FF,00,C8,64,FF,CF
000000364,000000A5,false,0,8,81,FA,FF,F7,7F,00,00,C1
000000365,000000AC,false,0,2,00,F0,00,00,00,00,00,00
000000366,000000D9,false,0,8,25,FA,00,10,00,F0,7F,C8
000000367,000000F3,false,0,8,E3,0A,00,FF,F0,C0,FF,FF
000000368,00000100,false,0,8,0D,F2,7F,C0,5D,66,87,70
000000369,00000199,false,0,6,FF,FF,B9,7E,FF,3F,00,00
000000370,0000019A,false,0,6,FF,FF,8B,7E,FF,3F,00,00
000000371,0000019F,false,0,6,FF,FF,F9,7F,FF,2F,00,00
000000372,00000254,false,0,8,FF,7F,FF,7F,FF,7F,FF,7F
000000373,00000258,false,0,2,44,44,00,00,00,00,00,00
000000374,00000201,false,0,8,BD,4B,BD,4B,FF,FF,FF,FF
000000375,000000EF,false,0,8,3A,F9,00,7D,21,FE,7C,FF
000000376,000001A1,false,0,5,C6,C8,00,00,8A,00,00,00
000000377,0000003C,false,0,8,FF,5F,00,00,00,00,FF,FF
000000378,00000112,false,0,8,FA,1F,C6,0E,3A,72,85,5F
000000379,000002F5,false,0,8,71,0F,60,29,22,0A,06,10
000000380,00000328,false,0,6,CE,DF,2E,0B,86,1E,00,00
000000381,00000302,false,0,7,FF,FF,FF,7F,FC,FF,FF,00
000000382,00000100,false,0,8,50,F3,7F,C0,5D,66,87,70
000000383,0000015F,false,0,8,2A,FA,00,7D,00,EE,00,7D
000000384,00000348,false,0,8,E7,00,0A,7F,FE,DB,DF,11
000000385,0000012F,false,0,8,0E,2D,86,1C,F1,35,30,00
000000386,00000112,false,0,8,FA,1F,C6,0E,3A,72,85,5F
000000387,00000314,false,0,3,11,02,FF,00,00,00,00,00
000000388,00000350,false,0,4,F3,FF,FF,FF,FF,FF,FF,FE
000000389,000000A5,false,0,8,DC,FB,FF,F7,7F,00,00,C1
000000390,000000AC,false,0,2,00,F0,00,00,00,00,00,00
000000391,000000D9,false,0,8,78,FB,00,10,00,F0,7F,C8
000000392,00000112,false,0,8,FA,1F,C6,0E,3A,72,85,5F
000000393,000002B0,false,0,6,43,4D,05,C8,FF,FF,00,00
000000394,00000314,false,0,3,11,02,FF,00,00,00,00,00
000000395,00000197,false,0,4,0C,0D,0E,C0,00,00,00,00
000000396,000000A5,false,0,8,0F,FD,FF,F7,7F,00,00,C1
000000397,000000AC,false,0,2,00,F0,00,00,00,00,00,00
000000398,000000D9,false,0,8,AB,FD,00,10,00,F0,7F,C8
000000399,000000F3,false,0,8,6D,0D,00,FF,F0,C0,FF,FF
000000400,00000100,false,0,8,65,F8,7F,C0,5D,66,87,70
000000401,00000206,false,0,8,0E,2E,5C,FF,FF,FF,FF,FF
000000402,00000163,false,0,8,FF,FF,0E,25,FF,FF,FF,FF
000000403,00000173,false,0,8,E9,F8,00,0E,30,00,DE,10
000000404,000000EF,false,0,8,0E,FC,00,7D,21,FE,7C,FF
000000405,00000199,false,0,6,FF,FF,9B,7E,FF,3F,00,00
000000406,0000019A,false,0,6,FF,FF,77,7E,FF,3F,00,00
000000407,0000019F,false,0,6,FF,FF,0E,80,FF,2F,00,00
000000408,000001A1,false,0,5,AF,CE,00,00,8A,00,00,00
000000409,00000112,false,0,8,FA,1F,C6,0E,3A,72,85,5F
000000410,00000254,false,0,8,FF,7F,FF,7F,FF,7F,FF,7F
000000411,00000258,false,0,2,44,44,00,00,00,00,00,00
000000412,000002C5,false,0,7,D8,F8,00,20,06,20,CA,00
000000413,00000100,false,0,8,38,F9,7F,C0,5D,66,87,70
000000414,0000036E,false,0,5,C9,F0,FE,FF,14,00,00,00
000000415,0000015F,false,0,8,A4,FD,00,7D,00,EE,00,7D
000000416,00000112,false,0,8,FA,1F,C7,0E,3A,72,85,5F
000000417,000000A5,false,0,8,E8,FE,FF,F7,7F,00,00,C1
000000418,000000AC,false,0,2,00,F0,00,00,00,00,00,00
000000419,000000D9,false,0,8,4C,FE,00,10,00,F0,7F,C8
000000420,000000F3,false,0,8,8A,0E,00,FF,F0,C0,FF,FF
000000421,00000100,false,0,8,DF,FA,7F,C0,5D,66,87,70
000000422,00000199,false,0,6,FF,FF,AF,7E,FF,3F,00,00
000000423,0000019A,false,0,6,FF,FF,8B,7E,FF,3F,00,00
000000424,000000EF,false,0,8,53,FD,00,7D,21,FE,7C,FF
000000425,0000019F,false,0,6,FF,FF,FF,7F,FF,2F,00,00
000000426,00000254,false,0,8,FF,7F,FF,7F,FF,7F,FF,7F
000000427,000001A1,false,0,5,C7,C1,00,00,8A,00,00,00
000000428,00000258,false,0,2,44,44,00,00,00,00,00,00
000000429,00000112,false,0,8,FA,1F,C7,0E,3A,72,85,5F
000000430,00000197,false,0,4,80,0E,0E,C0,00,00,00,00
000000431,00000302,false,0,7,FF,FF,FF,7F,FC,FF,FF,00
000000432,00000100,false,0,8,82,FB,7F,C0,5D,66,87,70
000000433,000007BD,false,0,8,00,00,00,C0,FF,C0,01,00
000000434,000007BE,false,0,8,05,00,00,00,00,00,00,E0
000000435,0000015F,false,0,8,43,FE,00,7D,00,EE,00,7D
000000436,00000112,false,0,8,FA,1F,C7,0E,3A,72,85,5F
000000437,000002F5,false,0,8,71,0F,60,29,22,0A,06,10
000000438,000002C4,false,0,8,00,00,FF,00,C8,64,FF,CF
000000439,000000A5,false,0,8,E9,F0,FF,F7,7F,00,00,C1
000000440,000000D9,false,0,8,4D,F0,00,10,00,F0,7F,C8
000000441,000000AC,false,0,2,00,F0,00,00,00,00,00,00
000000442,000000F3,false,0,8,8B,00,00,FF,F0,C0,FF,FF
000000443,00000304,false,0,6,FF,FF,BF,37,FF,FF,00,00
000000444,000003F9,false,0,8,CB,FB,80,E0,49,30,C3,FF
000000445,00000100,false,0,8,0C,FC,7F,C0,5D,66,87,70
000000446,00000206,false,0,8,0F,20,5C,FF,FF,FF,FF,FF
000000447,00000201,false,0,8,5C,4C,5C,4C,FF,FF,FF,FF
000000448,00000199,false,0,6,FF,FF,AF,7E,FF,3F,00,00
000000449,0000019A,false,0,6,FF,FF,8B,7E,FF,3F,00,00
000000450,000000EF,false,0,8,B4,FE,00,7D,21,FE,7C,FF
000000451,0000019F,false,0,6,FF,FF,05,80,FF,2F,00,00
000000452,00000254,false,0,8,FF,7F,FF,7F,FF,7F,FF,7F
000000453,000001A1,false,0,5,E0,C3,00,00,8A,00,00,00
000000454,00000258,false,0,2,44,44,00,00,00,00,00,00
000000455,00000112,false,0,8,FA,1F,C7,0E,3A,72,85,5F
000000456,000000C0,false,0,2,FE,40,00,00,00,00,00,00
000000457,0000003C,false,0,8,FF,5F,00,00,00,00,FF,FF
000000458,00000100,false,0,8,51,FD,7F,C0,5D,66,87,70
000000459,000002A7,false,0,5,7A,FE,FE,FF,14,00,00,00
000000460,0000015F,false,0,8,42,F0,00,7D,00,EE,00,7D
000000461,0000012F,false,0,8,DC,25,86,1C,F1,35,30,00
000000462,00000112,false,0,8,FA,1F,C6,0E,3A,72,85,5F
000000463,00000197,false,0,4,89,00,0E,C0,00,00,00,00
000000464,000000A5,false,0,8,B4,F1,FF,F7,7F,00,00,C1
000000465,000000AC,false,0,2,00,F0,00,00,00,00,00,00
000000466,000000D9,false,0,8,10,F1,00,10,00,F0,7F,C8
000000467,000000F3,false,0,8,D6,01,00,FF,F0,C0,FF,FF
000000468,00000100,false,0,8,B6,FE,7F,C0,5D,66,87,70
000000469,00000459,false,0,8,B4,40,65,88,6C,DF,1B,8B
000000470,00000199,false,0,6,FF,FF,C3,7E,FF,3F,00,00
000000471,0000019A,false,0,6,FF,FF,6D,7E,FF,3F,00,00
000000472,000000EF,false,0,8,B5,F0,00,7D,21,FE,7C,FF
000000473,0000019F,false,0,6,FF,FF,09,80,FF,2F,00,00
000000474,00000254,false,0,8,FF,7F,FF,7F,FF,7F,FF,7F
000000475,000001A1,false,0,5,89,C5,00,00,8A,00,00,00
000000476,00000258,false,0,2,44,44,00,00,00,00,00,00
000000477,00000112,false,0,8,FA,1F,C6,0E,3A,72,85,5F
000000478,000000A9,false,0,8,C0,78,00,90,F1,00,00,FF
000000479,00000302,false,0,7,FF,FF,FF,7F,FC,FF,FF,00
000000480,00000100,false,0,8,B7,F0,7F,C0,5D,66,87,70
000000481,000001AE,false,0,2,F7,FF,00,00,00,00,00,00
000000482,000001D0,false,0,8,05,F4,DF,FF,FF,FF,FF,FF
000000483,000001B9,false,0,5,FF,FF,FF,14,FF,00,00,00
000000484,0000015F,false,0,8,1F,F1,00,7D,00,EE,00,7D
000000485,00000112,false,0,8,FA,1F,C6,0E,3A,72,85,5F
000000486,000002A1,false,0,5,80,58,02,00,F0,00,00,00
000000487,000002ED,false,0,3,D4,05,02,00,00,00,00,00
000000488,000000A5,false,0,8,53,F2,FF,F7,7F,00,00,C1
000000489,000000AC,false,0,2,00,F0,00,00,00,00,00,00
000000490,000000D9,false,0,8,F7,F2,00,10,00,F0,7F,C8
000000491,000000F3,false,0,8,31,02,00,FF,F0,C0,FF,FF
000000492,00000100,false,0,8,EA,F1,7F,C0,5D,66,87,70
000000493,000002BB,false,0,5,07,F7,00,00,F2,00,00,00
000000494,000001F9,false,0,2,FD,FF,00,00,00,00,00,00
000000495,000007BD,false,0,8,11,00,00,00,00,00,00,00
000000496,000002E8,false,0,8,C0,18,C5,FF,FF,F4,F1,B9
000000497,000007BE,false,0,8,0B,00,00,00,00,00,00,00
000000498,000003FD,false,0,5,29,01,00,00,FF,00,00,00
000000499,00000108,false,0,8,00,7D,FF,FF,07,F1,FF,FF
000000500,00000201,false,0,8,65,4C,65,4C,FF,FF,FF,FF
000000501,00000206,false,0,8,52,21,5C,FF,FF,FF,FF,FF
000000502,00000212,false,0,8,90,F2,F9,FF,FF,FF,FF,FF
000000503,000002DB,false,0,8,FF,FF,FF,FF,BF,FF,FF,FF
000000504,00000199,false,0,6,FF,FF,A5,7E,FF,3F,00,00
000000505,000000EF,false,0,8,E8,F1,00,7D,21,FE,7C,FF
000000506,0000019A,false,0,6,FF,FF,95,7E,FF,3F,00,00
000000507,0000019F,false,0,6,FF,FF,04,80,FF,2F,00,00
000000508,000001A1,false,0,5,AE,C7,00,00,8A,00,00,00
000000509,00000254,false,0,8,FF,7F,FF,7F,FF,7F,FF,7F
000000510,00000112,false,0,8,FA,1F,C6,0E,3A,72,85,5F
000000511,00000258,false,0,2,44,44,00,00,00,00,00,00
000000512,000002F1,false,0,8,B4,0F,00,00,00,00,00,A0
000000513,000002FA,false,0,8,FD,FF,00,FF,FF,FF,FF,FF
000000514,0000032B,false,0,8,FF,FF,FF,FF,FF,FF,00,FF
000000515,00000331,false,0,8,FF,FF,FF,EF,7F,FE,F7,FF
000000516,000003AD,false,0,8,00,F0,FF,FF,FF,FF,FF,F3
000000517,00000197,false,0,4,06,01,0E,C0,00,00,00,00
000000518,00000206,false,0,8,B5,22,5C,FF,FF,FF,FF,FF
000000519,00000199,false,0,6,FF,FF,AF,7E,FF,3F,00,00
000000520,0000019A,false,0,6,FF,FF,8B,7E,FF,3F,00,00
000000521,000000EF,false,0,8,52,F3,00,7D,21,FE,7C,FF
000000522,0000019F,false,0,6,FF,FF,FA,7F,FF,2F,00,00
000000523,00000254,false,0,8,FF,7F,FF,7F,FF,7F,FF,7F
000000524,000001A1,false,0,5,7C,CB,00,00,8A,00,00,00
000000525,00000258,false,0,2,44,44,00,00,00,00,00,00
000000526,00000112,false,0,8,FA,1F,C6,0E,3A,72,85,5F
000000527,00000239,false,0,8,81,93,2A,69,01,FF,FF,FF
000000528,00000100,false,0,8,64,F6,7F,C0,5D,66,87,70
000000529,000007BD,false,0,8,00,00,00,C0,FF,C0,01,00
000000530,0000036F,false,0,5,D5,F5,FE,FF,14,00,00,00
000000531,000007BE,false,0,8,0C,41,04,68,00,00,00,00
000000532,0000015F,false,0,8,2B,F4,00,7D,00,EE,00,7D
000000533,000003B4,false,0,8,00,FF,30,F0,98,FF,00,00
000000534,00000112,false,0,8,FA,1F,C6,0E,3A,72,85,5F
000000535,000002F5,false,0,8,71,0F,60,29,22,0A,06,10
000000536,000002C4,false,0,8,00,00,FF,00,C8,64,FF,CF
000000537,000000A5,false,0,8,DD,F5,FF,F7,7F,00,00,C1
000000538,000000AC,false,0,2,00,F0,00,00,00,00,00,00
000000539,000000D9,false,0,8,79,F5,00,10,00,F0,7F,C8
000000540,000000F3,false,0,8,BF,05,00,FF,F0,C0,FF,FF
000000541,00000100,false,0,8,39,F7,7F,C0,5D,66,87,70
000000542,00000201,false,0,8,FB,4C,FB,4C,FF,FF,FF,FF
000000543,00000199,false,0,6,FF,FF,9B,7E,FF,3F,00,00
000000544,0000019A,false,0,6,FF,FF,77,7E,FF,3F,00,00
000000545,000000EF,false,0,8,DC,F4,00,7D,21,FE,7C,FF
000000546,0000019F,false,0,6,FF,FF,0A,80,FF,2F,00,00
000000547,00000254,false,0,8,FF,7F,FF,7F,FF,7F,FF,7F
000000548,000001A1,false,0,5,15,CD,00,00,8A,00,00,00
000000549,00000258,false,0,2,44,44,00,00,00,00,00,00
000000550,00000112,false,0,8,FB,1F,C6,0E,3A,72,85,5F
000000551,00000197,false,0,4,85,08,0E,C0,00,00,00,00
000000552,0000003C,false,0,8,FF,5F,00,00,00,00,FF,FF
000000553,00000302,false,0,7,FF,FF,FF,7F,FC,FF,FF,00
000000554,00000100,false,0,8,65,F8,7F,C0,5D,66,87,70
000000555,0000015F,false,0,8,76,F5,00,7D,00,EE,00,7D
000000556,0000012F,false,0,8,53,2C,86,1C,F1,35,30,00
000000557,00000112,false,0,8,FA,1F,C7,0E,3A,72,85,5F
000000558,000000A5,false,0,8,3A,F6,FF,F7,7F,00,00,C1
000000559,000000AC,false,0,2,00,F0,00,00,00,00,00,00
000000560,000000D9,false,0,8,9E,F6,00,10,00,F0,7F,C8
000000561,000000F3,false,0,8,58,06,00,FF,F0,C0,FF,FF
000000562,00000100,false,0,8,38,F9,7F,C0,5D,66,87,70
000000563,00000297,false,0,7,B7,E7,F0,FC,F2,92,EA,00
000000564,00000206,false,0,8,E8,23,5C,FF,FF,FF,FF,FF
000000565,00000199,false,0,6,FF,FF,B9,7E,FF,3F,00,00
000000566,0000019A,false,0,6,FF,FF,8B,7E,FF,3F,00,00
000000567,000000EF,false,0,8,81,F5,00,7D,21,FE,7C,FF
000000568,0000019F,false,0,6,FF,FF,03,80,FF,2F,00,00
000000569,00000254,false,0,8,FF,7F,FF,7F,FF,7F,FF,7F
000000570,000001A1,false,0,5,5A,C0,00,00,8A,00,00,00
000000571,00000258,false,0,2,44,44,00,00,00,00,00,00
000000572,00000112,false,0,8,FA,1F,C7,0E,3A,72,85,5F
000000573,000000A9,false,0,8,B0,78,00,90,F1,00,00,FF
000000574,00000100,false,0,8,DF,FA,7F,C0,5D,66,87,70
000000575,000002A7,false,0,5,13,F8,FE,FF,14,00,00,00
000000576,000001AE,false,0,2,F7,FF,00,00,00,00,00,00
000000577,0000015F,false,0,8,91,F6,00,7D,00,EE,00,7D
000000578,00000272,false,0,8,E0,F5,01,11,FF,FF,FF,FF
000000579,00000112,false,0,8,FA,1F,C7,0E,3A,72,85,5F
000000580,000002A1,false,0,5,80,58,02,00,F0,00,00,00
000000581,00000431,false,0,8,CA,FF,FF,FF,FF,7C,F3,4B
000000582,00000197,false,0,4,0A,09,0E,C0,00,00,00,00
000000583,000000A5,false,0,8,67,F7,FF,F7,7F,00,00,C1
000000584,000000AC,false,0,2,00,F0,00,00,00,00,00,00
000000585,000000D9,false,0,8,C3,F7,00,10,00,F0,7F,C8
000000586,000000F3,false,0,8,05,07,00,FF,F0,C0,FF,FF
000000587,00000100,false,0,8,82,FB,7F,C0,5D,66,87,70
000000588,000002E8,false,0,8,C0,18,C5,FF,FF,F4,F8,4C
000000589,000002BB,false,0,5,D4,F2,00,00,F2,00,00,00
000000590,000007BE,false,0,8,00,C0,FA,1C,02,00,00,00
000000591,000003FD,false,0,5,28,08,00,00,FF,00,00,00
000000592,00000108,false,0,8,00,7D,FF,FF,07,F1,FF,FF
000000593,00000212,false,0,8,A5,F9,F9,FF,FF,FF,FF,FF
000000594,000002DB,false,0,8,FF,FF,FF,FF,BF,FF,FF,FF
000000595,000002F1,false,0,8,B4,0F,00,00,00,00,00,A0
000000596,00000199,false,0,6,FF,FF,CD,7E,FF,3F,00,00
000000597,0000019A,false,0,6,FF,FF,77,7E,FF,3F,00,00
000000598,000000EF,false,0,8,66,F6,00,7D,21,FE,7C,FF
000000599,0000019F,false,0,6,FF,FF,FF,7F,FF,2F,00,00
000000600,00000254,false,0,8,FF,7F,FF,7F,FF,7F,FF,7F
000000601,000001A1,false,0,5,7D,C2,00,00,8A,00,00,00
000000602,00000258,false,0,2,44,44,00,00,00,00,00,00
000000603,00000112,false,0,8,FA,1F,C7,0E,3A,72,85,5F
000000604,00000432,false,0,8,4C,ED,10,B1,8A,FF,00,FF
000000605,00000349,false,0,5,FE,FF,F4,1A,00,00,00,00
000000606,00000302,false,0,7,FF,FF,FF,7F,FC,FF,FF,00
000000607,00000100,false,0,8,0C,FC,7F,C0,5D,66,87,70
000000608,00000200,false,0,8,00,00,81,00,0E,28,FA,FF
000000609,00000201,false,0,8,06,4D,06,4D,FF,FF,FF,FF
000000610,00000246,false,0,5,3F,FB,00,FF,FF,00,00,00
000000611,00000299,false,0,6,FF,FF,FF,FF,FF,00,00,00
000000612,0000015F,false,0,8,CC,F7,00,7D,00,EE,00,7D
000000613,00000112,false,0,8,FA,1F,C6,0E,3A,72,85,5F
000000614,000002B0,false,0,6,42,4D,05,C8,FF,FF,00,00
000000615,00000314,false,0,3,11,02,FF,00,00,00,00,00
000000616,000000A5,false,0,8,3B,F8,FF,F7,7F,00,00,C1
000000617,000000AC,false,0,2,00,F0,00,00,00,00,00,00
000000618,000000D9,false,0,8,9F,F8,00,10,00,F0,7F,C8
000000619,000000F3,false,0,8,59,08,00,FF,F0,C0,FF,FF
000000620,00000100,false,0,8,51,FD,7F,C0,5D,66,87,70
000000621,00000206,false,0,8,66,24,5C,FF,FF,FF,FF,FF
000000622,00000163,false,0,8,FF,FF,0E,25,FF,FF,FF,FF
000000623,00000173,false,0,8,DD,FD,00,0E,30,00,DE,10
000000624,000000EF,false,0,8,3B,F7,00,7D,21,FE,7C,FF
000000625,00000199,false,0,6,FF,FF,B9,7E,FF,3F,00,00
000000626,0000019A,false,0,6,FF,FF,81,7E,FF,3F,00,00
000000627,0000019F,false,0,6,FF,FF,FA,7F,FF,2F,00,00
000000628,000001A1,false,0,5,14,C4,00,00,8A,00,00,00
000000629,00000112,false,0,8,FA,1F,C6,0E,3A,72,85,5F
000000630,00000254,false,0,8,FF,7F,FF,7F,FF,7F,FF,7F
000000631,00000258,false,0,2,44,44,00,00,00,00,00,00
000000632,000002C5,false,0,7,94,F1,00,20,06,20,CA,00
000000633,00000197,false,0,4,86,0A,0E,C0,00,00,00,00
000000634,00000100,false,0,8,B6,FE,7F,C0,5D,66,87,70
000000635,0000036E,false,0,5,1A,F5,FE,FF,14,00,00,00
000000636,0000015F,false,0,8,90,F8,00,7D,00,EE,00,7D
000000637,00000112,false,0,8,FA,1F,C6,0E,3A,72,85,5F
000000638,000000A5,false,0,8,66,F9,FF,F7,7F,00,00,C1
000000639,000000AC,false,0,2,00,F0,00,00,00,00,00,00
000000640,000000D9,false,0,8,C2,F9,00,10,00,F0,7F,C8
000000641,000000F3,false,0,8,04,09,00,FF,F0,C0,FF,FF
000000642,00000100,false,0,8,B7,F0,7F,C0,5D,66,87,70
000000643,00000199,false,0,6,FF,FF,B9,7E,FF,3F,00,00
000000644,0000036E,false,0,5,C8,F9,FE,FF,14,00,00,00
000000645,0000015F,false,0,8,2A,FA,00,7D,00,EE,00,7D
000000646,0000012F,false,0,8,81,24,86,1C,F1,35,30,00
000000647,00000112,false,0,8,FA,1F,C7,0E,3A,72,85,5F
000000648,000000A5,false,0,8,DC,FB,FF,F7,7F,00,00,C1
000000649,000000AC,false,0,2,00,F0,00,00,00,00,00,00
000000650,000000D9,false,0,8,78,FB,00,10,00,F0,7F,C8
000000651,000000F3,false,0,8,BE,0B,00,FF,F0,C0,FF,FF
000000652,00000100,false,0,8,DE,F4,7F,C0,5D,66,87,70
000000653,00000199,false,0,6,FF,FF,9B,7E,FF,3F,00,00
000000654,0000019A,false,0,6,FF,FF,81,7E,FF,3F,00,00
000000655,000000EF,false,0,8,DD,FA,00,7D,21,FE,7C,FF
000000656,0000019F,false,0,6,FF,FF,EE,7F,FF,2F,00,00
000000657,00000254,false,0,8,FF,7F,FF,7F,FF,7F,FF,7F
000000658,000001A1,false,0,5,E1,CA,00,00,8A,00,00,00
000000659,00000258,false,0,2,44,44,00,00,00,00,00,00
000000660,00000112,false,0,8,FA,1F,C7,0E,3A,72,85,5F
000000661,000000A9,false,0,8,C0,78,00,90,F1,00,00,FF
000000662,00000197,false,0,4,8A,02,0E,C0,00,00,00,00
000000663,00000302,false,0,7,FF,FF,FF,7F,FC,FF,FF,00
000000664,00000100,false,0,8,83,F5,7F,C0,5D,66,87,70
000000665,000001AE,false,0,2,F7,FF,00,00,00,00,00,00
000000666,0000015F,false,0,8,77,FB,00,7D,00,EE,00,7D
000000667,00000112,false,0,8,FA,1F,C6,0E,3A,72,85,5F
000000668,000002A1,false,0,5,80,58,02,00,F0,00,00,00
000000669,000000A5,false,0,8,52,FC,FF,F7,7F,00,00,C1
000000670,000000AC,false,0,2,00,F0,00,00,00,00,00,00
000000671,000000D9,false,0,8,F6,FC,00,10,00,F0,7F,C8
000000672,000000F3,false,0,8,30,0C,00,FF,F0,C0,FF,FF
000000673,00000100,false,0,8,64,F6,7F,C0,5D,66,87,70
000000674,000002E8,false,0,8,C0,18,C5,FF,FF,F4,F0,A4
000000675,000002BB,false,0,5,21,FC,00,00,F2,00,00,00
000000676,000007BE,false,0,8,00,C0,FA,1C,02,00,00,00
000000677,000003FD,false,0,5,B4,00,00,00,FF,00,00,00
000000678,00000108,false,0,8,00,7D,FF,FF,07,F1,FF,FF
000000679,00000206,false,0,8,DC,26,5C,FF,FF,FF,FF,FF
000000680,00000212,false,0,8,77,F1,F9,FF,FF,FF,FF,FF
000000681,000002DB,false,0,8,FF,FF,FF,FF,BF,FF,FF,FF
000000682,000002F1,false,0,8,B4,0F,00,00,00,00,00,A0
000000683,00000199,false,0,6,FF,FF,AF,7E,FF,3F,00,00
000000684,000000EF,false,0,8,80,FB,00,7D,21,FE,7C,FF
000000685,0000019A,false,0,6,FF,FF,8B,7E,FF,3F,00,00
000000686,0000019F,false,0,6,FF,FF,0B,80,FF,2F,00,00
000000687,000001A1,false,0,5,88,CC,00,00,8A,00,00,00
000000688,00000254,false,0,8,FF,7F,FF,7F,FF,7F,FF,7F
000000689,00000258,false,0,2,44,44,00,00,00,00,00,00
000000690,0000032B,false,0,8,FF,FF,FF,FF,FF,FF,00,FF
000000691,00000112,false,0,8,FB,1F,C6,0E,3A,72,85,5F
000000692,00000331,false,0,8,FF,FF,FF,EF,7F,FE,F7,FF
000000693,000003E9,false,0,8,08,52,00,00,00,00,00,00
000000694,00000100,false,0,8,39,F7,7F,C0,5D,66,87,70
000000695,000002A7,false,0,5,A8,F2,FE,FF,14,00,00,00
000000696,00000201,false,0,8,A5,4D,A5,4D,FF,FF,FF,FF
000000697,0000015F,false,0,8,F9,FC,00,7D,00,EE,00,7D
000000698,00000112,false,0,8,FA,1F,C6,0E,3A,72,85,5F
000000699,000002B0,false,0,6,43,4D,05,C8,FF,FF,00,00
000000700,00000301,false,0,7,FF,FF,FF,7F,FF,FF,CF,00
000000701,00000197,false,0,4,05,03,0E,C0,00,00,00,00
000000702,000000A5,false,0,8,0F,FD,FF,F7,7F,00,00,C1
000000703,000000AC,false,0,2,00,F0,00,00,00,00,00,00
000000704,000000D9,false,0,8,AB,FD,00,10,00,F0,7F,C8
000000705,000000F3,false,0,8,6D,0D,00,FF,F0,C0,FF,FF
000000706,00000100,false,0,8,65,F8,7F,C0,5D,66,87,70
000000707,00000163,false,0,8,FF,FF,0E,25,FF,FF,FF,FF
000000708,00000173,false,0,8,E9,F8,00,0E,30,00,DE,10
000000709,000000EF,false,0,8,0E,FC,00,7D,21,FE,7C,FF
000000710,00000199,false,0,6,FF,FF,91,7E,FF,3F,00,00
000000711,0000019A,false,0,6,FF,FF,81,7E,FF,3F,00,00
000000712,0000019F,false,0,6,FF,FF,F9,7F,FF,2F,00,00
000000713,000001A1,false,0,5,AF,CE,00,00,8A,00,00,00
000000714,00000112,false,0,8,FB,1F,C6,0E,3A,72,85,5F
000000715,00000254,false,0,8,FF,7F,FF,7F,FF,7F,FF,7F
000000716,00000258,false,0,2,44,44,00,00,00,00,00,00
000000717,000002C5,false,0,7,D8,F8,00,20,06,20,CA,00
000000718,00000302,false,0,7,FF,FF,FF,7F,FC,FF,FF,00
000000719,00000100,false,0,8,38,F9,7F,C0,5D,66,87,70
000000720,0000015F,false,0,8,A4,FD,00,7D,00,EE,00,7D
000000721,000001E1,false,0,6,8C,F9,04,FF,FF,FF,00,00
000000722,00000112,false,0,8,FA,1F,C6,0E,3A,72,85,5F
000000723,000000A5,false,0,8,E8,FE,FF,F7,7F,00,00,C1
000000724,000000AC,false,0,2,00,F0,00,00,00,00,00,00
000000725,000000D9,false,0,8,4C,FE,00,10,00,F0,7F,C8
000000726,000000F3,false,0,8,8A,0E,00,FF,F0,C0,FF,FF
000000727,00000100,false,0,8,DF,FA,7F,C0,5D,66,87,70
000000728,00000206,false,0,8,81,27,5C,FF,FF,FF,FF,FF
000000729,00000199,false,0,6,FF,FF,A5,7E,FF,3F,00,00
000000730,0000019A,false,0,6,FF,FF,81,7E,FF,3F,00,00
000000731,000000EF,false,0,8,53,FD,00,7D,21,FE,7C,FF
000000732,0000019F,false,0,6,FF,FF,FB,7F,FF,2F,00,00
000000733,00000239,false,0,8,31,89,2A,69,01,FF,FF,FF
000000734,000001A1,false,0,5,C7,C1,00,00,8A,00,00,00
000000735,00000254,false,0,8,FF,7F,FF,7F,FF,7F,FF,7F
000000736,00000112,false,0,8,FA,1F,C6,0E,3A,72,85,5F
000000737,00000258,false,0,2,44,44,00,00,00,00,00,00
000000738,00000197,false,0,4,8F,04,0E,C0,00,00,00,00
000000739,00000100,false,0,8,82,FB,7F,C0,5D,66,87,70
000000740,000007BD,false,0,8,00,00,00,C0,FF,C0,01,00
000000741,000007BE,false,0,8,0B,00,00,00,00,00,00,00
000000742,0000036F,false,0,5,BD,FA,FE,FF,14,00,00,00
000000743,0000015F,false,0,8,43,FE,00,7D,00,EE,00,7D
000000744,00000112,false,0,8,FA,1F,C6,0E,3A,72,85,5F
000000745,000003B4,false,0,8,00,FF,30,F0,98,FF,00,00
000000746,000002F5,false,0,8,71,0F,60,29,22,0A,06,10
000000747,000002C4,false,0,8,00,00,FF,00,C8,64,FF,CF
000000748,000000A5,false,0,8,E9,F0,FF,F7,7F,00,00,C1
000000749,000000AC,false,0,2,00,F0,00,00,00,00,00,00
000000750,000000D9,false,0,8,4D,F0,00,10,00,F0,7F,C8
000000751,000000F3,false,0,8,8B,00,00,FF,F0,C0,FF,FF
000000752,00000100,false,0,8,0C,FC,7F,C0,5D,66,87,70
000000753,00000201,false,0,8,B1,4D,B1,4D,FF,FF,FF,FF
000000754,00000199,false,0,6,FF,FF,B9,7E,FF,3F,00,00
000000755,0000019A,false,0,6,FF,FF,95,7E,FF,3F,00,00
000000756,000000EF,false,0,8,B4,FE,00,7D,21,FE,7C,FF
000000757,0000019F,false,0,6,FF,FF,0D,80,FF,2F,00,00
000000758,00000254,false,0,8,FF,7F,FF,7F,FF,7F,FF,7F
000000759,000001A1,false,0,5,E0,C3,00,00,8A,00,00,00
000000760,00000258,false,0,2,44,44,00,00,00,00,00,00
000000761,00000112,false,0,8,FA,1F,C6,0E,3A,72,85,5F
000000762,0000003C,false,0,8,FF,5F,00,00,00,00,FF,FF
000000763,00000302,false,0,7,FF,FF,FF,7F,FC,FF,FF,00
000000764,00000100,false,0,8,51,FD,7F,C0,5D,66,87,70
000000765,0000015F,false,0,8,42,F0,00,7D,00,EE,00,7D
000000766,0000012F,false,0,8,DC,25,86,1C,F1,35,30,00
000000767,00000112,false,0,8,FA,1F,C7,0E,3A,72,85,5F
000000768,00000197,false,0,4,00,05,0E,C0,00,00,00,00
000000769,000000A5,false,0,8,B4,F1,FF,F7,7F,00,00,C1
000000770,000000D9,false,0,8,F7,F2,00,10,00,F0,7F,C8
000000771,000000F3,false,0,8,31,02,00,FF,F0,C0,FF,FF
000000772,00000100,false,0,8,EA,F1,7F,C0,5D,66,87,70
000000773,000002E8,false,0,8,C0,18,C5,FF,FF,F4,F7,F7
000000774,000002BB,false,0,5,07,F7,00,00,F2,00,00,00
000000775,000007BD,false,0,8,03,00,00,00,00,00,01,06
000000776,000003FD,false,0,5,40,07,00,00,FF,00,00,00
000000777,00000108,false,0,8,00,7D,FF,FF,07,F1,FF,FF
000000778,00000212,false,0,8,F8,F8,F9,FF,FF,FF,FF,FF
000000779,000002DB,false,0,8,FF,FF,FF,FF,BF,FF,FF,FF
000000780,000002F1,false,0,8,B4,0F,00,00,00,00,00,A0
000000781,00000199,false,0,6,FF,FF,C3,7E,FF,3F,00,00
000000782,0000019A,false,0,6,FF,FF,95,7E,FF,3F,00,00
000000783,000000EF,false,0,8,E8,F1,00,7D,21,FE,7C,FF
000000784,0000019F,false,0,6,FF,FF,F7,7F,FF,2F,00,00
000000785,00000254,false,0,8,FF,7F,FF,7F,FF,7F,FF,7F
000000786,000001A1,false,0,5,AE,C7,00,00,8A,00,00,00
000000787,00000258,false,0,2,44,44,00,00,00,00,00,00
000000788,00000112,false,0,8,FA,1F,C6,0E,3A,72,85,5F
000000789,00000432,false,0,8,4C,ED,10,B1,8A,FF,00,FF
000000790,00000349,false,0,5,FE,FF,F4,1A,00,00,00,00
000000791,00000197,false,0,4,09,0B,0E,C0,00,00,00,00
000000792,00000302,false,0,7,FF,FF,FF,7F,FC,FF,FF,00
000000793,00000100,false,0,8,0D,F2,7F,C0,5D,66,87,70
000000794,00000201,false,0,8,44,4E,44,4E,FF,FF,FF,FF
000000795,0000015F,false,0,8,F8,F2,00,7D,00,EE,00,7D
000000796,0000043C,false,0,8,FE,FE,FF,FF,FF,FF,FF,FF
000000797,00000112,false,0,8,FA,1F,C6,0E,3A,72,85,5F
000000798,000002B0,false,0,6,42,4D,05,C8,FF,FF,00,00
000000799,000000A5,false,0,8,0E,F3,FF,F7,7F,00,00,C1
000000800,000000AC,false,0,2,00,F0,00,00,00,00,00,00
000000801,000000D9,false,0,8,AA,F3,00,10,00,F0,7F,C8
000000802,000000F3,false,0,8,6C,03,00,FF,F0,C0,FF,FF
000000803,00000100,false,0,8,50,F3,7F,C0,5D,66,87,70
000000804,00000206,false,0,8,80,29,5C,FF,FF,FF,FF,FF
000000805,00000163,false,0,8,FF,FF,0E,25,FF,FF,FF,FF
000000806,00000173,false,0,8,DC,F3,00,0E,30,00,DE,10
000000807,000000EF,false,0,8,0F,F2,00,7D,21,FE,7C,FF
000000808,00000199,false,0,6,FF,FF,B9,7E,FF,3F,00,00
000000809,0000019A,false,0,6,FF,FF,8B,7E,FF,3F,00,00
000000810,0000019F,false,0,6,FF,FF,FC,7F,FF,2F,00,00
000000811,000001A1,false,0,5,5B,C9,00,00,8A,00,00,00
000000812,00000112,false,0,8,FA,1F,C6,0E,3A,72,85,5F
000000813,00000254,false,0,8,FF,7F,FF,7F,FF,7F,FF,7F
000000814,00000258,false,0,2,44,44,00,00,00,00,00,00
000000815,000003D2,false,0,2,F3,FF,00,00,00,00,00,00
000000816,000001FA,false,0,8,41,65,45,F0,4A,4B,49,4A
000000817,000002C5,false,0,7,D2,F0,00,20,06,20,CA,00
000000818,00000100,false,0,8,DE,F4,7F,C0,5D,66,87,70
000000819,000002A7,false,0,5,A9,FB,FE,FF,14,00,00,00
000000820,0000015F,false,0,8,A5,F3,00,7D,00,EE,00,7D
000000821,00000112,false,0,8,FA,1F,C7,0E,3A,72,85,5F
000000822,00000363,false,0,8,D5,14,09,09,FF,FF,FF,FF
000000823,00000197,false,0,4,83,0C,0E,C0,00,00,00,00
000000824,000000A5,false,0,8,80,F4,FF,F7,7F,00,00,C1
000000825,000000AC,false,0,2,00,F0,00,00,00,00,00,00
000000826,000000D9,false,0,8,24,F4,00,10,00,F0,7F,C8
000000827,000000F3,false,0,8,E2,04,00,FF,F0,C0,FF,FF
000000828,00000100,false,0,8,83,F5,7F,C0,5D,66,87,70
000000829,00000340,false,0,2,FC,FF,00,00,00,00,00,00
000000830,00000389,false,0,2,FF,F0,00,00,00,00,00,00
000000831,00000199,false,0,6,FF,FF,A5,7E,FF,3F,00,00
000000832,0000019A,false,0,6,FF,FF,77,7E,FF,3F,00,00
000000833,000000EF,false,0,8,52,F3,00,7D,21,FE,7C,FF
000000834,0000019F,false,0,6,FF,FF,F1,7F,FF,2F,00,00
000000835,00000254,false,0,8,FF,7F,FF,7F,FF,7F,FF,7F
000000836,000001A1,false,0,5,7C,CB,00,00,8A,00,00,00
000000837,00000258,false,0,2,44,44,00,00,00,00,00,00
000000838,00000112,false,0,8,FA,1F,C7,0E,3A,72,85,5F
000000839,00000302,false,0,7,FF,FF,FF,7F,FC,FF,FF,00
000000840,00000100,false,0,8,64,F6,7F,C0,5D,66,87,70
000000841,000007BD,false,0,8,00,00,00,C0,FF,C0,01,00
000000842,000007BE,false,0,8,05,00,00,00,00,00,00,E0
000000843,0000015F,false,0,8,2B,F4,00,7D,00,EE,00,7D
000000844,00000112,false,0,8,FA,1F,C6,0E,3A,72,85,5F
000000845,000002F5,false,0,8,71,0F,60,29,22,0A,06,10
000000846,00000314,false,0,3,11,02,FF,00,00,00,00,00
000000847,000002C4,false,0,8,00,00,FF,00,C8,64,FF,CF
000000848,000000A5,false,0,8,DD,F5,FF,F7,7F,00,00,C1
000000849,000000AC,false,0,2,00,F0,00,00,00,00,00,00
000000850,000000D9,false,0,8,79,F5,00,10,00,F0,7F,C8
000000851,000000F3,false,0,8,BF,05,00,FF,F0,C0,FF,FF
000000852,00000304,false,0,6,FF,FF,BF,37,FF,FF,00,00
000000853,00000100,false,0,8,39,F7,7F,C0,5D,66,87,70
000000854,00000206,false,0,8,67,2A,5C,FF,FF,FF,FF,FF
000000855,00000201,false,0,8,50,4E,50,4E,FF,FF,FF,FF
000000856,00000199,false,0,6,FF,FF,B9,7E,FF,3F,00,00
000000857,0000019A,false,0,6,FF,FF,77,7E,FF,3F,00,00
000000858,000000EF,false,0,8,DC,F4,00,7D,21,FE,7C,FF
000000859,0000019F,false,0,6,FF,FF,EF,7F,FF,2F,00,00
000000860,00000254,false,0,8,FF,7F,FF,7F,FF,7F,FF,7F
000000861,000001A1,false,0,5,15,CD,00,00,8A,00,00,00
000000862,00000258,false,0,2,44,44,00,00,00,00,00,00
000000863,00000112,false,0,8,FB,1F,C6,0E,3A,72,85,5F
000000864,00000197,false,0,4,0C,0D,0E,C0,00,00,00,00
000000865,000000C0,false,0,2,FA,40,00,00,00,00,00,00
000000866,0000003C,false,0,8,FF,5F,00,00,00,00,FF,FF
000000867,00000100,false,0,8,65,F8,7F,C0,5D,66,87,70
000000868,0000036E,false,0,5,3C,FE,FE,FF,14,00,00,00
000000869,0000015F,false,0,8,76,F5,00,7D,00,EE,00,7D
000000870,0000012F,false,0,8,53,2C,86,1C,F1,35,30,00
000000871,00000112,false,0,8,FA,1F,C6,0E,3A,72,85,5F
000000872,000000A5,false,0,8,3A,F6,FF,F7,7F,00,00,C1
000000873,000000AC,false,0,2,00,F0,00,00,00,00,00,00
000000874,000000D9,false,0,8,9E,F6,00,10,00,F0,7F,C8
000000875,000000F3,false,0,8,58,06,00,FF,F0,C0,FF,FF
000000876,00000100,false,0,8,38,F9,7F,C0,5D,66,87,70
000000877,00000199,false,0,6,FF,FF,B9,7E,FF,3F,00,00
000000878,0000019A,false,0,6,FF,FF,77,7E,FF,3F,00,00
000000879,000000EF,false,0,8,81,F5,00,7D,21,FE,7C,FF
000000880,0000019F,false,0,6,FF,FF,0F,80,FF,2F,00,00
000000881,00000254,false,0,8,FF,7F,FF,7F,FF,7F,FF,7F
000000882,000001A1,false,0,5,5A,C0,00,00,8A,00,00,00
000000883,00000258,false,0,2,44,44,00,00,00,00,00,00
000000884,00000112,false,0,8,FA,1F,C6,0E,3A,72,85,5F
000000885,000000A9,false,0,8,B0,78,00,90,F1,00,00,FF
000000886,00000302,false,0,7,FF,FF,FF,7F,FC,FF,FF,00
000000887,00000100,false,0,8,DF,FA,7F,C0,5D,66,87,70
000000888,000001AE,false,0,2,F7,FF,00,00,00,00,00,00
000000889,0000015F,false,0,8,91,F6,00,7D,00,EE,00,7D
000000890,00000112,false,0,8,FA,1F,C7,0E,3A,72,85,5F
000000891,000002A1,false,0,5,80,58,02,00,F0,00,00,00
000000892,00000197,false,0,4,80,0E,0E,C0,00,00,00,00
000000893,000000A5,false,0,8,67,F7,FF,F7,7F,00,00,C1
000000894,000000AC,false,0,2,00,F0,00,00,00,00,00,00
000000895,000000D9,false,0,8,C3,F7,00,10,00,F0,7F,C8
000000896,0000015F,false,0,8,90,F8,00,7D,00,EE,00,7D
000000897,000001E1,false,0,6,FB,F1,04,FF,FF,FF,00,00
000000898,00000112,false,0,8,FA,1F,C6,0E,3A,72,85,5F
000000899,000000A5,false,0,8,66,F9,FF,F7,7F,00,00,C1
000000900,000000AC,false,0,2,00,F0,00,00,00,00,00,00
000000901,000000D9,false,0,8,C2,F9,00,10,00,F0,7F,C8
000000902,000000F3,false,0,8,04,09,00,FF,F0,C0,FF,FF
000000903,00000100,false,0,8,B7,F0,7F,C0,5D,66,87,70
000000904,00000206,false,0,8,B4,2C,5C,FF,FF,FF,FF,FF
000000905,00000199,false,0,6,FF,FF,B9,7E,FF,3F,00,00
000000906,0000019A,false,0,6,FF,FF,77,7E,FF,3F,00,00
000000907,000000EF,false,0,8,67,F8,00,7D,21,FE,7C,FF
000000908,0000019F,false,0,6,FF,FF,E1,7F,FF,2F,00,00
000000909,00000254,false,0,8,FF,7F,FF,7F,FF,7F,FF,7F
000000910,000001A1,false,0,5,33,C6,00,00,8A,00,00,00
000000911,00000258,false,0,2,44,44,00,00,00,00,00,00
000000912,000002F5,false,0,8,70,0F,60,29,22,0A,06,10
000000913,00000112,false,0,8,FA,1F,C6,0E,3A,72,85,5F
000000914,00000239,false,0,8,71,90,2A,69,01,FF,FF,FF
000000915,00000100,false,0,8,EA,F1,7F,C0,5D,66,87,70
000000916,000002A7,false,0,5,5C,F5,FE,FF,14,00,00,00
000000917,000007BD,false,0,8,00,00,00,C0,FF,C0,01,00
000000918,000007BE,false,0,8,07,04,00,62,06,67,00,00
000000919,0000015F,false,0,8,CD,F9,00,7D,00,EE,00,7D
000000920,00000112,false,0,8,FA,1F,C6,0E,3A,72,85,5F
000000921,00000197,false,0,4,8C,06,0E,C0,00,00,00,00
000000922,000003B4,false,0,8,00,FF,30,F0,98,FF,00,00
000000923,000002C4,false,0,8,00,00,FF,00,C8,64,FF,CF
000000924,000000A5,false,0,8,81,FA,FF,F7,7F,00,00,C1
000000925,000000AC,false,0,2,00,F0,00,00,00,00,00,00
000000926,000000D9,false,0,8,25,FA,00,10,00,F0,7F,C8
000000927,000000F3,false,0,8,E3,0A,00,FF,F0,C0,FF,FF
000000928,00000100,false,0,8,0D,F2,7F,C0,5D,66,87,70
000000929,00000201,false,0,8,EF,4E,EF,4E,FF,FF,FF,FF
000000930,00000199,false,0,6,FF,FF,B9,7E,FF,3F,00,00
000000931,0000019A,false,0,6,FF,FF,81,7E,FF,3F,00,00
000000932,000000EF,false,0,8,3A,F9,00,7D,21,FE,7C,FF
000000933,0000019F,false,0,6,FF,FF,FB,7F,FF,2F,00,00
000000934,00000254,false,0,8,FF,7F,FF,7F,FF,7F,FF,7F
000000935,000001A1,false,0,5,C6,C8,00,00,8A,00,00,00
000000936,00000258,false,0,2,44,44,00,00,00,00,00,00
000000937,00000112,false,0,8,FA,1F,C6,0E,3A,72,85,5F
000000938,000002F5,false,0,8,70,0F,60,29,22,0A,06,10
000000939,0000003C,false,0,8,FF,5F,00,00,00,00,FF,FF
000000940,00000302,false,0,7,FF,FF,FF,7F,FC,FF,FF,00
000000941,00000100,false,0,8,50,F3,7F,C0,5D,66,87,70
000000942,00000348,false,0,8,E7,00,0A,7F,FE,7B,EF,11
000000943,0000015F,false,0,8,2A,FA,00,7D,00,EE,00,7D
000000944,0000012F,false,0,8,81,24,86,1C,F1,35,30,00
000000945,00000112,false,0,8,FA,1F,C6,0E,3A,72,85,5F
000000946,000000A5,false,0,8,DC,FB,FF,F7,7F,00,00,C1
000000947,000000AC,false,0,2,00,F0,00,00,00,00,00,00
000000948,000000D9,false,0,8,78,FB,00,10,00,F0,7F,C8
000000949,000000F3,false,0,8,BE,0B,00,FF,F0,C0,FF,FF
000000950,00000100,false,0,8,DE,F4,7F,C0,5D,66,87,70
000000951,00000297,false,0,7,B2,E3,F0,FC,F2,92,EA,00
000000952,00000206,false,0,8,E9,2D,5C,FF,FF,FF,FF,FF
000000953,00000199,false,0,6,FF,FF,B9,7E,FF,3F,00,00
000000954,0000019A,false,0,6,FF,FF,8B,7E,FF,3F,00,00
000000955,000000EF,false,0,8,DD,FA,00,7D,21,FE,7C,FF
000000956,0000019F,false,0,6,FF,FF,EE,7F,FF,2F,00,00
000000957,00000254,false,0,8,FF,7F,FF,7F,FF,7F,FF,7F
000000958,000001A1,false,0,5,E1,CA,00,00,8A,00,00,00
000000959,00000258,false,0,2,44,44,00,00,00,00,00,00
000000960,00000112,false,0,8,FA,1F,C6,0E,3A,72,85,5F
000000961,000000A9,false,0,8,B0,78,00,90,F1,00,00,FF
000000962,00000197,false,0,4,03,07,0E,C0,00,00,00,00
000000963,00000100,false,0,8,83,F5,7F,C0,5D,66,87,70
000000964,0000036F,false,0,5,48,F4,FE,FF,14,00,00,00
000000965,000001AE,false,0,2,F7,FF,00,00,00,00,00,00
000000966,0000043D,false,0,8,0A,F7,E6,FF,1E,0F,01,F0
000000967,0000015F,false,0,8,77,FB,00,7D,00,EE,00,7D
000000968,00000112,false,0,8,FA,1F,C6,0E,3A,72,85,5F
000000969,000002A1,false,0,5,80,58,02,00,F0,00,00,00
000000970,00000431,false,0,8,CA,FF,FF,FF,FF,7C,F3,4B
000000971,00000272,false,0,8,89,F1,01,11,FF,FF,FF,FF
000000972,000000A5,false,0,8,52,FC,FF,F7,7F,00,00,C1
000000973,000000AC,false,0,2,00,F0,00,00,00,00,00,00
000000974,000000D9,false,0,8,F6,FC,00,10,00,F0,7F,C8
000000975,000000F3,false,0,8,30,0C,00,FF,F0,C0,FF,FF
000000976,00000100,false,0,8,64,F6,7F,C0,5D,66,87,70
000000977,000002E8,false,0,8,C0,18,C5,FF,FF,F4,F0,A4
000000978,000002BB,false,0,5,21,FC,00,00,F2,00,00,00
000000979,000007BD,false,0,8,04,00,00,00,00,00,00,80
000000980,000007BE,false,0,8,00,C0,FA,1C,02,00,00,00
000000981,000003FD,false,0,5,B4,00,00,00,FF,00,00,00
000000982,00000108,false,0,8,00,7D,FF,FF,07,F1,FF,FF
000000983,00000212,false,0,8,77,F1,F9,FF,FF,FF,FF,FF
000000984,000002DB,false,0,8,FF,FF,FF,FF,BF,FF,FF,FF
000000985,000002F1,false,0,8,B3,0F,00,00,00,00,00,A0
000000986,00000199,false,0,6,FF,FF,AF,7E,FF,3F,00,00
000000987,0000019A,false,0,6,FF,FF,81,7E,FF,3F,00,00
000000988,000000EF,false,0,8,80,FB,00,7D,21,FE,7C,FF
000000989,0000019F,false,0,6,FF,FF,03,80,FF,2F,00,00
000000990,00000254,false,0,8,FF,7F,FF,7F,FF,7F,FF,7F
000000991,000001A1,false,0,5,88,CC,00,00,8A,00,00,00
000000992,00000258,false,0,2,44,44,00,00,00,00,00,00
000000993,00000112,false,0,8,FA,1F,C6,0E,3A,72,85,5F
000000994,00000397,false,0,7,00,2B,00,57,14,77,01,00
000000995,000001D6,false,0,2,F0,C0,00,00,00,00,00,00
000000996,00000349,false,0,5,FE,FF,EA,1A,00,00,00,00
000000997,00000432,false,0,8,4C,ED,10,B1,8A,FF,00,FF
000000998,00000302,false,0,7,FF,FF,FF,7F,FC,FF,FF,00
000000999,00000100,false,0,8,39,F7,7F,C0,5D,66,87,70
000001000,00000201,false,0,8,FA,4E,FA,4E,FF,FF,FF,FF
000001001,0000015F,false,0,8,F9,FC,00,7D,00,EE,00,7D
000001002,0000043C,false,0,8,FE,FE,FF,FF,FF,FF,FF,FF
000001003,00000112,false,0,8,FA,1F,C7,0E,3A,72,85,5F
000001004,000002B0,false,0,6,42,4D,05,C8,FF,FF,00,00
000001005,00000197,false,0,4,85,08,0E,C0,00,00,00,00
000001006,000000A5,false,0,8,0F,FD,FF,F7,7F,00,00,C1
000001007,000000AC,false,0,2,00,F0,00,00,00,00,00,00
000001008,000000D9,false,0,8,AB,FD,00,10,00,F0,7F,C8
000001009,000000F3,false,0,8,6D,0D,00,FF,F0,C0,FF,FF
000001010,00000100,false,0,8,65,F8,7F,C0,5D,66,87,70
000001011,00000206,false,0,8,0E,2E,5C,FF,FF,FF,FF,FF
000001012,00000163,false,0,8,FF,FF,0E,25,FF,FF,FF,FF
000001013,00000173,false,0,8,E9,F8,00,0E,30,00,DE,10
000001014,000000EF,false,0,8,0E,FC,00,7D,21,FE,7C,FF
000001015,00000199,false,0,6,FF,FF,B9,7E,FF,3F,00,00
000001016,0000019A,false,0,6,FF,FF,8B,7E,FF,3F,00,00
000001017,0000019F,false,0,6,FF,FF,07,80,FF,2F,00,00
000001018,000001A1,false,0,5,AF,CE,00,00,8A,00,00,00
000001019,00000112,false,0,8,FA,1F,C7,0E,3A,72,85,5F
000001020,00000254,false,0,8,FF,7F,FF,7F,FF,7F,FF,7F
000001021,00000258,false,0,2,44,44,00,00,00,00,00,00
000001022,000002C4,false,0,8,00,00,FF,00,C8,64,FF,CF
000001023,000000A5,false,0,8,E9,F0,FF,F7,7F,00,00,C1
000001024,000000D9,false,0,8,4D,F0,00,10,00,F0,7F,C8
000001025,000000AC,false,0,2,00,F0,00,00,00,00,00,00
000001026,000000F3,false,0,8,8B,00,00,FF,F0,C0,FF,FF
000001027,00000304,false,0,6,FF,FF,BE,37,FF,FF,00,00
000001028,00000100,false,0,8,0C,FC,7F,C0,5D,66,87,70
000001029,00000206,false,0,8,0F,20,5C,FF,FF,FF,FF,FF
000001030,00000201,false,0,8,8E,4F,8E,4F,FF,FF,FF,FF
000001031,00000199,false,0,6,FF,FF,AF,7E,FF,3F,00,00
000001032,0000019A,false,0,6,FF,FF,95,7E,FF,3F,00,00
000001033,000000EF,false,0,8,B4,FE,00,7D,21,FE,7C,FF
000001034,0000019F,false,0,6,FF,FF,E9,7F,FF,2F,00,00
000001035,00000254,false,0,8,FF,7F,FF,7F,FF,7F,FF,7F
000001036,000001A1,false,0,5,E0,C3,00,00,8A,00,00,00
000001037,00000258,false,0,2,44,44,00,00,00,00,00,00
000001038,00000112,false,0,8,FA,1F,C6,0E,3A,72,85,5F
000001039,000000C0,false,0,2,F2,40,00,00,00,00,00,00
000001040,0000003C,false,0,8,FF,5F,00,00,00,00,FF,FF
000001041,00000100,false,0,8,51,FD,7F,C0,5D,66,87,70
000001042,000002A7,false,0,5,7A,FE,FE,FF,14,00,00,00
000001043,0000015F,false,0,8,42,F0,00,7D,00,EE,00,7D
000001044,0000012F,false,0,8,DD,2B,86,1C,F1,35,30,00
000001045,00000112,false,0,8,FA,1F,C6,0E,3A,72,85,5F
000001046,00000197,false,0,4,89,00,0E,C0,00,00,00,00
000001047,000000A5,false,0,8,B4,F1,FF,F7,7F,00,00,C1
000001048,000000AC,false,0,2,00,F0,00,00,00,00,00,00
000001049,000000D9,false,0,8,10,F1,00,10,00,F0,7F,C8
000001050,000000F3,false,0,8,D6,01,00,FF,F0,C0,FF,FF
000001051,00000100,false,0,8,B6,FE,7F,C0,5D,66,87,70
000001052,00000510,false,0,8,40,10,20,00,00,00,00,00
000001053,00000199,false,0,6,FF,FF,9B,7E,FF,3F,00,00
000001054,0000019A,false,0,6,FF,FF,81,7E,FF,3F,00,00
000001055,000000EF,false,0,8,B5,F0,00,7D,21,FE,7C,FF
000001056,0000019F,false,0,6,FF,FF,04,80,FF,2F,00,00
000001057,00000254,false,0,8,FF,7F,FF,7F,FF,7F,FF,7F
000001058,000001A1,false,0,5,89,C5,00,00,8A,00,00,00
000001059,00000258,false,0,2,44,44,00,00,00,00,00,00
000001060,00000112,false,0,8,FA,1F,C6,0E,3A,72,85,5F
000001061,000000A9,false,0,8,C0,78,00,90,F1,00,00,FF
000001062,00000302,false,0,7,FF,FF,FF,7F,FC,FF,FF,00
000001063,00000100,false,0,8,B7,F0,7F,C0,5D,66,87,70
000001064,000001AE,false,0,2,F7,FF,00,00,00,00,00,00
000001065,0000015F,false,0,8,1F,F1,00,7D,00,EE,00,7D
000001066,000005E1,false,0,8,40,2B,01,29,FF,FF,FF,FF
000001067,00000112,false,0,8,FA,1F,C6,0E,3A,72,85,5F
000001068,000002A1,false,0,5,80,58,02,00,F0,00,00,00
000001069,00000314,false,0,3,11,02,FF,00,00,00,00,00
000001070,000000A5,false,0,8,53,F2,FF,F7,7F,00,00,C1
000001071,000000AC,false,0,2,00,F0,00,00,00,00,00,00
000001072,000000D9,false,0,8,F7,F2,00,10,00,F0,7F,C8
000001073,000000F3,false,0,8,31,02,00,FF,F0,C0,FF,FF
000001074,00000100,false,0,8,EA,F1,7F,C0,5D,66,87,70
000001075,000002E8,false,0,8,C0,18,C5,FF,FF,F4,F7,F7
000001076,000002BB,false,0,5,07,F7,00,00,F2,00,00,00
000001077,000003FD,false,0,5,40,07,00,00,FF,00,00,00
000001078,00000108,false,0,8,00,7D,FF,FF,07,F1,FF,FF
000001079,00000206,false,0,8,52,21,5C,FF,FF,FF,FF,FF
000001080,00000212,false,0,8,F8,F8,F9,FF,FF,FF,FF,FF
000001081,000002DB,false,0,8,FF,FF,FF,FF,BF,FF,FF,FF
000001082,000002F1,false,0,8,B4,0F,00,00,00,00,00,A0
000001083,00000199,false,0,6,FF,FF,C3,7E,FF,3F,00,00
000001084,000000EF,false,0,8,E8,F1,00,7D,21,FE,7C,FF
000001085,0000019A,false,0,6,FF,FF,81,7E,FF,3F,00,00
000001086,0000019F,false,0,6,FF,FF,00,80,FF,2F,00,00
000001087,000001A1,false,0,5,AE,C7,00,00,8A,00,00,00
000001088,00000254,false,0,8,FF,7F,FF,7F,FF,7F,FF,7F
000001089,00000258,false,0,2,44,44,00,00,00,00,00,00
000001090,0000032B,false,0,8,FF,FF,FF,FF,FF,FF,00,FF
000001091,00000112,false,0,8,FA,1F,C6,0E,3A,72,85,5F
000001092,00000331,false,0,8,FF,FF,FF,EF,7F,FE,F7,FF
000001093,000003E9,false,0,8,08,52,00,00,00,00,00,00
000001094,00000197,false,0,4,06,01,0E,C0,00,00,00,00
000001095,00000100,false,0,8,0D,F2,7F,C0,5D,66,87,70
000001096,0000036E,false,0,5,55,F8,FE,FF,14,00,00,00
000001097,00000201,false,0,8,99,4F,99,4F,FF,FF,FF,FF
000001098,0000015F,false,0,8,F8,F2,00,7D,00,EE,00,7D
000001099,00000112,false,0,8,FA,1F,C6,0E,3A,72,85,5F
000001100,000002B0,false,0,6,43,4D,05,C8,FF,FF,00,00
000001101,00000301,false,0,7,FF,FF,FF,7F,FF,FF,CF,00
000001102,000000A5,false,0,8,0E,F3,FF,F7,7F,00,00,C1
000001103,000000AC,false,0,2,00,F0,00,00,00,00,00,00
000001104,000000D9,false,0,8,AA,F3,00,10,00,F0,7F,C8
000001105,000000F3,false,0,8,6C,03,00,FF,F0,C0,FF,FF
000001106,00000100,false,0,8,50,F3,7F,C0,5D,66,87,70
000001107,00000163,false,0,8,FF,FF,0E,25,FF,FF,FF,FF
000001108,00000173,false,0,8,DC,F3,00,0E,30,00,DE,10
000001109,000000EF,false,0,8,0F,F2,00,7D,21,FE,7C,FF
000001110,00000199,false,0,6,FF,FF,91,7E,FF,3F,00,00
000001111,0000019A,false,0,6,FF,FF,95,7E,FF,3F,00,00
000001112,0000019F,false,0,6,FF,FF,09,80,FF,2F,00,00
000001113,000001A1,false,0,5,5B,C9,00,00,8A,00,00,00
000001114,00000254,false,0,8,FF,7F,FF,7F,FF,7F,FF,7F
000001115,00000112,false,0,8,FA,1F,C6,0E,3A,72,85,5F
000001116,00000258,false,0,2,44,44,00,00,00,00,00,00
000001117,000002C5,false,0,7,D2,F0,00,20,06,20,CA,00
000001118,00000302,false,0,7,FF,FF,FF,7F,FC,FF,FF,00
000001119,00000100,false,0,8,DE,F4,7F,C0,5D,66,87,70
000001120,000002F0,false,0,3,35,DD,F0,00,00,00,00,00
000001121,000002F9,false,0,7,00,00,00,08,7E,C0,F3,00
000001122,0000015F,false,0,8,A5,F3,00,7D,00,EE,00,7D
000001123,000001E1,false,0,6,4E,F5,04,FF,FF,FF,00,00
000001124,00000112,false,0,8,FB,1F,C6,0E,3A,72,85,5F
000001125,00000197,false,0,4,8A,02,0E,C0,00,00,00,00
000001126,000000A5,false,0,8,80,F4,FF,F7,7F,00,00,C1
000001127,000000AC,false,0,2,00,F0,00,00,00,00,00,00
000001128,000000D9,false,0,8,24,F4,00,10,00,F0,7F,C8
000001129,000000F3,false,0,8,E2,04,00,FF,F0,C0,FF,FF
000001130,00000100,false,0,8,83,F5,7F,C0,5D,66,87,70
000001131,00000206,false,0,8,B5,22,5C,FF,FF,FF,FF,FF
000001132,00000199,false,0,6,FF,FF,CD,7E,FF,3F,00,00
000001133,0000019A,false,0,6,FF,FF,81,7E,FF,3F,00,00
000001134,000000EF,false,0,8,52,F3,00,7D,21,FE,7C,FF
000001135,0000019F,false,0,6,FF,FF,09,80,FF,2F,00,00
000001136,00000254,false,0,8,FF,7F,FF,7F,FF,7F,FF,7F
000001137,000001A1,false,0,5,7C,CB,00,00,8A,00,00,00
000001138,00000258,false,0,2,44,44,00,00,00,00,00,00
000001139,00000112,false,0,8,FA,1F,C6,0E,3A,72,85,5F
000001140,00000239,false,0,8,81,93,2A,69,01,FF,FF,FF
000001141,0000051A,false,0,8,00,00,00,00,50,00,00,1A
000001142,00000100,false,0,8,64,F6,7F,C0,5D,66,87,70
000001143,000002A7,false,0,5,8F,F0,FE,FF,14,00,00,00
000001144,000007BD,false,0,8,00,00,00,C0,FF,C0,01,00
000001145,000007BE,false,0,8,0C,41,04,68,00,00,00,00
000001146,0000015F,false,0,8,2B,F4,00,7D,00,EE,00,7D
000001147,00000112,false,0,8,FA,1F,C6,0E,3A,72,85,5F
000001148,000002E8,false,0,8,C0,18,C5,FF,FF,F4,FE,02
000001149,000002BB,false,0,5,D4,F2,00,00,F2,00,00,00
000001150,000003CA,false,0,8,93,B0,21,0A,0A,31,FF,FF
000001151,000007BE,false,0,8,07,04,00,62,06,67,00,00
000001152,000003FD,false,0,5,41,0E,00,00,FF,00,00,00
000001153,00000108,false,0,8,00,7D,FF,FF,07,F1,FF,FF
000001154,00000212,false,0,8,2A,F0,F9,FF,FF,FF,FF,FF
000001155,000002DB,false,0,8,FF,FF,FF,FF,BF,FF,FF,FF
000001156,000002F1,false,0,8,B4,0F,00,00,00,00,00,A0
000001157,00000199,false,0,6,FF,FF,B9,7E,FF,3F,00,00
000001158,0000019A,false,0,6,FF,FF,8B,7E,FF,3F,00,00
000001159,000000EF,false,0,8,63,F6,00,7D,21,F8,7C,FF
000001160,0000019F,false,0,6,FF,FF,F4,7F,FF,2F,00,00
000001161,00000254,false,0,8,FF,7F,FF,7F,FF,7F,FF,7F
000001162,000001A1,false,0,5,7D,C2,00,00,8A,00,00,00
000001163,00000258,false,0,2,44,44,00,00,00,00,00,00
000001164,00000112,false,0,8,FA,1F,C6,0E,3A,72,85,5F
000001165,00000432,false,0,8,4C,ED,10,B1,8A,FF,00,FF
000001166,00000349,false,0,5,FE,FF,F4,1A,00,00,00,00
000001167,00000302,false,0,7,FF,FF,FF,7F,FC,FF,FF,00
000001168,00000100,false,0,8,0C,FC,7F,C0,5D,66,87,70
000001169,00000201,false,0,8,39,50,39,50,FF,FF,FF,FF
000001170,0000015F,false,0,8,CC,F7,00,7D,00,EE,00,7D
000001171,00000112,false,0,8,FA,1F,C6,0E,3A,72,85,5F
000001172,000002B0,false,0,6,42,4D,05,C8,FF,FF,00,00
000001173,000000A5,false,0,8,3B,F8,FF,F7,7F,00,00,C1
000001174,000000AC,false,0,2,00,F0,00,00,00,00,00,00
000001175,000000D9,false,0,8,9F,F8,00,10,00,F0,7F,C8
000001176,000000F3,false,0,8,59,08,00,FF,F0,C0,FF,FF
000001177,00000100,false,0,8,51,FD,7F,C0,5D,66,87,70
000001178,00000206,false,0,8,66,24,5C,FF,FF,FF,FF,FF
000001179,00000163,false,0,8,FF,FF,0E,25,FF,FF,FF,FF
000001180,00000173,false,0,8,DD,FD,00,0E,30,00,DE,10
000001181,000000EF,false,0,8,3B,F7,00,7D,21,FE,7C,FF
000001182,00000199,false,0,6,FF,FF,C3,7E,FF,3F,00,00
000001183,0000019A,false,0,6,FF,FF,77,7E,FF,3F,00,00
000001184,0000019F,false,0,6,FF,FF,0B,80,FF,2F,00,00
000001185,000001A1,false,0,5,14,C4,00,00,8A,00,00,00
000001186,00000254,false,0,8,FF,7F,FF,7F,FF,7F,FF,7F
000001187,00000112,false,0,8,FA,1F,C6,0E,3A,72,85,5F
000001188,00000258,false,0,2,44,44,00,00,00,00,00,00
000001189,000002C5,false,0,7,1D,F7,00,20,06,20,CA,00
000001190,00000197,false,0,4,86,0A,0E,C0,00,00,00,01
000001191,00000100,false,0,8,B6,FE,7F,C0,5D,66,87,70
000001192,0000036F,false,0,5,49,FD,FE,FF,14,00,00,00
000001193,0000015F,false,0,8,90,F8,00,7D,00,EE,00,7D
000001194,00000112,false,0,8,FA,1F,C6,0E,3A,72,85,5F
000001195,000000A5,false,0,8,66,F9,FF,F7,7F,00,00,C1
000001196,000000AC,false,0,2,00,F0,00,00,00,00,00,00
000001197,000000D9,false,0,8,C2,F9,00,10,00,F0,7F,C8
000001198,000000F3,false,0,8,04,09,00,FF,F0,C0,FF,FF
000001199,00000100,false,0,8,B7,F0,7F,C0,5D,66,87,70
000001200,00000199,false,0,6,FF,FF,AF,7E,FF,3F,00,00
000001201,0000019A,false,0,6,FF,FF,81,7E,FF,3F,00,00
000001202,000000EF,false,0,8,67,F8,00,7D,21,FE,7C,FF
000001203,0000019F,false,0,6,FF,FF,FD,7F,FF,2F,00,00
000001204,00000254,false,0,8,FF,7F,FF,7F,FF,7F,FF,7F
000001205,000001A1,false,0,5,33,C6,00,00,8A,00,00,00
000001206,00000258,false,0,2,44,44,00,00,00,00,00,00
000001207,00000112,false,0,8,FA,1F,C6,0E,3A,72,85,5F
000001208,000002A6,false,0,2,00,AA,00,00,00,00,00,00
000001209,00000302,false,0,7,FF,FF,FF,7F,FC,FF,FF,00
000001210,00000100,false,0,8,EA,F1,7F,C0,5D,66,87,70
000001211,000007BD,false,0,8,00,00,00,C0,FF,C0,01,00
000001212,000007BE,false,0,8,05,00,00,00,00,00,00,E0
000001213,0000015F,false,0,8,CD,F9,00,7D,00,EE,00,7D
000001214,00000112,false,0,8,FA,1F,C6,0E,3A,72,85,5F
000001215,000002F5,false,0,8,71,0F,60,29,22,0A,06,10
000001216,00000197,false,0,4,09,0B,0E,C0,00,00,00,00
000001217,000002C4,false,0,8,00,00,FF,00,C8,64,FF,CF
000001218,000000A5,false,0,8,81,FA,FF,F7,7F,00,00,C1
000001219,000000D9,false,0,8,25,FA,00,10,00,F0,7F,C8
000001220,000000AC,false,0,2,00,F0,00,00,00,00,00,00
000001221,000000F3,false,0,8,E3,0A,00,FF,F0,C0,FF,FF
000001222,00000304,false,0,6,FF,FF,BF,37,FF,FF,00,00
000001223,00000100,false,0,8,0D,F2,7F,C0,5D,66,87,70
000001224,00000206,false,0,8,3B,25,5C,FF,FF,FF,FF,FF
000001225,00000201,false,0,8,44,50,44,50,FF,FF,FF,FF
000001226,00000199,false,0,6,FF,FF,AF,7E,FF,3F,00,00
000001227,0000019A,false,0,6,FF,FF,81,7E,FF,3F,00,00
000001228,000000EF,false,0,8,3A,F9,00,7D,21,FE,7C,FF
000001229,0000019F,false,0,6,FF,FF,FE,7F,FF,2F,00,00
000001230,00000254,false,0,8,FF,7F,FF,7F,FF,7F,FF,7F
000001231,000001A1,false,0,5,C6,C8,00,00,8A,00,00,00
000001232,00000258,false,0,2,44,44,00,00,00,00,00,00
000001233,00000112,false,0,8,FA,1F,C6,0E,3A,72,85,5F
000001234,000000C0,false,0,2,F6,40,00,00,00,00,00,00
000001235,0000003C,false,0,8,FF,5F,00,00,00,00,FF,FF
000001236,00000100,false,0,8,50,F3,7F,C0,5D,66,87,70
000001237,000002A7,false,0,5,8E,F9,FE,FF,14,00,00,00
000001238,0000015F,false,0,8,2A,FA,00,7D,00,EE,00,7D
000001239,0000012F,false,0,8,81,24,86,1C,F1,35,30,00
000001240,00000112,false,0,8,FA,1F,C6,0E,3A,72,85,5F
000001241,000000A5,false,0,8,DC,FB,FF,F7,7F,00,00,C1
000001242,000000AC,false,0,2,00,F0,00,00,00,00,00,00
000001243,000000D9,false,0,8,78,FB,00,10,00,F0,7F,C8
000001244,000000F3,false,0,8,BE,0B,00,FF,F0,C0,FF,FF
000001245,00000100,false,0,8,DE,F4,7F,C0,5D,66,87,70
000001246,00000199,false,0,6,FF,FF,C3,7E,FF,3F,00,00
000001247,0000019A,false,0,6,FF,FF,81,7E,FF,3F,00,00
000001248,000000EF,false,0,8,DD,FA,00,7D,21,FE,7C,FF
000001249,0000019F,false,0,6,FF,FF,03,80,FF,2F,00,00
000001250,00000254,false,0,8,FF,7F,FF,7F,FF,7F,FF,7F
000001251,000001A1,false,0,5,E1,CA,00,00,8A,00,00,00
000001252,00000258,false,0,2,44,44,00,00,00,00,00,00
000001253,000000A9,false,0,8,B0,78,00,90,F1,00,00,FF
000001254,00000112,false,0,8,FA,1F,C6,0E,3A,72,85,5F
000001255,00000197,false,0,4,83,0C,0E,C0,00,00,00,00
000001256,00000302,false,0,7,FF,FF,FF,7F,FC,FF,FF,00
000001257,00000100,false,0,8,83,F5,7F,C0,5D,66,87,70
000001258,000001AE,false,0,2,F7,FF,00,00,00,00,00,00
000001259,0000015F,false,0,8,77,FB,00,7D,00,EE,00,7D
000001260,00000112,false,0,8,FA,1F,C6,0E,3A,72,85,5F
000001261,000002A1,false,0,5,80,58,02,00,F0,00,00,00
000001262,00000314,false,0,3,11,02,FF,00,00,00,00,00
000001263,000000A5,false,0,8,52,FC,FF,F7,7F,00,00,C1
000001264,000000AC,false,0,2,00,F0,00,00,00,00,00,00
000001265,000000D9,false,0,8,F6,FC,00,10,00,F0,7F,C8
000001266,000000F3,false,0,8,30,0C,00,FF,F0,C0,FF,FF
000001267,00000100,false,0,8,64,F6,7F,C0,5D,66,87,70
000001268,000002E8,false,0,8,C0,18,C5,FF,FF,F4,F0,A4
000001269,000002BB,false,0,5,21,FC,00,00,F2,00,00,00
000001270,000007BE,false,0,8,00,C0,FA,1C,02,00,00,00
000001271,000003FD,false,0,5,B4,00,00,00,FF,00,00,00
000001272,00000108,false,0,8,00,7D,FF,FF,07,F1,FF,FF
000001273,00000206,false,0,8,DC,26,5C,FF,FF,FF,FF,FF
000001274,00000206,false,0,8,81,27,5C,FF,FF,FF,FF,FF
000001275,00000199,false,0,6,FF,FF,C3,7E,FF,3F,00,00
000001276,0000019A,false,0,6,FF,FF,8B,7E,FF,3F,00,00
000001277,000000EF,false,0,8,53,FD,00,7D,21,FE,7C,FF
000001278,0000019F,false,0,6,FF,FF,FB,7F,FF,2F,00,00
000001279,00000254,false,0,8,FF,7F,FF,7F,FF,7F,FF,7F
000001280,000001A1,false,0,5,C7,C1,00,00,8A,00,00,00
000001281,00000258,false,0,2,44,44,00,00,00,00,00,00
000001282,00000112,false,0,8,FA,1F,C6,0E,3A,72,85,5F
000001283,00000239,false,0,8,31,89,2A,69,01,FF,FF,FF
000001284,00000197,false,0,4,8F,04,0E,C0,00,00,00,00
000001285,00000100,false,0,8,82,FB,7F,C0,5D,66,87,70
000001286,0000036E,false,0,5,EE,F2,FE,FF,14,00,00,00
000001287,000007BD,false,0,8,00,00,00,C0,FF,C0,01,00
000001288,0000015F,false,0,8,43,FE,00,7D,00,EE,00,7D
000001289,00000112,false,0,8,FA,1F,C6,0E,3A,72,85,5F
000001290,000002F5,false,0,8,70,0F,60,29,22,0A,06,10
000001291,000002C4,false,0,8,00,00,FF,00,C8,64,FF,CF
000001292,000000A5,false,0,8,E9,F0,FF,F7,7F,00,00,C1
000001293,000000AC,false,0,2,00,F0,00,00,00,00,00,00
000001294,000000D9,false,0,8,4D,F0,00,10,00,F0,7F,C8
000001295,000000F3,false,0,8,8B,00,00,FF,F0,C0,FF,FF
000001296,00000337,false,0,2,FF,FF,00,00,00,00,00,00
000001297,00000100,false,0,8,0C,FC,7F,C0,5D,66,87,70
000001298,000003B4,false,0,8,00,FF,30,F0,98,FF,00,00
000001299,00000201,false,0,8,E3,50,E3,50,FF,FF,FF,FF
000001300,00000199,false,0,6,FF,FF,C3,7E,FF,3F,00,00
000001301,0000019A,false,0,6,FF,FF,8B,7E,FF,3F,00,00
000001302,000000EF,false,0,8,B4,FE,00,7D,21,FE,7C,FF
000001303,0000019F,false,0,6,FF,FF,FA,7F,FF,2F,00,00
000001304,00000254,false,0,8,FF,7F,FF,7F,FF,7F,FF,7F
000001305,000001A1,false,0,5,E0,C3,00,00,8A,00,00,00
000001306,00000258,false,0,2,44,44,00,00,00,00,00,00
000001307,00000112,false,0,8,FA,1F,C6,0E,3A,72,85,5F
000001308,0000003C,false,0,8,FF,5F,00,00,00,00,FF,FF
000001309,00000302,false,0,7,FF,FF,FF,7F,FC,FF,FF,00
000001310,00000100,false,0,8,51,FD,7F,C0,5D,66,87,70
000001311,000003A7,false,0,7,DA,F9,00,00,1F,11,F0,00
000001312,000003E6,false,0,2,82,00,00,00,00,00,00,00
000001313,0000015F,false,0,8,42,F0,00,7D,00,EE,00,7D
000001314,0000012F,false,0,8,DD,2B,86,1C,F1,35,30,00
000001315,00000112,false,0,8,FA,1F,C6,0E,3A,72,85,5F
000001316,00000197,false,0,4,00,05,0E,C0,00,00,00,00
000001317,000000A5,false,0,8,B4,F1,FF,F7,7F,00,00,C1
000001318,000000AC,false,0,2,00,F0,00,00,00,00,00,00
000001319,000000D9,false,0,8,10,F1,00,10,00,F0,7F,C8
000001320,000000F3,false,0,8,D6,01,00,FF,F0,C0,FF,FF
000001321,00000100,false,0,8,B6,FE,7F,C0,5D,66,87,70
000001322,00000297,false,0,7,FB,EE,F0,FC,F2,92,EA,00
000001323,00000206,false,0,8,DD,28,5C,FF,FF,FF,FF,FF
000001324,00000199,false,0,6,FF,FF,A5,7E,FF,3F,00,00
000001325,0000019A,false,0,6,FF,FF,77,7E,FF,3F,00,00
000001326,000000EF,false,0,8,B5,F0,00,7D,21,FE,7C,FF
000001327,0000019F,false,0,6,FF,FF,F1,7F,FF,2F,00,00
000001328,00000254,false,0,8,FF,7F,FF,7F,FF,7F,FF,7F
000001329,000001A1,false,0,5,89,C5,00,00,8A,00,00,00
000001330,00000258,false,0,2,44,44,00,00,00,00,00,00
000001331,000000A9,false,0,8,C0,78,00,90,F1,00,00,FF
000001332,00000112,false,0,8,FA,1F,C6,0E,3A,72,85,5F
000001333,00000100,false,0,8,B7,F0,7F,C0,5D,66,87,70
000001334,000002A7,false,0,5,35,F3,FE,FF,14,00,00,00
000001335,000001AE,false,0,2,F7,FF,00,00,00,00,00,00
000001336,0000015F,false,0,8,1F,F1,00,7D,00,EE,00,7D
000001337,00000112,false,0,8,FA,1F,C6,0E,3A,72,85,5F
000001338,000002A1,false,0,5,80,58,02,00,F0,00,00,00
000001339,00000431,false,0,8,CA,FF,FF,FF,FF,7C,F3,4B
000001340,000000A5,false,0,8,53,F2,FF,F7,7F,00,00,C1
000001341,000000AC,false,0,2,00,F0,00,00,00,00,00,00
000001342,000000D9,false,0,8,F7,F2,00,10,00,F0,7F,C8
000001343,000000F3,false,0,8,31,02,00,FF,F0,C0,FF,FF
000001344,00000272,false,0,8,6F,FC,01,11,FF,FF,FF,FF
000001345,00000100,false,0,8,EA,F1,7F,C0,5D,66,87,70
000001346,00000390,false,0,4,00,00,00,00,00,00,00,00
000001347,000002E8,false,0,8,C0,18,C5,FF,FF,F4,F7,F7
000001348,000002BB,false,0,5,07,F7,00,00,F2,00,00,00
000001349,000003FD,false,0,5,40,07,00,00,FF,00,00,00
000001350,00000108,false,0,8,00,7D,FF,FF,07,F1,FF,FF
000001351,00000212,false,0,8,F8,F8,F9,FF,FF,FF,FF,FF
000001352,000002DB,false,0,8,FF,FF,FF,FF,BF,FF,FF,FF
000001353,000002F1,false,0,8,B3,0F,00,00,00,00,00,A0
000001354,00000199,false,0,6,FF,FF,B9,7E,FF,3F,00,00
000001355,0000019A,false,0,6,FF,FF,6D,7E,FF,3F,00,00
000001356,000000EF,false,0,8,E8,F1,00,7D,21,FE,7C,FF
000001357,0000019F,false,0,6,FF,FF,FF,7F,FF,2F,00,00
000001358,00000254,false,0,8,FF,7F,FF,7F,FF,7F,FF,7F
000001359,000001A1,false,0,5,AE,C7,00,00,8A,00,00,00
000001360,00000258,false,0,2,44,44,00,00,00,00,00,00
000001361,00000112,false,0,8,FA,1F,C6,0E,3A,72,85,5F
000001362,00000432,false,0,8,4C,ED,10,B1,8A,FF,00,FF
000001363,00000349,false,0,5,FE,FF,F4,1A,00,00,00,00
000001364,00000197,false,0,4,8C,06,0E,C0,00,00,00,00
000001365,00000302,false,0,7,FF,FF,FF,7F,FC,FF,FF,00
000001366,00000100,false,0,8,0D,F2,7F,C0,5D,66,87,70
000001367,00000201,false,0,8,EF,50,EF,50,FF,FF,FF,FF
000001368,0000015F,false,0,8,F8,F2,00,7D,00,EE,00,7D
000001369,000002B0,false,0,6,43,4D,05,C8,FF,FF,00,00
000001370,00000112,false,0,8,FA,1F,C6,0E,3A,72,85,5F
000001371,000000A5,false,0,8,0E,F3,FF,F7,7F,00,00,C1
000001372,000000AC,false,0,2,00,F0,00,00,00,00,00,00
000001373,000000D9,false,0,8,AA,F3,00,10,00,F0,7F,C8
000001374,000000F3,false,0,8,6C,03,00,FF,F0,C0,FF,FF
000001375,00000100,false,0,8,50,F3,7F,C0,5D,66,87,70
000001376,00000206,false,0,8,80,29,5C,FF,FF,FF,FF,FF
000001377,00000163,false,0,8,FF,FF,0E,25,FF,FF,FF,FF
000001378,00000173,false,0,8,DC,F3,00,0E,30,00,DE,10
000001379,000000EF,false,0,8,0F,F2,00,7D,21,FE,7C,FF
000001380,00000199,false,0,6,FF,FF,A5,7E,FF,3F,00,00
000001381,0000019A,false,0,6,FF,FF,63,7E,FF,3F,00,00
000001382,0000019F,false,0,6,FF,FF,02,80,FF,2F,00,00
000001383,000001A1,false,0,5,5B,C9,00,00,8A,00,00,00
000001384,00000254,false,0,8,FF,7F,FF,7F,FF,7F,FF,7F
000001385,00000112,false,0,8,FA,1F,C6,0E,3A,72,85,5F
000001386,00000258,false,0,2,44,44,00,00,00,00,00,00
000001387,000003D2,false,0,2,F3,FF,00,00,00,00,00,00
000001388,000001FA,false,0,8,41,65,45,F0,4A,4B,49,4A
000001389,000002C5,false,0,7,D2,F0,00,20,06,20,CA,00
000001390,00000100,false,0,8,DE,F4,7F,C0,5D,66,87,70
000001391,0000036F,false,0,5,BC,F3,FE,FF,14,00,00,00
000001392,0000015F,false,0,8,A5,F3,00,7D,00,EE,00,7D
000001393,00000112,false,0,8,FA,1F,C6,0E,3A,72,85,5F
000001394,00000363,false,0,8,D5,14,09,09,FF,FF,FF,FF
000001395,00000197,false,0,4,03,07,0E,C0,00,00,00,00
000001396,000000A5,false,0,8,80,F4,FF,F7,7F,00,00,C1
000001397,000000AC,false,0,2,00,F0,00,00,00,00,00,00
000001398,000000D9,false,0,8,24,F4,00,10,00,F0,7F,C8
000001399,000000F3,false,0,8,E2,04,00,FF,F0,C0,FF,FF
000001400,00000258,false,0,2,44,44,00,00,00,00,00,00
000001401,000000A9,false,0,8,C0,78,00,90,F1,00,00,FF
000001402,00000112,false,0,8,FA,1F,C6,0E,3A,72,85,5F
000001403,00000302,false,0,7,FF,FF,FF,7F,FC,FF,FF,00
000001404,00000100,false,0,8,DF,FA,7F,C0,5D,66,87,70
000001405,000001AE,false,0,2,F7,FF,00,00,00,00,00,00
000001406,0000015F,false,0,8,91,F6,00,7D,00,EE,00,7D
000001407,00000112,false,0,8,FA,1F,C6,0E,3A,72,85,5F
000001408,000002A1,false,0,5,80,58,02,00,F0,00,00,00
000001409,00000197,false,0,4,80,0E,0E,C0,00,00,00,00
000001410,000000A5,false,0,8,67,F7,FF,F7,7F,00,00,C1
000001411,000000AC,false,0,2,00,F0,00,00,00,00,00,00
000001412,000000D9,false,0,8,C3,F7,00,10,00,F0,7F,C8
000001413,000000F3,false,0,8,05,07,00,FF,F0,C0,FF,FF
000001414,00000100,false,0,8,82,FB,7F,C0,5D,66,87,70
000001415,000002E8,false,0,8,C0,18,C5,FF,FF,F4,FE,02
000001416,000002BB,false,0,5,D4,F2,00,00,F2,00,00,00
000001417,000007BD,false,0,8,01,2D,55,7F,49,57,57,00
000001418,000007BE,false,0,8,0C,41,04,68,00,00,00,00
000001419,000003FD,false,0,5,41,0E,00,00,FF,00,00,00
000001420,00000108,false,0,8,00,7D,FF,FF,07,F1,FF,FF
000001421,00000206,false,0,8,3A,2B,5C,FF,FF,FF,FF,FF
000001422,00000212,false,0,8,2A,F0,F9,FF,FF,FF,FF,FF
000001423,000002DB,false,0,8,FF,FF,FF,FF,BF,FF,FF,FF
000001424,000002F1,false,0,8,B4,0F,00,00,00,00,00,A0
000001425,00000199,false,0,6,FF,FF,B9,7E,FF,3F,00,00
000001426,000000EF,false,0,8,66,F6,00,7D,21,FE,7C,FF
000001427,0000019A,false,0,6,FF,FF,77,7E,FF,3F,00,00
000001428,0000019F,false,0,6,FF,FF,F7,7F,FF,2F,00,00
000001429,000001A1,false,0,5,7D,C2,00,00,8A,00,00,00
000001430,00000254,false,0,8,FF,7F,FF,7F,FF,7F,FF,7F
000001431,00000258,false,0,2,44,44,00,00,00,00,00,00
000001432,0000032B,false,0,8,FF,FF,FF,FF,FF,FF,00,FF
000001433,00000112,false,0,8,FA,1F,C6,0E,3A,72,85,5F
000001434,00000331,false,0,8,FF,FF,FF,EF,7F,FE,F7,FF
000001435,00000397,false,0,7,00,2A,00,57,14,77,01,00
000001436,000003E9,false,0,8,08,52,00,00,00,00,00,00
000001437,00000100,false,0,8,0C,FC,7F,C0,5D,66,87,70
000001438,000002A7,false,0,5,5D,FC,FE,FF,14,00,00,00
000001439,00000201,false,0,8,8E,51,8E,51,FF,FF,FF,FF
000001440,0000015F,false,0,8,CC,F7,00,7D,00,EE,00,7D
000001441,000002B0,false,0,6,43,4D,05,C8,FF,FF,00,00
000001442,00000112,false,0,8,FA,1F,C6,0E,3A,72,85,5F
000001443,00000301,false,0,7,FF,FF,FF,7F,FF,FF,CF,00
000001444,000000A5,false,0,8,3B,F8,FF,F7,7F,00,00,C1
000001445,000000AC,false,0,2,00,F0,00,00,00,00,00,00
000001446,000000D9,false,0,8,9F,F8,00,10,00,F0,7F,C8
000001447,000000F3,false,0,8,59,08,00,FF,F0,C0,FF,FF
000001448,00000100,false,0,8,51,FD,7F,C0,5D,66,87,70
000001449,00000163,false,0,8,FF,FF,0E,25,FF,FF,FF,FF
000001450,00000173,false,0,8,DD,FD,00,0E,30,00,DE,10
000001451,000000EF,false,0,8,3B,F7,00,7D,21,FE,7C,FF
000001452,00000199,false,0,6,FF,FF,AF,7E,FF,3F,00,00
000001453,0000019A,false,0,6,FF,FF,6D,7E,FF,3F,00,00
000001454,0000019F,false,0,6,FF,FF,FE,7F,FF,2F,00,00
000001455,000001A1,false,0,5,14,C4,00,00,8A,00,00,00
000001456,00000254,false,0,8,FF,7F,FF,7F,FF,7F,FF,7F
000001457,00000112,false,0,8,FB,1F,C6,0E,3A,72,85,5F
000001458,00000258,false,0,2,44,44,00,00,00,00,00,00
000001459,000002C5,false,0,7,1D,F7,00,20,06,20,CA,00
000001460,000002CA,false,0,2,72,72,00,00,00,00,00,00
000001461,000002F7,false,0,6,0E,D8,49,09,11,F1,00,00
000001462,00000197,false,0,4,89,00,0E,C0,00,00,00,00
000001463,00000302,false,0,7,FF,FF,FF,7F,FC,FF,FF,00
000001464,00000100,false,0,8,B6,FE,7F,C0,5D,66,87,70
000001465,000003B4,false,0,8,00,FF,31,F0,BE,FF,00,00
000001466,0000015F,false,0,8,90,F8,00,7D,00,EE,00,7D
000001467,000001E1,false,0,6,FB,F1,04,FF,FF,FF,00,00
000001468,00000112,false,0,8,FA,1F,C6,0E,3A,72,85,5F
000001469,00000314,false,0,3,11,02,FF,00,00,00,00,00
000001470,000000A5,false,0,8,66,F9,FF,F7,7F,00,00,C1
000001471,000000AC,false,0,2,00,F0,00,00,00,00,00,00
000001472,000000D9,false,0,8,C2,F9,00,10,00,F0,7F,C8
000001473,000000F3,false,0,8,04,09,00,FF,F0,C0,FF,FF
000001474,00000100,false,0,8,B7,F0,7F,C0,5D,66,87,70
000001475,00000206,false,0,8,B4,2C,5C,FF,FF,FF,FF,FF
000001476,00000199,false,0,6,FF,FF,B9,7E,FF,3F,00,00
000001477,0000019A,false,0,6,FF,FF,81,7E,FF,3F,00,00
000001478,000000EF,false,0,8,67,F8,00,7D,21,FE,7C,FF
000001479,0000019F,false,0,6,FF,FF,06,80,FF,2F,00,00
000001480,00000254,false,0,8,FF,7F,FF,7F,FF,7F,FF,7F
000001481,000001A1,false,0,5,33,C6,00,00,8A,00,00,00
000001482,00000258,false,0,2,44,44,00,00,00,00,00,00
000001483,00000112,false,0,8,FB,1F,C6,0E,3A,72,85,5F
000001484,00000239,false,0,8,71,90,2A,69,01,FF,FF,FF
000001485,00000100,false,0,8,EA,F1,7F,C0,5D,66,87,70
000001486,0000036E,false,0,5,3D,F7,FE,FF,14,00,00,00
000001487,000007BD,false,0,8,00,00,00,C0,FF,C0,01,00
000001488,000007BE,false,0,8,07,05,00,63,06,67,00,00
000001489,0000015F,false,0,8,CD,F9,00,7D,00,EE,00,7D
000001490,00000112,false,0,8,FA,1F,C6,0E,3A,72,85,5F
000001491,00000397,false,0,7,00,2B,00,57,14,77,01,00
000001492,000002F5,false,0,8,71,0F,60,29,22,0A,06,10
000001493,00000197,false,0,4,06,01,0E,C0,00,00,00,00
000001494,000002C4,false,0,8,00,00,FF,00,C8,64,FF,CF
000001495,000000A5,false,0,8,81,FA,FF,F7,7F,00,00,C1
000001496,000000AC,false,0,2,00,F0,00,00,00,00,00,00
000001497,000000D9,false,0,8,25,FA,00,10,00,F0,7F,C8
000001498,000000F3,false,0,8,E3,0A,00,FF,F0,C0,FF,FF
000001499,00000100,false,0,8,0D,F2,7F,C0,5D,66,87,70
000001500,000003B4,false,0,8,00,FF,31,F0,BE,FF,00,00
000001501,00000201,false,0,8,99,51,99,51,FF,FF,FF,FF
000001502,00000199,false,0,6,FF,FF,A5,7E,FF,3F,00,00
000001503,0000019A,false,0,6,FF,FF,77,7E,FF,3F,00,00
000001504,000000EF,false,0,8,3A,F9,00,7D,21,FE,7C,FF
000001505,0000019F,false,0,6,FF,FF,07,80,FF,2F,00,00
000001506,00000254,false,0,8,FF,7F,FF,7F,FF,7F,FF,7F
000001507,000001A1,false,0,5,C6,C8,00,00,8A,00,00,00
000001508,00000258,false,0,2,44,44,00,00,00,00,00,00
000001509,00000112,false,0,8,FA,1F,C6,0E,3A,72,85,5F
000001510,0000003C,false,0,8,FF,5F,00,00,00,00,FF,FF
000001511,00000302,false,0,7,FF,FF,FF,7F,FC,FF,FF,00
000001512,00000100,false,0,8,50,F3,7F,C0,5D,66,87,70
000001513,0000015F,false,0,8,2A,FA,00,7D,00,EE,00,7D
000001514,0000012F,false,0,8,81,24,86,1C,F1,35,30,00
000001515,00000112,false,0,8,FA,1F,C6,0E,3A,72,85,5F
000001516,000000A5,false,0,8,DC,FB,FF,F7,7F,00,00,C1
000001517,000000AC,false,0,2,00,F0,00,00,00,00,00,00
000001518,000000D9,false,0,8,78,FB,00,10,00,F0,7F,C8
000001519,000000F3,false,0,8,BE,0B,00,FF,F0,C0,FF,FF
000001520,00000100,false,0,8,DE,F4,7F,C0,5D,66,87,70
000001521,00000297,false,0,7,B2,E3,F0,FC,F2,92,EA,00
000001522,00000206,false,0,8,E9,2D,5C,FF,FF,FF,FF,FF
000001523,00000199,false,0,6,FF,FF,AF,7E,FF,3F,00,00
000001524,0000019A,false,0,6,FF,FF,63,7E,FF,3F,00,00
000001525,000000EF,false,0,8,DD,FA,00,7D,21,FE,7C,FF
000001526,00000100,false,0,8,65,F8,7F,C0,5D,66,87,70
000001527,0000038E,false,0,8,00,00,0E,0E,A9,08,8C,F2
000001528,00000206,false,0,8,0E,2E,5C,FF,FF,FF,FF,FF
000001529,00000163,false,0,8,FF,FF,0E,25,FF,FF,FF,FF
000001530,00000173,false,0,8,E9,F8,00,0E,30,00,DE,10
000001531,000000EF,false,0,8,0E,FC,00,7D,21,FE,7C,FF
000001532,00000199,false,0,6,FF,FF,C3,7E,FF,3F,00,00
000001533,0000019A,false,0,6,FF,FF,63,7E,FF,3F,00,00
000001534,0000019F,false,0,6,FF,FF,F2,7F,FF,2F,00,00
000001535,000001A1,false,0,5,AF,CE,00,00,8A,00,00,00
000001536,00000254,false,0,8,FF,7F,FF,7F,FF,7F,FF,7F
000001537,00000112,false,0,8,FA,1F,C6,0E,3A,72,85,5F
000001538,00000258,false,0,2,44,44,00,00,00,00,00,00
000001539,000007BE,false,0,8,0B,00,00,00,00,00,00,00
000001540,00000100,false,0,8,38,F9,7F,C0,5D,66,87,70
000001541,000002A7,false,0,5,E6,F6,FE,FF,14,00,00,00
000001542,0000015F,false,0,8,A4,FD,00,7D,00,EE,00,7D
000001543,0000034A,false,0,8,6D,A9,D2,1B,10,A5,D0,24
000001544,00000112,false,0,8,FA,1F,C6,0E,3A,72,85,5F
000001545,000000A5,false,0,8,E8,FE,FF,F7,7F,00,00,C1
000001546,000000AC,false,0,2,00,F0,00,00,00,00,00,00
000001547,000000D9,false,0,8,4C,FE,00,10,00,F0,7F,C8
000001548,000000F3,false,0,8,8A,0E,00,FF,F0,C0,FF,FF
000001549,00000100,false,0,8,DF,FA,7F,C0,5D,66,87,70
000001550,000003E9,false,0,8,08,52,11,C1,07,00,00,00
000001551,00000199,false,0,6,FF,FF,B9,7E,FF,3F,00,00
000001552,0000019A,false,0,6,FF,FF,6D,7E,FF,3F,00,00
000001553,000000EF,false,0,8,53,FD,00,7D,21,FE,7C,FF
000001554,0000019F,false,0,6,FF,FF,0D,80,FF,2F,00,00
000001555,00000254,false,0,8,FF,7F,FF,7F,FF,7F,FF,7F
000001556,000001A1,false,0,5,C7,C1,00,00,8A,00,00,00
000001557,00000258,false,0,2,44,44,00,00,00,00,00,00
000001558,00000112,false,0,8,FA,1F,C6,0E,3A,72,85,5F
000001559,00000197,false,0,4,0A,09,0E,C0,00,00,00,00
000001560,00000302,false,0,7,FF,FF,FF,7F,FC,FF,FF,00
000001561,00000100,false,0,8,82,FB,7F,C0,5D,66,87,70
000001562,000002C5,false,0,7,51,FE,00,20,06,20,CA,00
000001563,0000015F,false,0,8,43,FE,00,7D,00,EE,00,7D
000001564,0000034C,false,0,8,78,00,00,00,00,13,F0,FF
000001565,00000397,false,0,7,00,2B,00,57,14,77,01,00
000001566,00000112,false,0,8,FA,1F,C6,0E,3A,72,85,5F
000001567,000002F5,false,0,8,71,0F,60,29,22,0A,06,10
000001568,000002C4,false,0,8,00,00,FF,00,C8,64,FF,CF
000001569,000000A5,false,0,8,E9,F0,FF,F7,7F,00,00,C1
000001570,000000D9,false,0,8,4D,F0,00,10,00,F0,7F,C8
000001571,000000AC,false,0,2,00,F0,00,00,00,00,00,00
000001572,000000F3,false,0,8,8B,00,00,FF,F0,C0,FF,FF
000001573,00000304,false,0,6,FF,FF,BE,37,FF,FF,00,00
000001574,00000100,false,0,8,0C,FC,7F,C0,5D,66,87,70
000001575,00000206,false,0,8,0F,20,5C,FF,FF,FF,FF,FF
000001576,00000201,false,0,8,3A,52,3A,52,FF,FF,FF,FF
000001577,00000199,false,0,6,FF,FF,B9,7E,FF,3F,00,00
000001578,0000019A,false,0,6,FF,FF,6D,7E,FF,3F,00,00
000001579,000000EF,false,0,8,B4,FE,00,7D,21,FE,7C,FF
000001580,0000019F,false,0,6,FF,FF,FE,7F,FF,2F,00,00
000001581,00000254,false,0,8,FF,7F,FF,7F,FF,7F,FF,7F
000001582,000001A1,false,0,5,E0,C3,00,00,8A,00,00,00
000001583,00000258,false,0,2,44,44,00,00,00,00,00,00
000001584,00000112,false,0,8,FA,1F,C6,0E,3A,72,85,5F
000001585,000000C0,false,0,2,F2,40,00,00,00,00,00,00
000001586,0000003C,false,0,8,FF,5F,00,00,00,00,FF,FF
000001587,00000100,false,0,8,51,FD,7F,C0,5D,66,87,70
000001588,0000036F,false,0,5,D4,FC,FE,FF,14,00,00,00
000001589,0000015F,false,0,8,42,F0,00,7D,00,EE,00,7D
000001590,0000034E,false,0,8,E8,FD,45,05,63,00,55,52
000001591,0000012F,false,0,8,DD,2B,86,1C,F1,35,30,00
000001592,00000112,false,0,8,F9,1F,C6,0E,3A,72,85,5F
000001593,000007BD,false,0,8,00,00,00,C0,FF,C0,01,08
000001594,000007BE,false,0,8,05,00,00,00,00,00,00,E0
000001595,00000197,false,0,4,86,0A,0E,C0,00,00,00,01
000001596,000000A5,false,0,8,B4,F1,FF,F7,7F,00,00,C1
000001597,000000AC,false,0,2,00,F0,00,00,00,00,00,00
000001598,000000D9,false,0,8,10,F1,00,10,00,F0,7F,C8
000001599,000000F3,false,0,8,D6,01,00,FF,F0,C0,FF,FF
000001600,00000100,false,0,8,B6,FE,7F,C0,5D,66,87,70
000001601,000003E9,false,0,8,08,52,11,C1,07,00,00,00
000001602,00000199,false,0,6,FF,FF,AF,7E,FF,3F,00,00
000001603,0000019A,false,0,6,FF,FF,8B,7E,FF,3F,00,00
000001604,000000EF,false,0,8,B5,F0,00,7D,21,FE,7C,FF
000001605,0000019F,false,0,6,FF,FF,F7,7F,FF,2F,00,00
000001606,00000254,false,0,8,FF,7F,FF,7F,FF,7F,FF,7F
000001607,000001A1,false,0,5,89,C5,00,00,8A,00,00,00
000001608,00000258,false,0,2,44,44,00,00,00,00,00,00
000001609,000000A9,false,0,8,B0,78,00,90,F1,00,00,FF
000001610,00000112,false,0,8,FA,1F,C6,0E,3A,72,85,5F
000001611,00000302,false,0,7,FF,FF,FF,7F,FC,FF,FF,00
000001612,00000100,false,0,8,B7,F0,7F,C0,5D,66,87,70
000001613,000001AE,false,0,2,F7,FF,00,00,00,00,00,00
000001614,0000015F,false,0,8,1F,F1,00,7D,00,EE,00,7D
000001615,000002A1,false,0,5,80,58,02,00,F0,00,00,00
000001616,00000112,false,0,8,FA,1F,C7,0E,3A,72,85,5F
000001617,000000A5,false,0,8,53,F2,FF,F7,7F,00,00,C1
000001618,000000AC,false,0,2,00,F0,00,00,00,00,00,00
000001619,000000D9,false,0,8,F7,F2,00,10,00,F0,7F,C8
000001620,000000F3,false,0,8,31,02,00,FF,F0,C0,FF,FF
000001621,00000100,false,0,8,EA,F1,7F,C0,5D,66,87,70
000001622,000002E8,false,0,8,C0,18,C5,FF,FF,F4,F7,F7
000001623,000002BB,false,0,5,07,F7,00,00,F2,00,00,00
000001624,000003FD,false,0,5,40,07,00,00,FF,00,00,00
000001625,00000108,false,0,8,E3,7D,FF,FF,47,F3,FF,FF
000001626,00000206,false,0,8,52,21,5C,FF,FF,FF,FF,FF
000001627,00000212,false,0,8,F8,F8,F9,FF,FF,FF,FF,FF
000001628,000002DB,false,0,8,FF,FF,FF,FF,BF,FF,FF,FF
000001629,000002F1,false,0,8,B4,0F,00,00,00,00,00,A0
000001630,00000199,false,0,6,FF,FF,A5,7E,FF,3F,00,00
000001631,000000EF,false,0,8,E8,F1,00,7D,21,FE,7C,FF
000001632,0000019A,false,0,6,FF,FF,77,7E,FF,3F,00,00
000001633,0000019F,false,0,6,FF,FF,FD,7F,FF,2F,00,00
000001634,000001A1,false,0,5,AE,C7,00,00,8A,00,00,00
000001635,00000254,false,0,8,FF,7F,FF,7F,FF,7F,FF,7F
000001636,00000258,false,0,2,44,44,00,00,00,00,00,00
000001637,0000032B,false,0,8,FF,FF,FF,FF,FF,FF,00,FF
000001638,00000112,false,0,8,FA,1F,C7,0E,3A,72,85,5F
000001639,00000331,false,0,8,FF,FF,FF,EF,7F,FE,F7,FF
000001640,000003E9,false,0,8,08,52,11,C1,07,00,00,00
000001641,00000197,false,0,4,09,0B,0E,C0,00,00,00,00
000001642,00000100,false,0,8,0D,F2,7F,C0,5D,66,87,70
000001643,000002A7,false,0,5,7B,F7,FE,FF,14,00,00,00
000001644,00000201,false,0,8,46,52,46,52,FF,FF,FF,FF
000001645,0000015F,false,0,8,F8,F2,00,7D,00,EE,00,7D
000001646,000002B0,false,0,6,42,4D,05,C8,FF,FF,00,00
000001647,00000112,false,0,8,F9,1F,C6,0E,3A,72,85,5F
000001648,00000301,false,0,7,FF,FF,FF,7F,FF,FF,CF,00
000001649,000000A5,false,0,8,0E,F3,FF,F7,7F,00,00,C1
000001650,000000AC,false,0,2,00,F0,00,00,00,00,00,00
000001651,000000D9,false,0,8,AA,F3,00,10,00,F0,7F,C8
000001652,000002A7,false,0,5,8F,F0,FE,FF,14,00,00,00
000001653,00000201,false,0,8,EC,52,EC,52,FF,FF,FF,FF
000001654,0000015F,false,0,8,2B,F4,00,7D,00,EE,00,7D
000001655,00000112,false,0,8,F9,1F,C6,0E,3A,72,85,5F
000001656,000002F5,false,0,8,60,0F,64,20,22,0A,06,10
000001657,000002C5,false,0,7,5B,F6,00,20,06,20,CA,00
000001658,000002C4,false,0,8,00,00,FF,00,C8,64,FF,CF
000001659,000000A5,false,0,8,DD,F5,FF,F7,7F,00,00,C1
000001660,000000AC,false,0,2,00,F0,00,00,00,00,00,00
000001661,000000D9,false,0,8,79,F5,00,10,00,F0,7F,C8
000001662,000000F3,false,0,8,BF,05,00,FF,F0,C0,FF,FF
000001663,00000100,false,0,8,39,F7,7F,C0,5D,66,87,70
000001664,000003B4,false,0,8,10,FF,71,F0,BA,FF,01,00
000001665,00000201,false,0,8,EF,52,EF,52,FF,FF,FF,FF
000001666,00000199,false,0,6,FF,FF,A5,7E,FF,3F,00,00
000001667,0000019A,false,0,6,FF,FF,77,7E,FF,3F,00,00
000001668,000000EF,false,0,8,DC,F4,00,7D,21,FE,7C,FF
000001669,0000019F,false,0,6,FF,FF,03,80,FF,2F,00,00
000001670,00000254,false,0,8,FF,7F,FF,7F,FF,7F,FF,7F
000001671,000001A1,false,0,5,15,CD,00,00,8A,00,00,00
000001672,00000258,false,0,2,44,44,00,00,00,00,00,00
000001673,00000112,false,0,8,F9,1F,C6,0E,3A,72,85,5F
000001674,00000197,false,0,4,05,03,0E,C0,00,00,00,00
000001675,00000328,false,0,6,D6,DF,2E,0B,86,1E,00,00
000001676,0000003C,false,0,8,FF,5F,00,00,00,00,FF,FF
000001677,00000302,false,0,7,FF,FF,FF,7F,FC,FF,FF,00
000001678,00000100,false,0,8,65,F8,7F,C0,5D,66,87,70
000001679,00000348,false,0,8,E7,00,0A,7F,FE,1B,FF,11
000001680,0000015F,false,0,8,76,F5,00,7D,00,EE,00,7D
000001681,0000012F,false,0,8,0F,23,86,1C,F1,35,30,00
000001682,00000112,false,0,8,F9,1F,C6,0E,3A,72,85,5F
000001683,00000314,false,0,3,11,02,FF,00,00,00,00,00
000001684,00000350,false,0,4,F3,FF,FF,FF,FF,FF,FF,FE
000001685,000000A5,false,0,8,3A,F6,FF,F7,7F,00,00,C1
000001686,000000AC,false,0,2,00,F0,00,00,00,00,00,00
000001687,000000D9,false,0,8,9E,F6,00,10,00,F0,7F,C8
000001688,000000F3,false,0,8,58,06,00,FF,F0,C0,FF,FF
000001689,00000100,false,0,8,38,F9,7F,C0,5D,66,87,70
000001690,00000297,false,0,7,FE,EA,F0,FC,F2,92,EA,00
000001691,00000206,false,0,8,E8,23,5C,FF,FF,FF,FF,FF
000001692,000007BD,false,0,8,00,00,00,C0,FF,C0,01,08
000001693,00000199,false,0,6,FF,FF,B9,7E,FF,3F,00,00
000001694,0000019A,false,0,6,FF,FF,77,7E,FF,3F,00,00
000001695,000000EF,false,0,8,81,F5,00,7D,21,FE,7C,FF
000001696,0000019F,false,0,6,FF,FF,EF,7F,FF,2F,00,00
000001697,00000254,false,0,8,FF,7F,FF,7F,FF,7F,FF,7F
000001698,000001A1,false,0,5,5A,C0,00,00,8A,00,00,00
000001699,00000258,false,0,2,44,44,00,00,00,00,00,00
000001700,000007BE,false,0,8,0C,41,04,68,00,00,00,00
000001701,000000A9,false,0,8,C0,78,00,90,F1,00,00,FF
000001702,00000112,false,0,8,FA,1F,C6,0E,3A,72,85,5F
000001703,00000100,false,0,8,DF,FA,7F,C0,5D,66,87,70
000001704,0000036E,false,0,5,54,F1,FE,FF,14,00,00,00
000001705,000001AE,false,0,2,F7,FF,00,00,00,00,00,00
000001706,0000015F,false,0,8,91,F6,00,7D,00,EE,00,7D
000001707,0000043D,false,0,8,0A,F7,E6,FF,1E,0F,01,F0
000001708,000002A1,false,0,5,80,58,02,00,F0,00,00,00
000001709,00000112,false,0,8,FD,1F,C7,0E,3A,72,85,5F
000001710,00000431,false,0,8,CA,FF,AF,00,23,7C,F3,4B
000001711,00000197,false,0,4,8F,04,0E,C0,00,00,00,00
000001712,000000A5,false,0,8,67,F7,FF,F7,7F,00,00,C1
000001713,000000AC,false,0,2,00,F0,00,00,00,00,00,00
000001714,000000D9,false,0,8,C3,F7,00,10,00,F0,7F,C8
000001715,000000F3,false,0,8,05,07,00,FF,F0,C0,FF,FF
000001716,00000100,false,0,8,82,FB,7F,C0,5D,66,87,70
000001717,000002E8,false,0,8,C0,18,C5,FF,FF,F4,FE,02
000001718,000002BB,false,0,5,D4,F2,00,00,F2,00,00,00
000001719,00000272,false,0,8,06,F8,01,11,FF,FF,FF,FF
000001720,000003FD,false,0,5,41,0E,00,00,FF,00,00,00
000001721,00000108,false,0,8,ED,7D,FF,FF,47,F3,FF,FF
000001722,00000212,false,0,8,2A,F0,F9,FF,FF,FF,FF,FF
000001723,000002DB,false,0,8,FF,FF,FF,FF,BF,FF,FF,FF
000001724,000002F1,false,0,8,A2,0F,00,00,00,00,00,A0
000001725,00000199,false,0,6,FF,FF,9B,7E,FF,3F,00,00
000001726,0000019A,false,0,6,FF,FF,8B,7E,FF,3F,00,00
000001727,000000EF,false,0,8,66,F6,00,7D,21,FE,7C,FF
000001728,0000019F,false,0,6,FF,FF,FD,7F,FF,2F,00,00
000001729,00000254,false,0,8,FF,7F,FF,7F,FF,7F,FF,7F
000001730,000001A1,false,0,5,7D,C2,00,00,8A,00,00,00
000001731,00000258,false,0,2,44,44,00,00,00,00,00,00
000001732,00000112,false,0,8,FF,1F,C7,0E,3A,72,85,5F
000001733,00000432,false,0,8,4C,ED,10,B1,8A,FF,00,FF
000001734,00000349,false,0,5,FE,FF,F4,1A,00,00,00,00
000001735,00000302,false,0,7,FF,FF,FF,7F,FC,FF,FF,00
000001736,00000100,false,0,8,0C,FC,7F,C0,5D,66,87,70
000001737,00000201,false,0,8,FC,52,FC,52,FF,FF,FF,FF
000001738,0000015F,false,0,8,CC,F7,00,7D,00,EE,00,7D
000001739,0000043C,false,0,8,FE,FE,FF,FF,FF,FF,FF,FF
000001740,000002B0,false,0,6,43,4D,05,C8,FF,FF,00,00
000001741,00000112,false,0,8,01,20,C7,0E,3A,72,85,5F
000001742,000000A5,false,0,8,3B,F8,FF,F7,7F,00,00,C1
000001743,000000AC,false,0,2,00,F0,00,00,00,00,00,00
000001744,000000D9,false,0,8,9F,F8,00,10,00,F0,7F,C8
000001745,000000F3,false,0,8,59,08,00,FF,F0,C0,FF,FF
000001746,00000100,false,0,8,51,FD,7F,C0,5D,66,87,70
000001747,00000206,false,0,8,66,24,5C,FF,FF,FF,FF,FF
000001748,00000163,false,0,8,FF,FF,0D,25,FF,FF,FF,FF
000001749,00000173,false,0,8,DD,FD,00,0E,30,00,DE,10
000001750,000000EF,false,0,8,3B,F7,00,7D,21,FE,7C,FF
000001751,00000199,false,0,6,FF,FF,A5,7E,FF,3F,00,00
000001752,0000019A,false,0,6,FF,FF,77,7E,FF,3F,00,00
000001753,0000019F,false,0,6,FF,FF,03,80,FF,2F,00,00
000001754,000001A1,false,0,5,14,C4,00,00,8A,00,00,00
000001755,00000254,false,0,8,FF,7F,FF,7F,FF,7F,FF,7F
000001756,00000112,false,0,8,03,20,C7,0E,3A,72,85,5F
000001757,00000258,false,0,2,44,44,00,00,00,00,00,00
000001758,00000197,false,0,4,00,05,0E,C0,00,00,00,00
000001759,00000100,false,0,8,B6,FE,7F,C0,5D,66,87,70
000001760,000002A7,false,0,5,12,F1,FE,FF,14,00,00,00
000001761,000003CA,false,0,8,93,B0,21,0A,0A,31,FF,FF
000001762,000007BE,false,0,8,07,05,00,64,06,67,00,00
000001763,0000015F,false,0,8,90,F8,00,7D,00,EE,00,7D
000001764,00000112,false,0,8,04,20,C7,0E,3A,72,85,5F
000001765,000000A5,false,0,8,66,F9,FF,F7,7F,00,00,C1
000001766,000000AC,false,0,2,00,F0,00,00,00,00,00,00
000001767,000000D9,false,0,8,C2,F9,00,10,00,F0,7F,C8
000001768,000000F3,false,0,8,04,09,00,FF,F0,C0,FF,FF
000001769,00000100,false,0,8,B7,F0,7F,C0,5D,66,87,70
000001770,00000199,false,0,6,FF,FF,C3,7E,FF,3F,00,00
000001771,0000019A,false,0,6,FF,FF,95,7E,FF,3F,00,00
000001772,000000EF,false,0,8,67,F8,00,7D,21,FE,7C,FF
000001773,0000019F,false,0,6,FF,FF,FF,7F,FF,2F,00,00
000001774,00000254,false,0,8,FF,7F,FF,7F,FF,7F,FF,7F
000001775,000001A1,false,0,5,33,C6,00,00,8A,00,00,00
000001776,00000258,false,0,2,44,44,00,00,00,00,00,00
000001777,00000112,false,0,8,05,20,C7,0E,3A,72,85,5F
000001778,000000A9,false,0,8,C0,78,00,90,F1,00,00,FF
000001779,00000112,false,0,8,3E,20,CC,0E,3A,72,85,5F
000001780,000002F5,false,0,8,60,0F,70,20,22,0A,06,10
000001781,00000197,false,0,4,83,0C,0E,C0,00,00,00,00
000001782,00000302,false,0,7,FF,FF,FF,7F,FC,FF,FF,00
000001783,00000100,false,0,8,05,F5,7F,C0,5D,69,87,70
000001784,000001AE,false,0,2,F7,FF,00,00,00,00,00,00
000001785,000001D0,false,0,8,D7,FC,DF,FF,FF,FF,FF,FF
000001786,000001B9,false,0,5,FF,FF,FF,14,FF,00,00,00
000001787,0000015F,false,0,8,77,FB,00,7D,00,EE,00,7D
000001788,000002A1,false,0,5,80,58,02,00,F0,00,00,00
000001789,00000112,false,0,8,3F,20,CC,0E,3A,72,85,5F
000001790,000002ED,false,0,3,8E,0D,02,00,00,00,00,00
000001791,000000A5,false,0,8,52,FC,FF,F7,7F,00,00,C1
000001792,000000AC,false,0,2,00,F0,00,00,00,00,00,00
000001793,000000D9,false,0,8,F6,FC,00,10,00,F0,7F,C8
000001794,000000F3,false,0,8,30,0C,00,FF,F0,C0,FF,FF
000001795,00000100,false,0,8,E2,F6,7F,C0,5D,69,87,70
000001796,000002BB,false,0,5,21,FC,00,00,F2,00,00,00
000001797,000002E8,false,0,8,C0,18,C5,FF,FF,F4,F6,EA
000001798,000001F9,false,0,2,FD,FF,00,00,00,00,00,00
000001799,000003FD,false,0,5,DD,06,00,00,FF,00,00,00
000001800,00000108,false,0,8,ED,7D,FF,44,48,F3,FF,FF
000001801,00000201,false,0,8,A8,53,A8,53,FF,FF,FF,FF
000001802,00000206,false,0,8,DC,26,5C,FF,FF,FF,FF,FF
000001803,00000212,false,0,8,A4,F7,F9,FF,FF,FF,FF,FF
000001804,000002DB,false,0,8,FF,FF,FF,FF,BF,FF,FF,FF
000001805,00000199,false,0,6,FF,FF,C3,7E,FF,3F,00,00
000001806,000000EF,false,0,8,80,FB,00,7D,21,FE,7C,FF
000001807,0000019A,false,0,6,FF,FF,6D,7E,FF,3F,00,00
000001808,0000019F,false,0,6,FF,FF,FE,7F,FF,2F,00,00
000001809,000001A1,false,0,5,88,CC,00,00,8A,00,00,00
000001810,00000254,false,0,8,FF,7F,FF,7F,FF,7F,FF,7F
000001811,00000258,false,0,2,44,44,00,00,00,00,00,00
000001812,000002F1,false,0,8,A2,0F,00,00,00,00,00,A0
000001813,00000112,false,0,8,40,20,CC,0E,3A,72,85,5F
000001814,000002FA,false,0,8,FD,FF,00,FF,FF,FF,FF,FF
000001815,0000032B,false,0,8,FF,FF,FF,FF,FF,FF,00,FF
000001816,00000331,false,0,8,FF,FF,FF,EF,7F,FE,F7,FF
000001817,000003AD,false,0,8,00,F0,FF,FF,FF,FF,FF,FB
000001818,000003E8,false,0,2,F1,FF,00,00,00,00,00,00
000001819,000003E9,false,0,8,08,52,21,E1,07,00,00,C1
000001820,00000100,false,0,8,BF,F7,7F,C0,5D,69,87,70
000001821,0000036F,false,0,5,6F,F6,FE,FF,14,00,00,00
000001822,00000201,false,0,8,AA,53,AA,53,FF,FF,FF,FF
000001823,0000015F,false,0,8,F9,FC,00,7D,00,EE,00,7D
000001824,000002B0,false,0,6,42,4D,05,C8,FF,FF,00,00
000001825,00000112,false,0,8,41,20,CC,0E,3A,72,85,5F
000001826,00000301,false,0,7,FF,FF,FF,7F,FF,FF,CF,00
000001827,00000197,false,0,4,0C,0D,0E,C0,00,00,00,00
000001828,000000A5,false,0,8,0F,FD,FF,F7,7F,00,00,C1
000001829,000000AC,false,0,2,00,F0,00,00,00,00,00,00
000001830,000000D9,false,0,8,AB,FD,00,10,00,F0,7F,C8
000001831,000000F3,false,0,8,6D,0D,00,FF,F0,C0,FF,FF
000001832,00000100,false,0,8,E3,F8,7F,C0,5D,69,87,70
000001833,00000163,false,0,8,FF,FF,0D,25,FF,FF,FF,FF
000001834,00000173,false,0,8,E9,F8,00,0E,30,00,DE,10
000001835,000000EF,false,0,8,0E,FC,00,7D,21,FE,7C,FF
000001836,00000199,false,0,6,FF,FF,B9,7E,FF,3F,00,00
000001837,0000019A,false,0,6,FF,FF,77,7E,FF,3F,00,00
000001838,0000019F,false,0,6,FF,FF,02,80,FF,2F,00,00
000001839,000001A1,false,0,5,AF,CE,00,00,8A,00,00,00
000001840,00000254,false,0,8,FF,7F,FF,7F,FF,7F,FF,7F
000001841,00000258,false,0,2,44,44,00,00,00,00,00,00
000001842,00000112,false,0,8,42,20,CC,0E,3A,72,85,5F
000001843,00000302,false,0,7,FF,FF,FF,7F,FC,FF,FF,00
000001844,00000100,false,0,8,BE,F9,7F,C0,5D,69,87,70
000001845,000007BD,false,0,8,11,00,00,00,00,00,00,00
000001846,000007BE,false,0,8,0B,00,00,00,00,00,00,00
000001847,0000015F,false,0,8,A4,FD,00,7D,00,EE,00,7D
000001848,000001E1,false,0,6,53,FC,04,FF,FF,FF,00,00
000001849,00000112,false,0,8,42,20,CC,0E,3A,72,85,5F
000001850,000000A5,false,0,8,E8,FE,FF,F7,7F,00,00,C1
000001851,000000AC,false,0,2,00,F0,00,00,00,00,00,00
000001852,000000D9,false,0,8,4C,FE,00,10,00,F0,7F,C8
000001853,000000F3,false,0,8,8A,0E,00,FF,F0,C0,FF,FF
000001854,00000100,false,0,8,59,FA,7F,C0,5D,69,87,70
000001855,00000206,false,0,8,81,27,5C,FF,FF,FF,FF,FF
000001856,00000199,false,0,6,FF,FF,B9,7E,FF,3F,00,00
000001857,0000019A,false,0,6,FF,FF,77,7E,FF,3F,00,00
000001858,000000EF,false,0,8,53,FD,00,7D,21,FE,7C,FF
000001859,0000019F,false,0,6,FF,FF,FD,7F,FF,2F,00,00
000001860,00000254,false,0,8,FF,7F,FF,7F,FF,7F,FF,7F
000001861,000001A1,false,0,5,C7,C1,00,00,8A,00,00,00
000001862,00000258,false,0,2,44,44,00,00,00,00,00,00
000001863,00000112,false,0,8,43,20,CC,0E,3A,72,85,5F
000001864,00000239,false,0,8,31,89,2A,4E,01,FF,FF,FF
000001865,00000197,false,0,4,80,0E,0E,C0,00,00,00,00
000001866,00000100,false,0,8,04,FB,7F,C0,5D,69,87,70
000001867,000002A7,false,0,5,34,FA,FE,FF,14,00,00,00
000001868,0000015F,false,0,8,43,FE,00,7D,00,EE,00,7D
000001869,00000112,false,0,8,44,20,CC,0E,3A,72,85,5F
000001870,000002F5,false,0,8,60,0F,70,20,22,0A,06,10
000001871,000002C4,false,0,8,00,00,FF,00,C8,64,FF,CF
000001872,000000A5,false,0,8,E9,F0,FF,F7,7F,00,00,C1
000001873,000000AC,false,0,2,00,F0,00,00,00,00,00,00
000001874,000000D9,false,0,8,4D,F0,00,10,00,F0,7F,C8
000001875,000000F3,false,0,8,8B,00,00,FF,F0,C0,FF,FF
000001876,000002C5,false,0,7,51,FE,00,20,06,20,CA,00
000001877,00000100,false,0,8,8A,FC,7F,C0,5D,69,87,70
000001878,00000201,false,0,8,B5,53,B5,53,FF,FF,FF,FF
000001879,00000337,false,0,2,FF,FF,00,00,00,00,00,00
000001880,00000510,false,0,8,40,10,20,00,00,00,00,00
000001881,000003B4,false,0,8,10,FF,71,F0,BA,FF,01,00
000001882,00000199,false,0,6,FF,FF,AF,7E,FF,3F,00,00
000001883,0000019A,false,0,6,FF,FF,8B,7E,FF,3F,00,00
000001884,000000EF,false,0,8,B4,FE,00,7D,21,FE,7C,FF
