Time Stamp,ID,Extended,Bus,LEN,D1,D2,D3,D4,D5,D6,D7,D8
000000000,000007BE,false,0,8,07,04,00,61,06,67,00,00
000000001,000000A5,false,0,8,52,FC,FF,F7,7F,00,00,C1
000000002,000000AC,false,0,2,00,F0,00,00,00,00,00,00
000000003,000000D9,false,0,8,F6,FC,00,10,00,F0,7F,C8
000000004,000000F3,false,0,8,30,0C,00,FF,F0,C0,FF,FF
000000005,00000112,false,0,8,FA,1F,C7,0E,3A,72,85,5F
000000006,00000431,false,0,8,CA,FF,FF,FF,FF,6C,F3,4B
000000007,00000100,false,0,8,64,F6,7F,C0,5D,66,87,70
000000008,000002BB,false,0,5,21,FC,00,00,F2,00,00,00
000000009,000002E8,false,0,8,C0,18,C5,FF,FF,F4,F9,51
000000010,000003FD,false,0,5,B5,09,00,00,FF,00,00,00
000000011,00000108,false,0,8,00,7D,FF,FF,07,F1,FF,FF
000000012,00000212,false,0,8,42,FA,F9,FF,FF,FF,FF,FF
000000013,000002DB,false,0,8,FF,FF,FF,FF,BF,FF,FF,FF
000000014,000002F1,false,0,8,B4,0F,00,00,00,00,00,A0
000000015,000000EF,false,0,8,80,FB,00,7D,21,FE,7C,FF
000000016,000001A1,false,0,5,88,CC,00,00,8A,00,00,00
000000017,00000397,false,0,7,00,2B,00,57,14,77,01,00
000000018,00000112,false,0,8,FA,1F,C7,0E,3A,72,85,5F
000000019,00000432,false,0,8,4C,ED,10,B1,8A,FF,00,FF
000000020,00000349,false,0,5,FE,FF,F4,1A,00,00,00,00
000000021,00000100,false,0,8,39,F7,7F,C0,5D,66,87,70
000000022,00000302,false,0,7,FF,FF,FF,7F,FC,FF,FF,00
000000023,00000199,false,0,6,FF,FF,B9,7E,FF,3F,00,00
000000024,0000019A,false,0,6,FF,FF,81,7E,FF,3F,00,00
000000025,0000019F,false,0,6,FF,FF,00,80,FF,2F,00,00
000000026,00000254,false,0,8,FF,7F,FF,7F,FF,7F,FF,7F
000000027,00000258,false,0,2,44,44,00,00,00,00,00,00
000000028,00000201,false,0,8,44,5B,44,5B,FF,FF,FF,FF
000000029,0000015F,false,0,8,F9,FC,00,7D,00,EE,00,7D
000000030,000002B0,false,0,6,43,4D,05,C8,FF,FF,00,00
000000031,0000043C,false,0,8,FE,FE,FF,FF,FF,FF,FF,FF
000000032,000000A5,false,0,8,0F,FD,FF,F7,7F,00,00,C1
000000033,000000AC,false,0,2,00,F0,00,00,00,00,00,00
000000034,000000D9,false,0,8,AB,FD,00,10,00,F0,7F,C8
000000035,000000F3,false,0,8,6D,0D,00,FF,F0,C0,FF,FF
000000036,00000112,false,0,8,FA,1F,C7,0E,3A,72,85,5F
000000037,00000197,false,0,4,85,08,0E,C0,00,00,00,00
000000038,00000100,false,0,8,65,F8,7F,C0,5D,66,87,70
000000039,00000206,false,0,8,0E,2E,5C,FF,FF,FF,FF,FF
000000040,000000EF,false,0,8,0E,FC,00,7D,21,FE,7C,FF
000000041,000001A1,false,0,5,AF,CE,00,00,8A,00,00,00
000000042,00000163,false,0,8,FF,FF,0D,25,FF,FF,FF,FF
000000043,00000173,false,0,8,B4,F9,00,0E,30,00,DE,10
000000044,00000112,false,0,8,FA,1F,C7,0E,3A,72,85,5F
000000045,00000100,false,0,8,38,F9,7F,C0,5D,66,87,70
000000046,000002A7,false,0,5,E6,F6,FE,FF,14,00,00,00
000000047,00000199,false,0,6,FF,FF,C3,7E,FF,3F,00,00
000000048,0000019A,false,0,6,FF,FF,8B,7E,FF,3F,00,00
000000049,0000019F,false,0,6,FF,FF,FE,7F,FF,2F,00,00
000000050,00000254,false,0,8,FF,7F,FF,7F,FF,7F,FF,7F
000000051,00000258,false,0,2,44,44,00,00,00,00,00,00
000000052,0000015F,false,0,8,A4,FD,00,7D,00,EE,00,7D
000000053,000000A5,false,0,8,E8,FE,FF,F7,7F,00,00,C1
000000054,000000AC,false,0,2,00,F0,00,00,00,00,00,00
000000055,000000D9,false,0,8,4C,FE,00,10,00,F0,7F,C8
000000056,000000F3,false,0,8,8A,0E,00,FF,F0,C0,FF,FF
000000057,00000112,false,0,8,FA,1F,C7,0E,3A,72,85,5F
000000058,00000100,false,0,8,DF,FA,7F,C0,5D,66,87,70
000000059,000000EF,false,0,8,53,FD,00,7D,21,FE,7C,FF
000000060,000001A1,false,0,5,C7,C1,00,00,8A,00,00,00
000000061,000003CA,false,0,8,85,B0,21,0A,0A,71,FF,FF
000000062,000007BE,false,0,8,00,C0,FA,1C,02,00,00,00
000000063,00000112,false,0,8,FA,1F,C7,0E,3A,72,85,5F
000000064,00000197,false,0,4,0A,09,0E,C0,00,00,00,00
000000065,000002A6,false,0,2,00,B2,00,00,00,00,00,00
000000066,00000100,false,0,8,82,FB,7F,C0,5D,66,87,70
000000067,00000302,false,0,7,FF,FF,FF,7F,FC,FF,FF,00
000000068,00000199,false,0,6,FF,FF,AF,7E,FF,3F,00,00
000000069,0000019A,false,0,6,FF,FF,81,7E,FF,3F,00,00
000000070,0000019F,false,0,6,FF,FF,00,80,FF,2F,00,00
000000071,00000254,false,0,8,FF,7F,FF,7F,FF,7F,FF,7F
000000072,00000258,false,0,2,44,44,00,00,00,00,00,00
000000073,0000015F,false,0,8,43,FE,00,7D,00,EE,00,7D
000000074,000002C4,false,0,8,00,00,FF,00,C8,64,FF,CF
000000075,000000A5,false,0,8,E9,F0,FF,F7,7F,00,00,C1
000000076,000000AC,false,0,2,00,F0,00,00,00,00,00,00
000000077,000000D9,false,0,8,4D,F0,00,10,00,F0,7F,C8
000000078,000000F3,false,0,8,8B,00,00,FF,F0,C0,FF,FF
000000079,00000112,false,0,8,FA,1F,C7,0E,3A,72,85,5F
000000080,00000304,false,0,6,FF,FF,BF,37,FF,FF,00,00
000000081,000002F5,false,0,8,71,0F,60,29,22,0A,06,10
000000082,00000100,false,0,8,0C,FC,7F,C0,5D,66,87,70
000000083,00000314,false,0,3,11,02,FF,00,00,00,00,00
000000084,00000206,false,0,8,0F,20,5C,FF,FF,FF,FF,FF
000000085,00000201,false,0,8,4F,5B,4F,5B,FF,FF,FF,FF
000000086,000000EF,false,0,8,B4,FE,00,7D,21,FE,7C,FF
000000087,000001A1,false,0,5,E0,C3,00,00,8A,00,00,00
000000088,00000112,false,0,8,FA,1F,C7,0E,3A,72,85,5F
000000089,00000100,false,0,8,51,FD,7F,C0,5D,66,87,70
000000090,0000036E,false,0,5,87,F4,FE,FF,14,00,00,00
000000091,000002C5,false,0,7,5E,F2,00,20,06,20,CA,00
000000092,00000199,false,0,6,FF,FF,AF,7E,FF,3F,00,00
000000093,0000019A,false,0,6,FF,FF,8B,7E,FF,3F,00,00
000000094,0000019F,false,0,6,FF,FF,09,80,FF,2F,00,00
000000095,00000254,false,0,8,FF,7F,FF,7F,FF,7F,FF,7F
000000096,00000258,false,0,2,44,44,00,00,00,00,00,00
000000097,0000015F,false,0,8,42,F0,00,7D,00,EE,00,7D
000000098,00000197,false,0,4,06,01,0E,C0,00,00,00,00
000000099,00000112,false,0,8,FA,1F,C7,0E,3A,72,85,5F
000000100,00000100,false,0,8,0D,F2,7F,C0,5D,66,87,70
000000101,0000036E,false,0,5,55,F8,FE,FF,14,00,00,00
000000102,00000199,false,0,6,FF,FF,B9,7E,FF,3F,00,00
000000103,0000019A,false,0,6,FF,FF,8B,7E,FF,3F,00,00
000000104,0000019F,false,0,6,FF,FF,FD,7F,FF,2F,00,00
000000105,00000254,false,0,8,FF,7F,FF,7F,FF,7F,FF,7F
000000106,00000258,false,0,2,44,44,00,00,00,00,00,00
000000107,00000201,false,0,8,E3,5B,E3,5B,FF,FF,FF,FF
000000108,0000015F,false,0,8,F8,F2,00,7D,00,EE,00,7D
000000109,000002B0,false,0,6,42,4D,05,C8,FF,FF,00,00
000000110,00000301,false,0,7,FF,FF,FF,7F,FF,FF,CF,00
000000111,000000A5,false,0,8,0E,F3,FF,F7,7F,00,00,C1
000000112,000000AC,false,0,2,00,F0,00,00,00,00,00,00
000000113,000000D9,false,0,8,AA,F3,00,10,00,F0,7F,C8
000000114,000000F3,false,0,8,6C,03,00,FF,F0,C0,FF,FF
000000115,00000112,false,0,8,FA,1F,C7,0E,3A,72,85,5F
000000116,00000100,false,0,8,50,F3,7F,C0,5D,66,87,70
000000117,000000EF,false,0,8,0F,F2,00,7D,21,FE,7C,FF
000000118,000001A1,false,0,5,5B,C9,00,00,8A,00,00,00
000000119,00000163,false,0,8,FF,FF,0D,25,FF,FF,FF,FF
000000120,00000173,false,0,8,52,F4,00,0E,30,00,DE,10
000000121,00000112,false,0,8,FA,1F,C7,0E,3A,72,85,5F
000000122,00000272,false,0,8,89,F1,01,11,FF,FF,FF,FF
000000123,00000100,false,0,8,DE,F4,7F,C0,5D,66,87,70
000000124,00000302,false,0,7,FF,FF,FF,7F,FC,FF,FF,00
000000125,00000199,false,0,6,FF,FF,AF,7E,FF,3F,00,00
000000126,0000019A,false,0,6,FF,FF,81,7E,FF,3F,00,00
000000127,0000019F,false,0,6,FF,FF,02,80,FF,2F,00,00
000000128,00000254,false,0,8,FF,7F,FF,7F,FF,7F,FF,7F
000000129,00000258,false,0,2,44,44,00,00,00,00,00,00
000000130,0000015F,false,0,8,A5,F3,00,7D,00,EE,00,7D
000000131,000000A5,false,0,8,80,F4,FF,F7,7F,00,00,C1
000000132,000000AC,false,0,2,00,F0,00,00,00,00,00,00
000000133,000000D9,false,0,8,24,F4,00,10,00,F0,7F,C8
000000134,000000F3,false,0,8,E2,04,00,FF,F0,C0,FF,FF
000000135,00000112,false,0,8,FA,1F,C7,0E,3A,72,85,5F
000000136,000001E1,false,0,6,45,F2,04,FF,FF,FF,00,00
000000137,00000197,false,0,4,8A,02,0E,C0,00,00,00,00
000000138,00000100,false,0,8,83,F5,7F,C0,5D,66,87,70
000000139,00000206,false,0,8,B5,22,5C,FF,FF,FF,FF,FF
000000140,000000EF,false,0,8,52,F3,00,7D,21,FE,7C,FF
000000141,000001A1,false,0,5,7C,CB,00,00,8A,00,00,00
000000142,000007BD,false,0,8,11,00,00,00,00,00,00,00
000000143,000007BE,false,0,8,0B,00,00,00,00,00,00,00
000000144,00000112,false,0,8,FB,1F,C7,0E,3A,72,85,5F
000000145,00000239,false,0,8,71,8F,2A,57,01,FF,FF,FF
000000146,00000100,false,0,8,64,F6,7F,C0,5D,66,87,70
000000147,000002A7,false,0,5,8F,F0,FE,FF,14,00,00,00
000000148,00000199,false,0,6,FF,FF,B9,7E,FF,3F,00,00
000000149,0000019A,false,0,6,FF,FF,81,7E,FF,3F,00,00
000000150,0000019F,false,0,6,FF,FF,07,80,FF,2F,00,00
000000151,00000254,false,0,8,FF,7F,FF,7F,FF,7F,FF,7F
000000152,00000258,false,0,2,44,44,00,00,00,00,00,00
000000153,0000015F,false,0,8,2B,F4,00,7D,00,EE,00,7D
000000154,000002C4,false,0,8,00,00,FF,00,C8,64,FF,CF
000000155,000000A5,false,0,8,DD,F5,FF,F7,7F,00,00,C1
000000156,000000AC,false,0,2,00,F0,00,00,00,00,00,00
000000157,000000D9,false,0,8,79,F5,00,10,00,F0,7F,C8
000000158,000000F3,false,0,8,BF,05,00,FF,F0,C0,FF,FF
000000159,00000112,false,0,8,FA,1F,C7,0E,3A,72,85,5F
000000160,000002F5,false,0,8,71,0F,60,29,22,0A,06,10
000000161,00000100,false,0,8,39,F7,7F,C0,5D,66,87,70
000000162,00000201,false,0,8,EF,5B,EF,5B,FF,FF,FF,FF
000000163,000000EF,false,0,8,DC,F4,00,7D,21,FE,7C,FF
000000164,000001A1,false,0,5,15,CD,00,00,8A,00,00,00
000000165,00000112,false,0,8,FB,1F,C7,0E,3A,72,85,5F
000000166,00000197,false,0,4,05,03,0E,C0,00,00,00,00
000000167,00000100,false,0,8,65,F8,7F,C0,5D,66,87,70
000000168,00000302,false,0,7,FF,FF,FF,7F,FC,FF,FF,00
000000169,000002C5,false,0,7,9E,F9,00,20,06,20,CA,00
000000170,00000199,false,0,6,FF,FF,CD,7E,FF,3F,00,00
000000171,0000019A,false,0,6,FF,FF,95,7E,FF,3F,00,00
000000172,0000019F,false,0,6,FF,FF,FD,7F,FF,2F,00,00
000000173,00000254,false,0,8,FF,7F,FF,7F,FF,7F,FF,7F
000000174,00000258,false,0,2,44,44,00,00,00,00,00,00
000000175,00000348,false,0,8,E7,00,0A,7F,FE,60,CC,11
000000176,000003A7,false,0,7,10,FA,00,00,1F,11,F0,00
000000177,000003E6,false,0,2,82,00,00,00,00,00,00,00
000000178,0000015F,false,0,8,76,F5,00,7D,00,EE,00,7D
000000179,000000A5,false,0,8,3A,F6,FF,F7,7F,00,00,C1
000000180,000000AC,false,0,2,00,F0,00,00,00,00,00,00
000000181,000000D9,false,0,8,9E,F6,00,10,00,F0,7F,C8
000000182,000000F3,false,0,8,58,06,00,FF,F0,C0,FF,FF
000000183,00000112,false,0,8,FA,1F,C7,0E,3A,72,85,5F
000000184,0000012F,false,0,8,6D,27,86,1B,F1,35,30,00
000000185,00000100,false,0,8,38,F9,7F,C0,5D,66,87,70
000000186,0000003C,false,0,8,FF,5F,00,00,00,00,FF,FF
000000187,00000297,false,0,7,7D,E4,F0,FC,F2,92,EA,00
000000188,00000206,false,0,8,E8,23,5C,FF,FF,FF,FF,FF
000000189,000000EF,false,0,8,81,F5,00,7D,21,FE,7C,FF
000000190,000001A1,false,0,5,5A,C0,00,00,8A,00,00,00
000000191,000000A9,false,0,8,B0,78,00,90,F1,00,00,FF
000000192,00000112,false,0,8,FA,1F,C7,0E,3A,72,85,5F
000000193,00000100,false,0,8,DF,FA,7F,C0,5D,66,87,70
000000194,00000199,false,0,6,FF,FF,A5,7E,FF,3F,00,00
000000195,0000019A,false,0,6,FF,FF,81,7E,FF,3F,00,00
000000196,0000019F,false,0,6,FF,FF,01,80,FF,2F,00,00
000000197,00000254,false,0,8,FF,7F,FF,7F,FF,7F,FF,7F
000000198,00000258,false,0,2,44,44,00,00,00,00,00,00
000000199,0000036F,false,0,5,07,F9,FE,FF,14,00,00,00
000000200,000001AE,false,0,2,F7,FF,00,00,00,00,00,00
000000201,0000015F,false,0,8,91,F6,00,7D,00,EE,00,7D
000000202,000002A1,false,0,5,80,58,02,00,F0,00,00,00
000000203,0000043D,false,0,8,0A,F7,E6,FF,1E,0F,01,F0
000000204,000007BD,false,0,8,00,00,00,C0,FF,C0,01,08
000000205,000007BE,false,0,8,0C,41,04,68,00,00,00,00
000000206,000000A5,false,0,8,67,F7,FF,F7,7F,00,00,C1
000000207,000000AC,false,0,2,00,F0,00,00,00,00,00,00
000000208,000000D9,false,0,8,C3,F7,00,10,00,F0,7F,C8
000000209,000000F3,false,0,8,05,07,00,FF,F0,C0,FF,FF
000000210,00000112,false,0,8,FA,1F,C7,0E,3A,72,85,5F
000000211,00000197,false,0,4,8F,04,0E,C0,00,00,00,00
000000212,00000431,false,0,8,CA,FF,FF,FF,FF,6C,F3,4B
000000213,00000100,false,0,8,82,FB,7F,C0,5D,66,87,70
000000214,000002BB,false,0,5,D4,F2,00,00,F2,00,00,00
000000215,000002E8,false,0,8,C0,18,C5,FF,FF,F4,F2,9E
000000216,000003FD,false,0,5,93,02,00,00,FF,00,00,00
000000217,00000108,false,0,8,00,7D,FF,FF,07,F1,FF,FF
000000218,00000212,false,0,8,CD,F3,F9,FF,FF,FF,FF,FF
000000219,000002DB,false,0,8,FF,FF,FF,FF,BF,FF,FF,FF
000000220,000002F1,false,0,8,B4,0F,00,00,00,00,00,A0
000000221,000000EF,false,0,8,66,F6,00,7D,21,FE,7C,FF
000000222,000001A1,false,0,5,7D,C2,00,00,8A,00,00,00
000000223,00000112,false,0,8,FA,1F,C7,0E,3A,72,85,5F
000000224,000000A5,false,0,8,66,F9,FF,F7,7F,00,00,C1
000000225,000000AC,false,0,2,00,F0,00,00,00,00,00,00
000000226,000000D9,false,0,8,C2,F9,00,10,00,F0,7F,C8
000000227,000000F3,false,0,8,04,09,00,FF,F0,C0,FF,FF
000000228,00000112,false,0,8,FA,1F,C7,0E,3A,72,85,5F
000000229,00000100,false,0,8,B7,F0,7F,C0,5D,66,87,70
000000230,000000EF,false,0,8,67,F8,00,7D,21,FE,7C,FF
000000231,000001A1,false,0,5,33,C6,00,00,8A,00,00,00
000000232,000007BE,false,0,8,00,C0,FA,1C,02,00,00,00
000000233,00000112,false,0,8,FA,1F,C7,0E,3A,72,85,5F
000000234,00000100,false,0,8,EA,F1,7F,C0,5D,66,87,70
000000235,00000302,false,0,7,FF,FF,FF,7F,FC,FF,FF,00
000000236,00000199,false,0,6,FF,FF,AF,7E,FF,3F,00,00
000000237,0000019A,false,0,6,FF,FF,8B,7E,FF,3F,00,00
000000238,0000019F,false,0,6,FF,FF,F8,7F,FF,2F,00,00
000000239,00000254,false,0,8,FF,7F,FF,7F,FF,7F,FF,7F
000000240,00000258,false,0,2,44,44,00,00,00,00,00,00
000000241,00000201,false,0,8,8B,5C,8B,5C,FF,FF,FF,FF
000000242,0000015F,false,0,8,CD,F9,00,7D,00,EE,00,7D
000000243,000002C4,false,0,8,00,00,FF,00,C8,64,FF,CF
000000244,000000A5,false,0,8,81,FA,FF,F7,7F,00,00,C1
000000245,000000AC,false,0,2,00,F0,00,00,00,00,00,00
000000246,000000D9,false,0,8,25,FA,00,10,00,F0,7F,C8
000000247,000000F3,false,0,8,E3,0A,00,FF,F0,C0,FF,FF
000000248,00000112,false,0,8,FA,1F,C7,0E,3A,72,85,5F
000000249,00000197,false,0,4,09,0B,0E,C0,00,00,00,00
000000250,00000304,false,0,6,FF,FF,C0,37,FF,FF,00,00
000000251,00000100,false,0,8,0D,F2,7F,C0,5D,66,87,70
000000252,000002F5,false,0,8,71,0F,60,29,22,0A,06,10
000000253,00000206,false,0,8,3B,25,5C,FF,FF,FF,FF,FF
000000254,00000201,false,0,8,8E,5C,8E,5C,FF,FF,FF,FF
000000255,000000EF,false,0,8,3A,F9,00,7D,21,FE,7C,FF
000000256,000001A1,false,0,5,C6,C8,00,00,8A,00,00,00
000000257,000003D8,false,0,8,A0,FF,FF,FF,FF,FF,FF,FF
000000258,00000112,false,0,8,FA,1F,C7,0E,3A,72,85,5F
000000259,00000100,false,0,8,50,F3,7F,C0,5D,66,87,70
000000260,000002A7,false,0,5,8E,F9,FE,FF,14,00,00,00
000000261,000002C5,false,0,7,94,F1,00,20,06,20,CA,00
000000262,00000199,false,0,6,FF,FF,B9,7E,FF,3F,00,00
000000263,0000019A,false,0,6,FF,FF,95,7E,FF,3F,00,00
000000264,0000019F,false,0,6,FF,FF,04,80,FF,2F,00,00
000000265,00000254,false,0,8,FF,7F,FF,7F,FF,7F,FF,7F
000000266,00000258,false,0,2,44,44,00,00,00,00,00,00
000000267,0000015F,false,0,8,2A,FA,00,7D,00,EE,00,7D
000000268,000000A5,false,0,8,DC,FB,FF,F7,7F,00,00,C1
000000269,000000AC,false,0,2,00,F0,00,00,00,00,00,00
000000270,000000D9,false,0,8,78,FB,00,10,00,F0,7F,C8
000000271,000000F3,false,0,8,BE,0B,00,FF,F0,C0,FF,FF
000000272,00000112,false,0,8,FA,1F,C7,0E,3A,72,85,5F
000000273,0000012F,false,0,8,E2,2E,86,1B,F1,35,30,00
000000274,00000100,false,0,8,DE,F4,7F,C0,5D,66,87,70
000000275,000000C0,false,0,2,F3,40,00,00,00,00,00,00
000000276,0000003C,false,0,8,FF,5F,00,00,00,00,FF,FF
000000277,000000EF,false,0,8,DD,FA,00,7D,21,FE,7C,FF
000000278,000001A1,false,0,5,E1,CA,00,00,8A,00,00,00
000000279,000000A9,false,0,8,B0,78,00,90,F1,00,00,FF
000000280,00000112,false,0,8,FA,1F,C7,0E,3A,72,85,5F
000000281,00000197,false,0,4,83,0C,0E,C0,00,00,00,00
000000282,00000100,false,0,8,83,F5,7F,C0,5D,66,87,70
000000283,000003B4,false,0,8,00,FF,30,F0,B8,FF,00,00
000000284,00000302,false,0,7,FF,FF,FF,7F,FC,FF,FF,00
000000285,00000199,false,0,6,FF,FF,AF,7E,FF,3F,00,00
000000286,0000019A,false,0,6,FF,FF,77,7E,FF,3F,00,00
000000287,0000019F,false,0,6,FF,FF,00,80,FF,2F,00,00
000000288,00000254,false,0,8,FF,7F,FF,7F,FF,7F,FF,7F
000000289,00000258,false,0,2,44,44,00,00,00,00,00,00
000000290,000001AE,false,0,2,F7,FF,00,00,00,00,00,00
000000291,0000015F,false,0,8,77,FB,00,7D,00,EE,00,7D
000000292,000002A1,false,0,5,80,58,02,00,F0,00,00,00
000000293,000007BD,false,0,8,00,00,00,C0,FF,C0,01,08
000000294,000007BE,false,0,8,05,00,00,00,00,00,00,E0
000000295,000000A5,false,0,8,52,FC,FF,F7,7F,00,00,C1
000000296,000000AC,false,0,2,00,F0,00,00,00,00,00,00
000000297,000000D9,false,0,8,F6,FC,00,10,00,F0,7F,C8
000000298,000000F3,false,0,8,30,0C,00,FF,F0,C0,FF,FF
000000299,00000112,false,0,8,FA,1F,C7,0E,3A,72,85,5F
000000300,00000100,false,0,8,64,F6,7F,C0,5D,66,87,70
000000301,00000314,false,0,3,11,02,FF,00,00,00,00,00
000000302,000002E8,false,0,8,C0,18,C5,FF,FF,F4,F9,51
000000303,000002BB,false,0,5,21,FC,00,00,F2,00,00,00
000000304,000003FD,false,0,5,B5,09,00,00,FF,00,00,00
000000305,00000108,false,0,8,00,7D,FF,FF,07,F1,FF,FF
000000306,00000206,false,0,8,DC,26,5C,FF,FF,FF,FF,FF
000000307,00000212,false,0,8,42,FA,F9,FF,FF,FF,FF,FF
000000308,000002DB,false,0,8,FF,FF,FF,FF,BF,FF,FF,FF
000000309,000000EF,false,0,8,80,FB,00,7D,21,FE,7C,FF
000000310,000002F1,false,0,8,B4,0F,00,00,00,00,00,A0
000000311,0000032B,false,0,8,FF,FF,FF,FF,FF,FF,00,FF
000000312,000001A1,false,0,5,88,CC,00,00,8A,00,00,00
000000313,00000331,false,0,8,FF,FF,FF,EF,7F,FE,F7,FF
000000314,000003E9,false,0,8,08,52,00,00,00,00,00,00
000000315,00000112,false,0,8,FA,1F,C7,0E,3A,72,85,5F
000000316,00000100,false,0,8,39,F7,7F,C0,5D,66,87,70
000000317,0000036E,false,0,5,86,FD,FE,FF,14,00,00,00
000000318,00000199,false,0,6,FF,FF,AF,7E,FF,3F,00,00
000000319,0000019A,false,0,6,FF,FF,95,7E,FF,3F,00,00
000000320,0000019F,false,0,6,FF,FF,12,80,FF,2F,00,00
000000321,00000254,false,0,8,FF,7F,FF,7F,FF,7F,FF,7F
000000322,00000258,false,0,2,44,44,00,00,00,00,00,00
000000323,00000201,false,0,8,99,5C,99,5C,FF,FF,FF,FF
000000324,0000015F,false,0,8,F9,FC,00,7D,00,EE,00,7D
000000325,000002B0,false,0,6,42,4D,05,C8,FF,FF,00,00
000000326,00000301,false,0,7,FF,FF,FF,7F,FF,FF,CF,00
000000327,000000A5,false,0,8,0F,FD,FF,F7,7F,00,00,C1
000000328,000000AC,false,0,2,00,F0,00,00,00,00,00,00
000000329,000000D9,false,0,8,AB,FD,00,10,00,F0,7F,C8
000000330,000000F3,false,0,8,6D,0D,00,FF,F0,C0,FF,FF
000000331,00000112,false,0,8,FA,1F,C7,0E,3A,72,85,5F
000000332,00000197,false,0,4,0C,0D,0E,C0,00,00,00,00
000000333,00000100,false,0,8,65,F8,7F,C0,5D,66,87,70
000000334,000000EF,false,0,8,0E,FC,00,7D,21,FE,7C,FF
000000335,000001A1,false,0,5,AF,CE,00,00,8A,00,00,00
000000336,00000163,false,0,8,FF,FF,0D,25,FF,FF,FF,FF
000000337,00000173,false,0,8,B4,F9,00,0E,30,00,DE,10
000000338,00000112,false,0,8,FA,1F,C7,0E,3A,72,85,5F
000000339,00000100,false,0,8,38,F9,7F,C0,5D,66,87,70
000000340,00000272,false,0,8,E0,F5,01,11,FF,FF,FF,FF
000000341,00000302,false,0,7,FF,FF,FF,7F,FC,FF,FF,00
000000342,00000199,false,0,6,FF,FF,C3,7E,FF,3F,00,00
000000343,0000019A,false,0,6,FF,FF,8B,7E,FF,3F,00,00
000000344,0000019F,false,0,6,FF,FF,F9,7F,FF,2F,00,00
000000345,00000254,false,0,8,FF,7F,FF,7F,FF,7F,FF,7F
000000346,00000258,false,0,2,44,44,00,00,00,00,00,00
000000347,0000015F,false,0,8,A4,FD,00,7D,00,EE,00,7D
000000348,000000A5,false,0,8,E8,FE,FF,F7,7F,00,00,C1
000000349,000000AC,false,0,2,00,F0,00,00,00,00,00,00
000000350,000000EF,false,0,8,B4,FE,00,7D,21,FE,7C,FF
000000351,000001A1,false,0,5,E0,C3,00,00,8A,00,00,00
000000352,00000112,false,0,8,FA,1F,C7,0E,3A,72,85,5F
000000353,00000100,false,0,8,51,FD,7F,C0,5D,66,87,70
000000354,00000302,false,0,7,FF,FF,FF,7F,FC,FF,FF,00
000000355,000002C5,false,0,7,D8,F8,00,20,06,20,CA,00
000000356,00000199,false,0,6,FF,FF,B9,7E,FF,3F,00,00
000000357,0000019A,false,0,6,FF,FF,81,7E,FF,3F,00,00
000000358,0000019F,false,0,6,FF,FF,0E,80,FF,2F,00,00
000000359,00000254,false,0,8,FF,7F,FF,7F,FF,7F,FF,7F
000000360,00000258,false,0,2,44,44,00,00,00,00,00,00
000000361,0000015F,false,0,8,42,F0,00,7D,00,EE,00,7D
000000362,000000A5,false,0,8,B4,F1,FF,F7,7F,00,00,C1
000000363,000000AC,false,0,2,00,F0,00,00,00,00,00,00
000000364,000000D9,false,0,8,10,F1,00,10,00,F0,7F,C8
000000365,000000F3,false,0,8,D6,01,00,FF,F0,C0,FF,FF
000000366,00000112,false,0,8,FA,1F,C7,0E,3A,72,85,5F
000000367,0000012F,false,0,8,30,26,86,1B,F1,35,30,00
000000368,00000197,false,0,4,00,05,0E,C0,00,00,00,00
000000369,00000100,false,0,8,B6,FE,7F,C0,5D,66,87,70
000000370,0000003C,false,0,8,FF,5F,00,00,00,00,FF,FF
000000371,00000297,false,0,7,B8,EB,F0,FC,F2,92,EA,00
000000372,00000206,false,0,8,DD,28,5C,FF,FF,FF,FF,FF
000000373,000000EF,false,0,8,B5,F0,00,7D,21,FE,7C,FF
000000374,000001A1,false,0,5,89,C5,00,00,8A,00,00,00
000000375,000000A9,false,0,8,C0,78,00,90,F1,00,00,FF
000000376,00000112,false,0,8,FA,1F,C7,0E,3A,72,85,5F
000000377,00000239,false,0,8,31,88,2A,57,01,FF,FF,FF
000000378,00000100,false,0,8,B7,F0,7F,C0,5D,66,87,70
000000379,000002A7,false,0,5,35,F3,FE,FF,14,00,00,00
000000380,00000199,false,0,6,FF,FF,B9,7E,FF,3F,00,00
000000381,0000019A,false,0,6,FF,FF,77,7E,FF,3F,00,00
000000382,0000019F,false,0,6,FF,FF,08,80,FF,2F,00,00
000000383,00000254,false,0,8,FF,7F,FF,7F,FF,7F,FF,7F
000000384,00000258,false,0,2,44,44,00,00,00,00,00,00
000000385,000001AE,false,0,2,F7,FF,00,00,00,00,00,00
000000386,0000015F,false,0,8,1F,F1,00,7D,00,EE,00,7D
000000387,000002A1,false,0,5,80,58,02,00,F0,00,00,00
000000388,000007BD,false,0,8,00,00,00,C0,FF,C0,01,08
000000389,000007BE,false,0,8,0B,00,00,00,00,00,00,00
000000390,000000A5,false,0,8,53,F2,FF,F7,7F,00,00,C1
000000391,000000AC,false,0,2,00,F0,00,00,00,00,00,00
000000392,000000D9,false,0,8,F7,F2,00,10,00,F0,7F,C8
000000393,000000F3,false,0,8,31,02,00,FF,F0,C0,FF,FF
000000394,00000112,false,0,8,FA,1F,C7,0E,3A,72,85,5F
000000395,00000431,false,0,8,CA,FF,FF,FF,FF,6C,F3,4B
000000396,00000100,false,0,8,EA,F1,7F,C0,5D,66,87,70
000000397,000002BB,false,0,5,07,F7,00,00,F2,00,00,00
000000398,000002E8,false,0,8,C0,18,C5,FF,FF,F4,F1,B9
000000399,000003FD,false,0,5,29,01,00,00,FF,00,00,00
000000400,00000108,false,0,8,00,7D,FF,FF,07,F1,FF,FF
000000401,00000201,false,0,8,36,5D,36,5D,FF,FF,FF,FF
000000402,00000212,false,0,8,90,F2,F9,FF,FF,FF,FF,FF
000000403,000002DB,false,0,8,FF,FF,FF,FF,BF,FF,FF,FF
000000404,000000EF,false,0,8,E8,F1,00,7D,21,FE,7C,FF
000000405,000002F1,false,0,8,B4,0F,00,00,00,00,00,A0
000000406,000001A1,false,0,5,AE,C7,00,00,8A,00,00,00
000000407,00000112,false,0,8,FA,1F,C7,0E,3A,72,85,5F
000000408,00000197,false,0,4,8C,06,0E,C0,00,00,00,00
000000409,00000349,false,0,5,FE,FF,F4,1A,00,00,00,00
000000410,00000100,false,0,8,0D,F2,7F,C0,5D,66,87,70
000000411,00000432,false,0,8,4C,ED,10,B1,8A,FF,00,FF
000000412,00000302,false,0,7,FF,FF,FF,7F,FC,FF,FF,00
000000413,0000038E,false,0,8,00,00,0D,0D,99,09,05,F3
000000414,00000199,false,0,6,FF,FF,C3,7E,FF,3F,00,00
000000415,0000019A,false,0,6,FF,FF,81,7E,FF,3F,00,00
000000416,0000019F,false,0,6,FF,FF,15,80,FF,2F,00,00
000000417,00000254,false,0,8,FF,7F,FF,7F,FF,7F,FF,7F
000000418,00000258,false,0,2,44,44,00,00,00,00,00,00
000000419,00000201,false,0,8,38,5D,38,5D,FF,FF,FF,FF
000000420,0000015F,false,0,8,F8,F2,00,7D,00,EE,00,7D
000000421,000002B0,false,0,6,43,4D,05,C8,FF,FF,00,00
000000422,000000A5,false,0,8,0E,F3,FF,F7,7F,00,00,C1
000000423,000000AC,false,0,2,00,F0,00,00,00,00,00,00
000000424,000000D9,false,0,8,AA,F3,00,10,00,F0,7F,C8
000000425,000000F3,false,0,8,6C,03,00,FF,F0,C0,FF,FF
000000426,00000112,false,0,8,FA,1F,C7,0E,3A,72,85,5F
000000427,00000100,false,0,8,50,F3,7F,C0,5D,66,87,70
000000428,00000206,false,0,8,80,29,5C,FF,FF,FF,FF,FF
000000429,000000EF,false,0,8,0F,F2,00,7D,21,FE,7C,FF
000000430,000001A1,false,0,5,5B,C9,00,00,8A,00,00,00
000000431,00000163,false,0,8,FF,FF,0D,25,FF,FF,FF,FF
000000432,00000173,false,0,8,52,F4,00,0E,30,00,DE,10
000000433,00000112,false,0,8,FA,1F,C7,0E,3A,72,85,5F
000000434,00000100,false,0,8,DE,F4,7F,C0,5D,66,87,70
000000435,0000034A,false,0,8,6D,A9,D2,1B,10,A5,D0,24
000000436,00000199,false,0,6,FF,FF,AF,7E,FF,3F,00,00
000000437,0000019A,false,0,6,FF,FF,8B,7E,FF,3F,00,00
000000438,0000019F,false,0,6,FF,FF,06,80,FF,2F,00,00
000000439,00000254,false,0,8,FF,7F,FF,7F,FF,7F,FF,7F
000000440,00000258,false,0,2,44,44,00,00,00,00,00,00
000000441,0000036F,false,0,5,BC,F3,FE,FF,14,00,00,00
000000442,0000015F,false,0,8,A5,F3,00,7D,00,EE,00,7D
000000443,000000A5,false,0,8,80,F4,FF,F7,7F,00,00,C1
000000444,000000AC,false,0,2,00,F0,00,00,00,00,00,00
000000445,000000D9,false,0,8,24,F4,00,10,00,F0,7F,C8
000000446,000000F3,false,0,8,E2,04,00,FF,F0,C0,FF,FF
000000447,00000112,false,0,8,FA,1F,C7,0E,3A,72,85,5F
000000448,00000197,false,0,4,03,07,0E,C0,00,00,00,00
000000449,00000100,false,0,8,83,F5,7F,C0,5D,66,87,70
000000450,000000EF,false,0,8,52,F3,00,7D,21,FE,7C,FF
000000451,000001A1,false,0,5,7C,CB,00,00,8A,00,00,00
000000452,00000112,false,0,8,FA,1F,C7,0E,3A,72,85,5F
000000453,00000100,false,0,8,64,F6,7F,C0,5D,66,87,70
000000454,00000302,false,0,7,FF,FF,FF,7F,FC,FF,FF,00
000000455,0000034C,false,0,8,78,00,00,00,00,13,F0,FF
000000456,00000199,false,0,6,FF,FF,B9,7E,FF,3F,00,00
000000457,0000019A,false,0,6,FF,FF,77,7E,FF,3F,00,00
000000458,0000019F,false,0,6,FF,FF,F5,7F,FF,2F,00,00
000000459,00000254,false,0,8,FF,7F,FF,7F,FF,7F,FF,7F
000000460,00000258,false,0,2,44,44,00,00,00,00,00,00
000000461,0000015F,false,0,8,2B,F4,00,7D,00,EE,00,7D
000000462,000002C4,false,0,8,00,00,FF,00,C8,64,FF,CF
000000463,000000A5,false,0,8,DD,F5,FF,F7,7F,00,00,C1
000000464,000000AC,false,0,2,00,F0,00,00,00,00,00,00
000000465,000000D9,false,0,8,79,F5,00,10,00,F0,7F,C8
000000466,000000F3,false,0,8,BF,05,00,FF,F0,C0,FF,FF
000000467,00000112,false,0,8,FA,1F,C7,0E,3A,72,85,5F
000000468,00000304,false,0,6,FF,FF,C0,37,FF,FF,00,00
000000469,000002F5,false,0,8,71,0F,60,29,22,0A,06,10
000000470,00000100,false,0,8,39,F7,7F,C0,5D,66,87,70
000000471,00000206,false,0,8,67,2A,5C,FF,FF,FF,FF,FF
000000472,00000201,false,0,8,44,5D,44,5D,FF,FF,FF,FF
000000473,000000EF,false,0,8,DC,F4,00,7D,21,FE,7C,FF
000000474,000001A1,false,0,5,15,CD,00,00,8A,00,00,00
000000475,00000112,false,0,8,FA,1F,C7,0E,3A,72,85,5F
000000476,000002A1,false,0,5,80,58,02,00,F0,00,00,00
000000477,000007BD,false,0,8,00,00,00,C0,FF,C0,01,08
000000478,000007BE,false,0,8,05,00,00,00,00,00,00,E0
000000479,000000A5,false,0,8,67,F7,FF,F7,7F,00,00,C1
000000480,000000AC,false,0,2,00,F0,00,00,00,00,00,00
000000481,000000D9,false,0,8,C3,F7,00,10,00,F0,7F,C8
000000482,000000F3,false,0,8,05,07,00,FF,F0,C0,FF,FF
000000483,00000112,false,0,8,FA,1F,C7,0E,3A,72,85,5F
000000484,00000197,false,0,4,80,0E,0E,C0,00,00,00,00
000000485,00000100,false,0,8,82,FB,7F,C0,5D,66,87,70
000000486,000002E8,false,0,8,C0,18,C5,FF,FF,F4,F8,4C
000000487,000002BB,false,0,5,D4,F2,00,00,F2,00,00,00
000000488,000003FD,false,0,5,28,08,00,00,FF,00,00,00
000000489,00000108,false,0,8,00,7D,FF,FF,07,F1,FF,FF
000000490,00000206,false,0,8,3A,2B,5C,FF,FF,FF,FF,FF
000000491,00000212,false,0,8,A5,F9,F9,FF,FF,FF,FF,FF
000000492,000002DB,false,0,8,FF,FF,FF,FF,BF,FF,FF,FF
000000493,000000EF,false,0,8,66,F6,00,7D,21,FE,7C,FF
000000494,000002F1,false,0,8,B4,0F,00,00,00,00,00,A0
000000495,0000032B,false,0,8,FF,FF,FF,FF,FF,FF,00,FF
000000496,000001A1,false,0,5,7D,C2,00,00,8A,00,00,00
000000497,00000331,false,0,8,FF,FF,FF,EF,7F,FE,F7,FF
000000498,000003E9,false,0,8,08,52,00,00,00,00,00,00
000000499,00000112,false,0,8,FA,1F,C7,0E,3A,72,85,5F
000000500,00000100,false,0,8,0C,FC,7F,C0,5D,66,87,70
000000501,000002A7,false,0,5,5D,FC,FE,FF,14,00,00,00
000000502,00000199,false,0,6,FF,FF,91,7E,FF,3F,00,00
000000503,0000019A,false,0,6,FF,FF,81,7E,FF,3F,00,00
000000504,0000019F,false,0,6,FF,FF,F8,7F,FF,2F,00,00
000000505,00000254,false,0,8,FF,7F,FF,7F,FF,7F,FF,7F
000000506,00000258,false,0,2,44,44,00,00,00,00,00,00
000000507,00000201,false,0,8,D7,5D,D7,5D,FF,FF,FF,FF
000000508,0000015F,false,0,8,CC,F7,00,7D,00,EE,00,7D
000000509,000002B0,false,0,6,42,4D,05,C8,FF,FF,00,00
000000510,00000301,false,0,7,FF,FF,FF,7F,FF,FF,CF,00
000000511,000000A5,false,0,8,3B,F8,FF,F7,7F,00,00,C1
000000512,000000AC,false,0,2,00,F0,00,00,00,00,00,00
000000513,000000D9,false,0,8,9F,F8,00,10,00,F0,7F,C8
000000514,000000F3,false,0,8,59,08,00,FF,F0,C0,FF,FF
000000515,00000112,false,0,8,FA,1F,C7,0E,3A,72,85,5F
000000516,00000100,false,0,8,51,FD,7F,C0,5D,66,87,70
000000517,000000EF,false,0,8,3B,F7,00,7D,21,FE,7C,FF
000000518,000001A1,false,0,5,14,C4,00,00,8A,00,00,00
000000519,00000163,false,0,8,FF,FF,0D,25,FF,FF,FF,FF
000000520,00000173,false,0,8,3A,FE,00,0E,30,00,DE,10
000000521,00000112,false,0,8,FA,1F,C7,0E,3A,72,85,5F
000000522,00000197,false,0,4,89,00,0E,C0,00,00,00,00
000000523,00000100,false,0,8,B6,FE,7F,C0,5D,66,87,70
000000524,00000302,false,0,7,FF,FF,FF,7F,FC,FF,FF,00
000000525,00000199,false,0,6,FF,FF,B9,7E,FF,3F,00,00
000000526,0000019A,false,0,6,FF,FF,6D,7E,FF,3F,00,00
000000527,0000019F,false,0,6,FF,FF,03,80,FF,2F,00,00
000000528,00000254,false,0,8,FF,7F,FF,7F,FF,7F,FF,7F
000000529,00000258,false,0,2,44,44,00,00,00,00,00,00
000000530,00000272,false,0,8,6F,FC,01,11,FF,FF,FF,FF
000000531,0000015F,false,0,8,90,F8,00,7D,00,EE,00,7D
000000532,000000A5,false,0,8,66,F9,FF,F7,7F,00,00,C1
000000533,000000AC,false,0,2,00,F0,00,00,00,00,00,00
000000534,000000D9,false,0,8,C2,F9,00,10,00,F0,7F,C8
000000535,000000F3,false,0,8,04,09,00,FF,F0,C0,FF,FF
000000536,000001E1,false,0,6,39,FD,04,FF,FF,FF,00,00
000000537,00000112,false,0,8,FA,1F,C7,0E,3A,72,85,5F
000000538,00000314,false,0,3,11,02,FF,00,00,00,00,00
000000539,00000100,false,0,8,B7,F0,7F,C0,5D,66,87,70
000000540,00000206,false,0,8,B4,2C,5C,FF,FF,FF,FF,FF
000000541,000000EF,false,0,8,67,F8,00,7D,21,FE,7C,FF
000000542,000001A1,false,0,5,33,C6,00,00,8A,00,00,00
000000543,000007BE,false,0,8,0C,41,04,68,00,00,00,00
000000544,00000112,false,0,8,FA,1F,C7,0E,3A,72,85,5F
000000545,00000239,false,0,8,31,88,2A,57,01,FF,FF,FF
000000546,000001EE,false,0,2,00,FC,00,00,00,00,00,00
000000547,00000100,false,0,8,EA,F1,7F,C0,5D,66,87,70
000000548,0000036E,false,0,5,3D,F7,FE,FF,14,00,00,00
000000549,00000199,false,0,6,FF,FF,B9,7E,FF,3F,00,00
000000550,0000019A,false,0,6,FF,FF,8B,7E,FF,3F,00,00
000000551,0000019F,false,0,6,FF,FF,0C,80,FF,2F,00,00
000000552,00000254,false,0,8,FF,7F,FF,7F,FF,7F,FF,7F
000000553,00000258,false,0,2,44,44,00,00,00,00,00,00
000000554,00000201,false,0,8,E0,5D,E0,5D,FF,FF,FF,FF
000000555,0000015F,false,0,8,CD,F9,00,7D,00,EE,00,7D
000000556,000002C4,false,0,8,00,00,FF,00,C8,64,FF,CF
000000557,000000A5,false,0,8,81,FA,FF,F7,7F,00,00,C1
000000558,000000AC,false,0,2,00,F0,00,00,00,00,00,00
000000559,000000D9,false,0,8,25,FA,00,10,00,F0,7F,C8
000000560,000000F3,false,0,8,E3,0A,00,FF,F0,C0,FF,FF
000000561,00000112,false,0,8,FB,1F,C7,0E,3A,72,85,5F
000000562,00000197,false,0,4,06,01,0E,C0,00,00,00,00
000000563,00000100,false,0,8,0D,F2,7F,C0,5D,66,87,70
000000564,000002F5,false,0,8,71,0F,60,29,22,0A,06,10
000000565,00000328,false,0,6,4F,E0,2E,0B,86,1E,00,00
000000566,00000201,false,0,8,E3,5D,E3,5D,FF,FF,FF,FF
000000567,000000EF,false,0,8,3A,F9,00,7D,21,FE,7C,FF
000000568,000001A1,false,0,5,C6,C8,00,00,8A,00,00,00
000000569,00000112,false,0,8,FA,1F,C7,0E,3A,72,85,5F
000000570,00000100,false,0,8,50,F3,7F,C0,5D,66,87,70
000000571,00000302,false,0,7,FF,FF,FF,7F,FC,FF,FF,00
000000572,000002C5,false,0,7,94,F1,00,20,06,20,CA,00
000000573,00000199,false,0,6,FF,FF,B9,7E,FF,3F,00,00
000000574,0000019A,false,0,6,FF,FF,8B,7E,FF,3F,00,00
000000575,0000019F,false,0,6,FF,FF,06,80,FF,2F,00,00
000000576,00000254,false,0,8,FF,7F,FF,7F,FF,7F,FF,7F
000000577,00000258,false,0,2,44,44,00,00,00,00,00,00
000000578,0000015F,false,0,8,2A,FA,00,7D,00,EE,00,7D
000000579,00000350,false,0,4,F3,FF,FF,FF,00,00,00,00
000000580,000000A5,false,0,8,DC,FB,FF,F7,7F,00,00,C1
000000581,000000AC,false,0,2,00,F0,00,00,00,00,00,00
000000582,000000D9,false,0,8,78,FB,00,10,00,F0,7F,C8
000000583,000000F3,false,0,8,BE,0B,00,FF,F0,C0,FF,FF
000000584,0000012F,false,0,8,E2,2E,86,1B,F1,35,30,00
000000585,00000112,false,0,8,FB,1F,C7,0E,3A,72,85,5F
000000586,00000100,false,0,8,DE,F4,7F,C0,5D,66,87,70
000000587,0000003C,false,0,8,FF,5F,00,00,00,00,FF,FF
000000588,00000297,false,0,7,78,E0,F0,FC,F2,92,EA,00
000000589,00000206,false,0,8,E9,2D,5C,FF,FF,FF,FF,FF
000000590,000000EF,false,0,8,DD,FA,00,7D,21,FE,7C,FF
000000591,000001A1,false,0,5,E1,CA,00,00,8A,00,00,00
000000592,000000A9,false,0,8,B0,78,00,90,F1,00,00,FF
000000593,00000112,false,0,8,FA,1F,C7,0E,3A,72,85,5F
000000594,00000197,false,0,4,8A,02,0E,C0,00,00,00,00
000000595,00000100,false,0,8,83,F5,7F,C0,5D,66,87,70
000000596,000002A7,false,0,5,C0,FD,FE,FF,14,00,00,00
000000597,00000199,false,0,6,FF,FF,B9,7E,FF,3F,00,00
000000598,0000019A,false,0,6,FF,FF,95,7E,FF,3F,00,00
000000599,0000019F,false,0,6,FF,FF,F8,7F,FF,2F,00,00
000000600,00000254,false,0,8,FF,7F,FF,7F,FF,7F,FF,7F
000000601,00000258,false,0,2,44,44,00,00,00,00,00,00
000000602,00000112,false,0,8,FA,1F,C7,0E,3A,72,85,5F
000000603,00000100,false,0,8,38,F9,7F,C0,5D,66,87,70
000000604,000002A7,false,0,5,E6,F6,FE,FF,14,00,00,00
000000605,00000199,false,0,6,FF,FF,AF,7E,FF,3F,00,00
000000606,0000019A,false,0,6,FF,FF,81,7E,FF,3F,00,00
000000607,0000019F,false,0,6,FF,FF,0E,80,FF,2F,00,00
000000608,00000254,false,0,8,FF,7F,FF,7F,FF,7F,FF,7F
000000609,00000258,false,0,2,44,44,00,00,00,00,00,00
000000610,0000015F,false,0,8,A4,FD,00,7D,00,EE,00,7D
000000611,000000A5,false,0,8,E8,FE,FF,F7,7F,00,00,C1
000000612,000000AC,false,0,2,00,F0,00,00,00,00,00,00
000000613,000000D9,false,0,8,4C,FE,00,10,00,F0,7F,C8
000000614,000000F3,false,0,8,8A,0E,00,FF,F0,C0,FF,FF
000000615,00000112,false,0,8,FA,1F,C7,0E,3A,72,85,5F
000000616,00000100,false,0,8,DF,FA,7F,C0,5D,66,87,70
000000617,000000EF,false,0,8,53,FD,00,7D,21,FE,7C,FF
000000618,000001A1,false,0,5,C7,C1,00,00,8A,00,00,00
000000619,000007BD,false,0,8,04,00,00,00,00,00,00,80
000000620,000007BE,false,0,8,00,C0,FA,1C,02,00,00,00
000000621,00000112,false,0,8,FA,1F,C7,0E,3A,72,85,5F
000000622,00000197,false,0,4,0A,09,0E,C0,00,00,00,00
000000623,00000100,false,0,8,82,FB,7F,C0,5D,66,87,70
000000624,00000302,false,0,7,FF,FF,FF,7F,FC,FF,FF,00
000000625,00000199,false,0,6,FF,FF,A5,7E,FF,3F,00,00
000000626,0000019A,false,0,6,FF,FF,8B,7E,FF,3F,00,00
000000627,0000019F,false,0,6,FF,FF,FE,7F,FF,2F,00,00
000000628,00000254,false,0,8,FF,7F,FF,7F,FF,7F,FF,7F
000000629,00000258,false,0,2,44,44,00,00,00,00,00,00
000000630,0000015F,false,0,8,43,FE,00,7D,00,EE,00,7D
000000631,000002A0,false,0,8,88,88,F8,0F,FF,FF,FF,FF
000000632,000002C4,false,0,8,00,00,FF,00,C8,64,FF,CF
000000633,000000A5,false,0,8,E9,F0,FF,F7,7F,00,00,C1
000000634,000000AC,false,0,2,00,F0,00,00,00,00,00,00
000000635,000000D9,false,0,8,4D,F0,00,10,00,F0,7F,C8
000000636,000000F3,false,0,8,8B,00,00,FF,F0,C0,FF,FF
000000637,00000304,false,0,6,FF,FF,BE,37,FF,FF,00,00
000000638,00000112,false,0,8,FA,1F,C7,0E,3A,72,85,5F
000000639,000003F9,false,0,8,CA,F5,80,E0,49,30,C3,FF
000000640,000002F5,false,0,8,71,0F,60,29,22,0A,06,10
000000641,00000100,false,0,8,0C,FC,7F,C0,5D,66,87,70
000000642,00000206,false,0,8,0F,20,5C,FF,FF,FF,FF,FF
000000643,00000201,false,0,8,82,5E,82,5E,FF,FF,FF,FF
000000644,000000EF,false,0,8,B4,FE,00,7D,21,FE,7C,FF
000000645,000001A1,false,0,5,E0,C3,00,00,8A,00,00,00
000000646,00000112,false,0,8,FA,1F,C7,0E,3A,72,85,5F
000000647,00000100,false,0,8,51,FD,7F,C0,5D,66,87,70
000000648,000002C5,false,0,7,D8,F8,00,20,06,20,CA,00
000000649,00000199,false,0,6,FF,FF,B9,7E,FF,3F,00,00
000000650,0000019A,false,0,6,FF,FF,81,7E,FF,3F,00,00
000000651,0000019F,false,0,6,FF,FF,00,80,FF,2F,00,00
000000652,00000254,false,0,8,FF,7F,FF,7F,FF,7F,FF,7F
000000653,00000258,false,0,2,44,44,00,00,00,00,00,00
000000654,0000036F,false,0,5,D4,FC,FE,FF,14,00,00,00
000000655,0000015F,false,0,8,42,F0,00,7D,00,EE,00,7D
000000656,000000A5,false,0,8,B4,F1,FF,F7,7F,00,00,C1
000000657,000000AC,false,0,2,00,F0,00,00,00,00,00,00
000000658,000000D9,false,0,8,10,F1,00,10,00,F0,7F,C8
000000659,000000F3,false,0,8,D6,01,00,FF,F0,C0,FF,FF
000000660,0000012F,false,0,8,30,26,86,1B,F1,35,30,00
000000661,00000112,false,0,8,FA,1F,C6,0E,3A,72,85,5F
000000662,00000197,false,0,4,86,0A,0E,C0,00,00,00,00
000000663,00000459,false,0,8,B4,40,65,88,6C,DF,1B,8B
000000664,00000100,false,0,8,B6,FE,7F,C0,5D,66,87,70
000000665,000000C0,false,0,2,FE,40,00,00,00,00,00,00
000000666,0000003C,false,0,8,FF,5F,00,00,00,00,FF,FF
000000667,000000EF,false,0,8,B5,F0,00,7D,21,FE,7C,FF
000000668,000001A1,false,0,5,89,C5,00,00,8A,00,00,00
000000669,000000A9,false,0,8,B0,78,00,90,F1,00,00,FF
000000670,00000112,false,0,8,FA,1F,C6,0E,3A,72,85,5F
000000671,00000100,false,0,8,B7,F0,7F,C0,5D,66,87,70
000000672,00000302,false,0,7,FF,FF,FF,7F,FC,FF,FF,00
000000673,00000199,false,0,6,FF,FF,AF,7E,FF,3F,00,00
000000674,0000019A,false,0,6,FF,FF,8B,7E,FF,3F,00,00
000000675,0000019F,false,0,6,FF,FF,1B,80,FF,2F,00,00
000000676,00000254,false,0,8,FF,7F,FF,7F,FF,7F,FF,7F
000000677,000001D0,false,0,8,8A,FD,DF,FF,FF,FF,FF,FF
000000678,000001B9,false,0,5,FF,FF,FF,14,FF,00,00,00
000000679,00000258,false,0,2,44,44,00,00,00,00,00,00
000000680,000001AE,false,0,2,F7,FF,00,00,00,00,00,00
000000681,000003B4,false,0,8,00,FF,30,F0,B8,FF,00,00
000000682,0000015F,false,0,8,1F,F1,00,7D,00,EE,00,7D
000000683,000002A1,false,0,5,80,58,02,00,F0,00,00,00
000000684,000007BD,false,0,8,00,00,00,C0,FF,C0,01,08
000000685,000007BE,false,0,8,05,00,00,00,00,00,00,E0
000000686,000002ED,false,0,3,5A,0E,02,00,00,00,00,00
000000687,000000A5,false,0,8,53,F2,FF,F7,7F,00,00,C1
000000688,000000AC,false,0,2,00,F0,00,00,00,00,00,00
000000689,000000D9,false,0,8,F7,F2,00,10,00,F0,7F,C8
000000690,000000F3,false,0,8,31,02,00,FF,F0,C0,FF,FF
000000691,00000112,false,0,8,FA,1F,C7,0E,3A,72,85,5F
000000692,00000100,false,0,8,EA,F1,7F,C0,5D,66,87,70
000000693,000002BB,false,0,5,07,F7,00,00,F2,00,00,00
000000694,000002E8,false,0,8,C0,18,C5,FF,FF,F4,F1,B9
000000695,000001F9,false,0,2,FD,FF,00,00,00,00,00,00
000000696,000003FD,false,0,5,29,01,00,00,FF,00,00,00
000000697,00000108,false,0,8,00,7D,FF,FF,07,F1,FF,FF
000000698,00000201,false,0,8,8B,5E,8B,5E,FF,FF,FF,FF
000000699,00000206,false,0,8,52,21,5C,FF,FF,FF,FF,FF
000000700,00000212,false,0,8,90,F2,F9,FF,FF,FF,FF,FF
000000701,000000EF,false,0,8,E8,F1,00,7D,21,FE,7C,FF
000000702,000002DB,false,0,8,FF,FF,FF,FF,BF,FF,FF,FF
000000703,000002F1,false,0,8,B4,0F,00,00,00,00,00,A0
000000704,000001A1,false,0,5,AE,C7,00,00,8A,00,00,00
000000705,000002FA,false,0,8,FD,FF,00,FF,FF,FF,FF,FF
000000706,0000032B,false,0,8,FF,FF,FF,FF,FF,FF,00,FF
000000707,00000331,false,0,8,FF,FF,FF,EF,7F,FE,F7,FF
000000708,000003AD,false,0,8,00,F0,FF,FF,FF,FF,FF,FC
000000709,000003E8,false,0,2,F1,FF,00,00,00,00,00,00
000000710,000003E9,false,0,8,08,52,00,00,00,00,00,00
000000711,00000197,false,0,4,09,0B,0E,C0,00,00,00,00
000000712,00000112,false,0,8,FA,1F,C7,0E,3A,72,85,5F
000000713,00000100,false,0,8,0D,F2,7F,C0,5D,66,87,70
000000714,000002A7,false,0,5,7B,F7,FE,FF,14,00,00,00
000000715,00000199,false,0,6,FF,FF,AF,7E,FF,3F,00,00
000000716,0000019A,false,0,6,FF,FF,77,7E,FF,3F,00,00
000000717,0000019F,false,0,6,FF,FF,08,80,FF,2F,00,00
000000718,00000254,false,0,8,FF,7F,FF,7F,FF,7F,FF,7F
000000719,00000258,false,0,2,44,44,00,00,00,00,00,00
000000720,00000201,false,0,8,8D,5E,8D,5E,FF,FF,FF,FF
000000721,0000015F,false,0,8,F8,F2,00,7D,00,EE,00,7D
000000722,000002B0,false,0,6,43,4D,05,C8,FF,FF,00,00
000000723,00000301,false,0,7,FF,FF,FF,7F,FF,FF,CF,00
000000724,000000A5,false,0,8,0E,F3,FF,F7,7F,00,00,C1
000000725,000000AC,false,0,2,00,F0,00,00,00,00,00,00
000000726,000000D9,false,0,8,AA,F3,00,10,00,F0,7F,C8
000000727,000000F3,false,0,8,6C,03,00,FF,F0,C0,FF,FF
000000728,00000302,false,0,7,FF,FF,FF,7F,FC,FF,FF,00
000000729,000002C5,false,0,7,D2,F0,00,20,06,20,CA,00
000000730,00000199,false,0,6,FF,FF,AF,7E,FF,3F,00,00
000000731,0000019A,false,0,6,FF,FF,81,7E,FF,3F,00,00
000000732,0000019F,false,0,6,FF,FF,FD,7F,FF,2F,00,00
000000733,00000254,false,0,8,FF,7F,FF,7F,FF,7F,FF,7F
000000734,00000258,false,0,2,44,44,00,00,00,00,00,00
000000735,00000348,false,0,8,E7,00,0A,7F,FE,00,DC,11
000000736,0000015F,false,0,8,76,F5,00,7D,00,EE,00,7D
000000737,000000A5,false,0,8,3A,F6,FF,F7,7F,00,00,C1
000000738,000000AC,false,0,2,00,F0,00,00,00,00,00,00
000000739,000000D9,false,0,8,9E,F6,00,10,00,F0,7F,C8
000000740,000000F3,false,0,8,58,06,00,FF,F0,C0,FF,FF
000000741,00000112,false,0,8,FA,1F,C7,0E,3A,72,85,5F
000000742,0000012F,false,0,8,05,2D,86,1B,F1,35,30,00
000000743,00000100,false,0,8,38,F9,7F,C0,5D,66,87,70
000000744,00000314,false,0,3,11,02,FF,00,00,00,00,00
000000745,0000003C,false,0,8,FF,5F,00,00,00,00,FF,FF
000000746,00000297,false,0,7,B7,E7,F0,FC,F2,92,EA,00
000000747,00000206,false,0,8,E8,23,5C,FF,FF,FF,FF,FF
000000748,000000EF,false,0,8,81,F5,00,7D,21,FE,7C,FF
000000749,000001A1,false,0,5,5A,C0,00,00,8A,00,00,00
000000750,000000A9,false,0,8,C0,78,00,90,F1,00,00,FF
000000751,00000112,false,0,8,FA,1F,C7,0E,3A,72,85,5F
000000752,00000100,false,0,8,DF,FA,7F,C0,5D,66,87,70
000000753,00000200,false,0,8,00,00,81,00,0E,28,FA,FF
000000754,0000036E,false,0,5,54,F1,FE,FF,14,00,00,00
000000755,00000246,false,0,5,3F,FB,00,FF,FF,00,00,00
000000756,00000199,false,0,6,FF,FF,B9,7E,FF,3F,00,00
000000757,0000019A,false,0,6,FF,FF,77,7E,FF,3F,00,00
000000758,0000019F,false,0,6,FF,FF,0A,80,FF,2F,00,00
000000759,00000254,false,0,8,FF,7F,FF,7F,FF,7F,FF,7F
000000760,00000258,false,0,2,44,44,00,00,00,00,00,00
000000761,00000299,false,0,6,FF,FF,FF,FF,FF,00,00,00
000000762,000001AE,false,0,2,F7,FF,00,00,00,00,00,00
000000763,0000015F,false,0,8,91,F6,00,7D,00,EE,00,7D
000000764,000002A1,false,0,5,80,58,02,00,F0,00,00,00
000000765,0000043D,false,0,8,0A,F7,E6,FF,1E,0F,01,F0
000000766,000007BD,false,0,8,00,00,00,C0,FF,C0,01,08
000000767,000007BE,false,0,8,0C,41,04,68,00,00,00,00
000000768,000000A5,false,0,8,67,F7,FF,F7,7F,00,00,C1
000000769,000000AC,false,0,2,00,F0,00,00,00,00,00,00
000000770,000000D9,false,0,8,C3,F7,00,10,00,F0,7F,C8
000000771,000000F3,false,0,8,05,07,00,FF,F0,C0,FF,FF
000000772,00000112,false,0,8,FA,1F,C7,0E,3A,72,85,5F
000000773,00000197,false,0,4,8F,04,0E,C0,00,00,00,00
000000774,00000431,false,0,8,CA,FF,FF,FF,FF,6C,F3,4B
000000775,00000100,false,0,8,82,FB,7F,C0,5D,66,87,70
000000776,000002BB,false,0,5,D4,F2,00,00,F2,00,00,00
000000777,000002E8,false,0,8,C0,18,C5,FF,FF,F4,F8,4C
000000778,000003FD,false,0,5,28,08,00,00,FF,00,00,00
000000779,00000108,false,0,8,00,7D,FF,FF,07,F1,FF,FF
000000780,00000212,false,0,8,A5,F9,F9,FF,FF,FF,FF,FF
000000781,000002DB,false,0,8,FF,FF,FF,FF,BF,FF,FF,FF
000000782,000002F1,false,0,8,B4,0F,00,00,00,00,00,A0
000000783,000000EF,false,0,8,66,F6,00,7D,21,FE,7C,FF
000000784,000001A1,false,0,5,7D,C2,00,00,8A,00,00,00
000000785,00000112,false,0,8,FA,1F,C7,0E,3A,72,85,5F
000000786,00000432,false,0,8,4C,ED,10,B1,8A,FF,00,FF
000000787,00000100,false,0,8,0C,FC,7F,C0,5D,66,87,70
000000788,00000349,false,0,5,FE,FF,EA,1A,00,00,00,00
000000789,00000302,false,0,7,FF,FF,FF,7F,FC,FF,FF,00
000000790,00000199,false,0,6,FF,FF,AF,7E,FF,3F,00,00
000000791,0000019A,false,0,6,FF,FF,81,7E,FF,3F,00,00
000000792,0000019F,false,0,6,FF,FF,01,80,FF,2F,00,00
000000793,00000254,false,0,8,FF,7F,FF,7F,FF,7F,FF,7F
000000794,00000258,false,0,2,44,44,00,00,00,00,00,00
000000795,00000201,false,0,8,2C,5F,2C,5F,FF,FF,FF,FF
000000796,0000015F,false,0,8,CC,F7,00,7D,00,EE,00,7D
000000797,000002B0,false,0,6,43,4D,05,C8,FF,FF,00,00
000000798,0000043C,false,0,8,FE,FE,FF,FF,FF,FF,FF,FF
000000799,000000A5,false,0,8,3B,F8,FF,F7,7F,00,00,C1
000000800,000000AC,false,0,2,00,F0,00,00,00,00,00,00
000000801,000000D9,false,0,8,9F,F8,00,10,00,F0,7F,C8
000000802,000000F3,false,0,8,59,08,00,FF,F0,C0,FF,FF
000000803,00000112,false,0,8,FA,1F,C7,0E,3A,72,85,5F
000000804,00000100,false,0,8,51,FD,7F,C0,5D,66,87,70
000000805,00000206,false,0,8,66,24,5C,FF,FF,FF,FF,FF
000000806,000000EF,false,0,8,3B,F7,00,7D,21,FE,7C,FF
000000807,000001A1,false,0,5,14,C4,00,00,8A,00,00,00
000000808,00000163,false,0,8,FF,FF,0D,25,FF,FF,FF,FF
000000809,00000173,false,0,8,3A,FE,00,0E,30,00,DE,10
000000810,0000051A,false,0,8,00,00,00,00,50,00,00,1A
000000811,00000112,false,0,8,FA,1F,C7,0E,3A,72,85,5F
000000812,00000197,false,0,4,00,05,0E,C0,00,00,00,00
000000813,00000100,false,0,8,B6,FE,7F,C0,5D,66,87,70
000000814,000002A7,false,0,5,12,F1,FE,FF,14,00,00,00
000000815,00000199,false,0,6,FF,FF,B9,7E,FF,3F,00,00
000000816,0000019A,false,0,6,FF,FF,8B,7E,FF,3F,00,00
000000817,0000019F,false,0,6,FF,FF,EA,7F,FF,2F,00,00
000000818,00000254,false,0,8,FF,7F,FF,7F,FF,7F,FF,7F
000000819,00000258,false,0,2,44,44,00,00,00,00,00,00
000000820,0000015F,false,0,8,90,F8,00,7D,00,EE,00,7D
000000821,000000A5,false,0,8,66,F9,FF,F7,7F,00,00,C1
000000822,000000AC,false,0,2,00,F0,00,00,00,00,00,00
000000823,000000D9,false,0,8,C2,F9,00,10,00,F0,7F,C8
000000824,000000F3,false,0,8,04,09,00,FF,F0,C0,FF,FF
000000825,00000112,false,0,8,FA,1F,C7,0E,3A,72,85,5F
000000826,00000100,false,0,8,B7,F0,7F,C0,5D,66,87,70
000000827,000000EF,false,0,8,67,F8,00,7D,21,FE,7C,FF
000000828,000001A1,false,0,5,33,C6,00,00,8A,00,00,00
000000829,000007BD,false,0,8,10,00,00,00,00,00,00,00
000000830,000007BE,false,0,8,00,C0,FA,1C,02,00,00,00
000000831,00000112,false,0,8,FA,1F,C7,0E,3A,72,85,5F
000000832,00000100,false,0,8,EA,F1,7F,C0,5D,66,87,70
000000833,00000302,false,0,7,FF,FF,FF,7F,FC,FF,FF,00
000000834,00000199,false,0,6,FF,FF,AF,7E,FF,3F,00,00
000000835,0000019A,false,0,6,FF,FF,77,7E,FF,3F,00,00
000000836,0000019F,false,0,6,FF,FF,03,80,FF,2F,00,00
000000837,00000254,false,0,8,FF,7F,FF,7F,FF,7F,FF,7F
000000838,00000258,false,0,2,44,44,00,00,00,00,00,00
000000839,00000201,false,0,8,36,5F,36,5F,FF,FF,FF,FF
000000840,0000015F,false,0,8,CD,F9,00,7D,00,EE,00,7D
000000841,000002C4,false,0,8,00,00,FF,00,C8,64,FF,CF
000000842,000000A5,false,0,8,81,FA,FF,F7,7F,00,00,C1
000000843,000000AC,false,0,2,00,F0,00,00,00,00,00,00
000000844,000000D9,false,0,8,25,FA,00,10,00,F0,7F,C8
000000845,000000F3,false,0,8,E3,0A,00,FF,F0,C0,FF,FF
000000846,00000304,false,0,6,FF,FF,BF,37,FF,FF,00,00
000000847,00000112,false,0,8,FA,1F,C7,0E,3A,72,85,5F
000000848,00000197,false,0,4,8C,06,0E,C0,00,00,00,00
000000849,00000100,false,0,8,0D,F2,7F,C0,5D,66,87,70
000000850,000002F5,false,0,8,71,0F,60,29,22,0A,06,10
000000851,00000206,false,0,8,3B,25,5C,FF,FF,FF,FF,FF
000000852,00000201,false,0,8,38,5F,38,5F,FF,FF,FF,FF
000000853,000000EF,false,0,8,3A,F9,00,7D,21,FE,7C,FF
000000854,000002F1,false,0,8,B4,0F,00,00,00,00,00,A0
000000855,0000032B,false,0,8,FF,FF,FF,FF,FF,FF,00,FF
000000856,000001A1,false,0,5,88,CC,00,00,8A,00,00,00
000000857,00000331,false,0,8,FF,FF,FF,EF,7F,FE,F7,FF
000000858,000003E9,false,0,8,08,52,00,00,00,00,00,00
000000859,00000112,false,0,8,FB,1F,C7,0E,3A,72,85,5F
000000860,00000100,false,0,8,39,F7,7F,C0,5D,66,87,70
000000861,00000199,false,0,6,FF,FF,B9,7E,FF,3F,00,00
000000862,0000019A,false,0,6,FF,FF,95,7E,FF,3F,00,00
000000863,0000019F,false,0,6,FF,FF,08,80,FF,2F,00,00
000000864,00000254,false,0,8,FF,7F,FF,7F,FF,7F,FF,7F
000000865,00000258,false,0,2,44,44,00,00,00,00,00,00
000000866,0000036F,false,0,5,6F,F6,FE,FF,14,00,00,00
000000867,00000201,false,0,8,CC,5F,CC,5F,FF,FF,FF,FF
000000868,0000015F,false,0,8,F9,FC,00,7D,00,EE,00,7D
000000869,000002B0,false,0,6,42,4D,05,C8,FF,FF,00,00
000000870,00000301,false,0,7,FF,FF,FF,7F,FF,FF,CF,00
000000871,000000A5,false,0,8,0F,FD,FF,F7,7F,00,00,C1
000000872,000000AC,false,0,2,00,F0,00,00,00,00,00,00
000000873,000000D9,false,0,8,AB,FD,00,10,00,F0,7F,C8
000000874,000000F3,false,0,8,6D,0D,00,FF,F0,C0,FF,FF
000000875,00000112,false,0,8,FA,1F,C7,0E,3A,72,85,5F
000000876,00000197,false,0,4,0C,0D,0E,C0,00,00,00,00
000000877,00000100,false,0,8,65,F8,7F,C0,5D,66,87,70
000000878,000000EF,false,0,8,0E,FC,00,7D,21,FE,7C,FF
000000879,000001A1,false,0,5,AF,CE,00,00,8A,00,00,00
000000880,00000163,false,0,8,FF,FF,0D,25,FF,FF,FF,FF
000000881,00000173,false,0,8,B4,F9,00,0E,30,00,DE,10
000000882,00000112,false,0,8,FA,1F,C7,0E,3A,72,85,5F
000000883,00000100,false,0,8,38,F9,7F,C0,5D,66,87,70
000000884,00000302,false,0,7,FF,FF,FF,7F,FC,FF,FF,00
000000885,00000199,false,0,6,FF,FF,C3,7E,FF,3F,00,00
000000886,0000019A,false,0,6,FF,FF,81,7E,FF,3F,00,00
000000887,0000019F,false,0,6,FF,FF,F3,7F,FF,2F,00,00
000000888,00000254,false,0,8,FF,7F,FF,7F,FF,7F,FF,7F
000000889,00000258,false,0,2,44,44,00,00,00,00,00,00
000000890,0000015F,false,0,8,A4,FD,00,7D,00,EE,00,7D
000000891,00000272,false,0,8,06,F8,01,11,FF,FF,FF,FF
000000892,000000A5,false,0,8,E8,FE,FF,F7,7F,00,00,C1
000000893,000000AC,false,0,2,00,F0,00,00,00,00,00,00
000000894,000000D9,false,0,8,4C,FE,00,10,00,F0,7F,C8
000000895,000000F3,false,0,8,8A,0E,00,FF,F0,C0,FF,FF
000000896,00000112,false,0,8,FA,1F,C7,0E,3A,72,85,5F
000000897,000001E1,false,0,6,8C,F9,04,FF,FF,FF,00,00
000000898,00000100,false,0,8,DF,FA,7F,C0,5D,66,87,70
000000899,00000206,false,0,8,81,27,5C,FF,FF,FF,FF,FF
000000900,000000EF,false,0,8,53,FD,00,7D,21,FE,7C,FF
000000901,000001A1,false,0,5,C7,C1,00,00,8A,00,00,00
000000902,000007BE,false,0,8,00,C0,FA,1C,02,00,00,00
000000903,00000239,false,0,8,31,87,2A,57,01,FF,FF,FF
000000904,00000112,false,0,8,FA,1F,C7,0E,3A,72,85,5F
000000905,00000197,false,0,4,80,0E,0E,C0,00,00,00,00
000000906,00000100,false,0,8,82,FB,7F,C0,5D,66,87,70
000000907,000002A7,false,0,5,34,FA,FE,FF,14,00,00,00
000000908,00000199,false,0,6,FF,FF,A5,7E,FF,3F,00,00
000000909,0000019A,false,0,6,FF,FF,77,7E,FF,3F,00,00
000000910,0000019F,false,0,6,FF,FF,FD,7F,FF,2F,00,00
000000911,00000254,false,0,8,FF,7F,FF,7F,FF,7F,FF,7F
000000912,00000258,false,0,2,44,44,00,00,00,00,00,00
000000913,0000015F,false,0,8,43,FE,00,7D,00,EE,00,7D
000000914,000002C4,false,0,8,00,00,FF,00,C8,64,FF,CF
000000915,000000A5,false,0,8,E9,F0,FF,F7,7F,00,00,C1
000000916,000000AC,false,0,2,00,F0,00,00,00,00,00,00
000000917,000000D9,false,0,8,4D,F0,00,10,00,F0,7F,C8
000000918,000000F3,false,0,8,8B,00,00,FF,F0,C0,FF,FF
000000919,00000112,false,0,8,FA,1F,C7,0E,3A,72,85,5F
000000920,000002F5,false,0,8,71,0F,60,29,22,0A,06,10
000000921,00000100,false,0,8,0C,FC,7F,C0,5D,66,87,70
000000922,00000201,false,0,8,D7,5F,D7,5F,FF,FF,FF,FF
000000923,000000EF,false,0,8,B4,FE,00,7D,21,FE,7C,FF
000000924,000001A1,false,0,5,E0,C3,00,00,8A,00,00,00
000000925,00000112,false,0,8,FA,1F,C7,0E,3A,72,85,5F
000000926,00000100,false,0,8,51,FD,7F,C0,5D,66,87,70
000000927,00000302,false,0,7,FF,FF,FF,7F,FC,FF,FF,00
000000928,000002C5,false,0,7,D8,F8,00,20,06,20,CA,00
000000929,00000348,false,0,8,E7,00,0A,7F,FE,00,DC,11
000000930,00000199,false,0,6,FF,FF,B9,7E,FF,3F,00,00
000000931,0000019A,false,0,6,FF,FF,95,7E,FF,3F,00,00
000000932,0000019F,false,0,6,FF,FF,0E,80,FF,2F,00,00
000000933,00000254,false,0,8,FF,7F,FF,7F,FF,7F,FF,7F
000000934,00000258,false,0,2,44,44,00,00,00,00,00,00
000000935,0000015F,false,0,8,42,F0,00,7D,00,EE,00,7D
000000936,000000A5,false,0,8,B4,F1,FF,F7,7F,00,00,C1
000000937,000000AC,false,0,2,00,F0,00,00,00,00,00,00
000000938,000000D9,false,0,8,10,F1,00,10,00,F0,7F,C8
000000939,000000F3,false,0,8,D6,01,00,FF,F0,C0,FF,FF
000000940,00000112,false,0,8,FA,1F,C7,0E,3A,72,85,5F
000000941,0000012F,false,0,8,30,26,86,1B,F1,35,30,00
000000942,00000197,false,0,4,89,00,0E,C0,00,00,00,00
000000943,00000100,false,0,8,B6,FE,7F,C0,5D,66,87,70
000000944,00000314,false,0,3,11,02,FF,00,00,00,00,00
000000945,0000003C,false,0,8,FF,5F,00,00,00,00,FF,FF
000000946,00000297,false,0,7,B8,EB,F0,FC,F2,92,EA,00
000000947,00000206,false,0,8,DD,28,5C,FF,FF,FF,FF,FF
000000948,000000EF,false,0,8,B5,F0,00,7D,21,FE,7C,FF
000000949,000001A1,false,0,5,89,C5,00,00,8A,00,00,00
000000950,000000A9,false,0,8,B0,78,00,90,F1,00,00,FF
000000951,00000112,false,0,8,FA,1F,C7,0E,3A,72,85,5F
000000952,00000239,false,0,8,31,87,2A,57,01,FF,FF,FF
000000953,00000100,false,0,8,B7,F0,7F,C0,5D,66,87,70
000000954,0000036E,false,0,5,A0,F6,FE,FF,14,00,00,00
000000955,0000043D,false,0,8,0A,F7,E6,FF,1E,0F,01,F0
000000956,00000199,false,0,6,FF,FF,AF,7E,FF,3F,00,00
000000957,0000019A,false,0,6,FF,FF,8B,7E,FF,3F,00,00
000000958,0000019F,false,0,6,FF,FF,06,80,FF,2F,00,00
000000959,00000254,false,0,8,FF,7F,FF,7F,FF,7F,FF,7F
000000960,00000258,false,0,2,44,44,00,00,00,00,00,00
000000961,000001AE,false,0,2,F7,FF,00,00,00,00,00,00
000000962,0000015F,false,0,8,1F,F1,00,7D,00,EE,00,7D
000000963,000002A1,false,0,5,80,58,02,00,F0,00,00,00
000000964,000007BD,false,0,8,00,00,00,C0,FF,C0,01,08
000000965,000007BE,false,0,8,0B,00,00,00,00,00,00,00
000000966,000000A5,false,0,8,53,F2,FF,F7,7F,00,00,C1
000000967,000000AC,false,0,2,00,F0,00,00,00,00,00,00
000000968,000000D9,false,0,8,F7,F2,00,10,00,F0,7F,C8
000000969,000000F3,false,0,8,31,02,00,FF,F0,C0,FF,FF
000000970,00000112,false,0,8,FA,1F,C7,0E,3A,72,85,5F
000000971,00000431,false,0,8,CA,FF,FF,FF,FF,6C,F3,4B
000000972,00000100,false,0,8,EA,F1,7F,C0,5D,66,87,70
000000973,000002BB,false,0,5,07,F7,00,00,F2,00,00,00
000000974,000002E8,false,0,8,C0,18,C5,FF,FF,F4,F1,B9
000000975,000003FD,false,0,5,29,01,00,00,FF,00,00,00
000000976,00000108,false,0,8,00,7D,FF,FF,07,F1,FF,FF
000000977,00000201,false,0,8,E0,5F,E0,5F,FF,FF,FF,FF
000000978,00000212,false,0,8,90,F2,F9,FF,FF,FF,FF,FF
000000979,000002DB,false,0,8,FF,FF,FF,FF,BF,FF,FF,FF
000000980,000000A5,false,0,8,80,F4,FF,F7,7F,00,00,C1
000000981,000000AC,false,0,2,00,F0,00,00,00,00,00,00
000000982,000000D9,false,0,8,24,F4,00,10,00,F0,7F,C8
000000983,000000F3,false,0,8,E2,04,00,FF,F0,C0,FF,FF
000000984,00000112,false,0,8,FA,1F,C7,0E,3A,72,75,5F
000000985,00000197,false,0,4,03,07,0E,C0,00,00,00,00
000000986,00000363,false,0,8,D5,14,09,09,FF,FF,FF,FF
000000987,00000100,false,0,8,83,F5,7F,C0,5D,66,87,70
000000988,000000EF,false,0,8,52,F3,00,7D,21,FE,7C,FF
000000989,000001A1,false,0,5,7C,CB,00,00,8A,00,00,00
000000990,00000112,false,0,8,FA,1F,C7,0E,3A,72,75,5F
000000991,00000100,false,0,8,64,F6,7F,C0,5D,66,87,70
000000992,00000302,false,0,7,FF,FF,FF,7F,FC,FF,FF,00
000000993,00000199,false,0,6,FF,FF,D7,7E,FF,3F,00,00
000000994,0000019A,false,0,6,FF,FF,81,7E,FF,3F,00,00
000000995,0000019F,false,0,6,FF,FF,17,80,FF,2F,00,00
000000996,00000254,false,0,8,FF,7F,FF,7F,FF,7F,FF,7F
000000997,00000258,false,0,2,44,44,00,00,00,00,00,00
000000998,0000015F,false,0,8,2B,F4,00,7D,00,EE,00,7D
000000999,000002C4,false,0,8,00,00,FF,00,C8,64,FF,CF
000001000,000000A5,false,0,8,DD,F5,FF,F7,7F,00,00,C1
000001001,000000AC,false,0,2,00,F0,00,00,00,00,00,00
000001002,000000D9,false,0,8,79,F5,00,10,00,F0,7F,C8
000001003,000000F3,false,0,8,BF,05,00,FF,F0,C0,FF,FF
000001004,00000304,false,0,6,FF,FF,BF,37,FF,FF,00,00
000001005,00000112,false,0,8,FA,1F,C7,0E,3A,72,75,5F
000001006,000002F5,false,0,8,71,0F,60,29,22,0A,06,10
000001007,00000100,false,0,8,39,F7,7F,C0,5D,66,87,70
000001008,00000206,false,0,8,67,2A,5C,FF,FF,FF,FF,FF
000001009,00000201,false,0,8,76,60,76,60,FF,FF,FF,FF
000001010,000000EF,false,0,8,DC,F4,00,7D,21,FE,7C,FF
000001011,000001A1,false,0,5,15,CD,00,00,8A,00,00,00
000001012,00000112,false,0,8,FA,1F,C7,0E,3A,72,75,5F
000001013,00000197,false,0,4,85,08,0E,C0,00,00,00,00
000001014,00000100,false,0,8,65,F8,7F,C0,5D,66,87,70
000001015,000002A7,false,0,5,C1,F4,FE,FF,14,00,00,00
000001016,000002C5,false,0,7,D2,F0,00,20,06,20,CA,00
000001017,00000199,false,0,6,FF,FF,B9,7E,FF,3F,00,00
000001018,0000019A,false,0,6,FF,FF,8B,7E,FF,3F,00,00
000001019,0000019F,false,0,6,FF,FF,FE,7F,FF,2F,00,00
000001020,00000254,false,0,8,FF,7F,FF,7F,FF,7F,FF,7F
000001021,00000258,false,0,2,44,44,00,00,00,00,00,00
000001022,0000015F,false,0,8,76,F5,00,7D,00,EE,00,7D
000001023,000000A5,false,0,8,3A,F6,FF,F7,7F,00,00,C1
000001024,000000AC,false,0,2,00,F0,00,00,00,00,00,00
000001025,000000D9,false,0,8,9E,F6,00,10,00,F0,7F,C8
000001026,000000F3,false,0,8,58,06,00,FF,F0,C0,FF,FF
000001027,00000112,false,0,8,FA,1F,C7,0E,3A,72,75,5F
000001028,0000012F,false,0,8,05,2D,86,1B,F1,35,30,00
000001029,00000100,false,0,8,38,F9,7F,C0,5D,66,87,70
000001030,000000C0,false,0,2,FA,40,00,00,00,00,00,00
000001031,0000003C,false,0,8,FF,5F,00,00,00,00,FF,FF
000001032,000000EF,false,0,8,81,F5,00,7D,21,FE,7C,FF
000001033,000001A1,false,0,5,5A,C0,00,00,8A,00,00,00
000001034,000000A9,false,0,8,C0,78,00,90,F1,00,00,FF
000001035,00000112,false,0,8,FA,1F,C7,0E,3A,72,75,5F
000001036,00000100,false,0,8,DF,FA,7F,C0,5D,66,87,70
000001037,00000302,false,0,7,FF,FF,FF,7F,FC,FF,FF,00
000001038,00000199,false,0,6,FF,FF,A5,7E,FF,3F,00,00
000001039,0000019A,false,0,6,FF,FF,95,7E,FF,3F,00,00
000001040,0000019F,false,0,6,FF,FF,10,80,FF,2F,00,00
000001041,00000254,false,0,8,FF,7F,FF,7F,FF,7F,FF,7F
000001042,00000258,false,0,2,44,44,00,00,00,00,00,00
000001043,000001AE,false,0,2,F7,FF,00,00,00,00,00,00
000001044,0000015F,false,0,8,91,F6,00,7D,00,EE,00,7D
000001045,000002A1,false,0,5,80,58,02,00,F0,00,00,00
000001046,00000337,false,0,2,FF,FF,00,00,00,00,00,00
000001047,000003B4,false,0,8,00,FF,30,F0,B8,FF,00,00
000001048,000007BD,false,0,8,00,00,00,C0,FF,C0,01,08
000001049,000007BE,false,0,8,05,00,00,00,00,00,00,E0
000001050,000000A5,false,0,8,67,F7,FF,F7,7F,00,00,C1
000001051,000000AC,false,0,2,00,F0,00,00,00,00,00,00
000001052,000000D9,false,0,8,C3,F7,00,10,00,F0,7F,C8
000001053,000000F3,false,0,8,05,07,00,FF,F0,C0,FF,FF
000001054,00000112,false,0,8,FA,1F,C7,0E,3A,72,75,5F
000001055,00000197,false,0,4,0A,09,0E,C0,00,00,00,00
000001056,00000100,false,0,8,82,FB,7F,C0,5D,66,87,70
000001057,000002BB,false,0,5,D4,F2,00,00,F2,00,00,00
000001058,000002E8,false,0,8,C0,18,C5,FF,FF,F4,F8,4C
000001059,000003FD,false,0,5,28,08,00,00,FF,00,00,00
000001060,00000108,false,0,8,00,7D,FF,FF,07,F1,FF,FF
000001061,00000206,false,0,8,3A,2B,5C,FF,FF,FF,FF,FF
000001062,00000212,false,0,8,A5,F9,F9,FF,FF,FF,FF,FF
000001063,000002DB,false,0,8,FF,FF,FF,FF,BF,FF,FF,FF
000001064,000000EF,false,0,8,66,F6,00,7D,21,FE,7C,FF
000001065,000002F1,false,0,8,B4,0F,00,00,00,00,00,A0
000001066,0000032B,false,0,8,FF,FF,FF,FF,FF,FF,00,FF
000001067,000001A1,false,0,5,7D,C2,00,00,8A,00,00,00
000001068,00000331,false,0,8,FF,FF,FF,EF,7F,FE,F7,FF
000001069,000003E9,false,0,8,08,52,00,00,00,00,00,00
000001070,00000112,false,0,8,FA,1F,C7,0E,3A,72,75,5F
000001071,00000100,false,0,8,0C,FC,7F,C0,5D,66,87,70
000001072,00000199,false,0,6,FF,FF,AF,7E,FF,3F,00,00
000001073,0000019A,false,0,6,FF,FF,95,7E,FF,3F,00,00
000001074,0000019F,false,0,6,FF,FF,05,80,FF,2F,00,00
000001075,00000254,false,0,8,FF,7F,FF,7F,FF,7F,FF,7F
000001076,00000258,false,0,2,44,44,00,00,00,00,00,00
000001077,0000036F,false,0,5,20,FB,FE,FF,14,00,00,00
000001078,00000201,false,0,8,81,60,81,60,FF,FF,FF,FF
000001079,0000015F,false,0,8,CC,F7,00,7D,00,EE,00,7D
000001080,000002B0,false,0,6,43,4D,05,C8,FF,FF,00,00
000001081,00000301,false,0,7,FF,FF,FF,7F,FF,FF,CF,00
000001082,000000A5,false,0,8,3B,F8,FF,F7,7F,00,00,C1
000001083,000000AC,false,0,2,00,F0,00,00,00,00,00,00
000001084,000000D9,false,0,8,9F,F8,00,10,00,F0,7F,C8
000001085,000000F3,false,0,8,59,08,00,FF,F0,C0,FF,FF
000001086,00000112,false,0,8,FA,1F,C7,0E,3A,72,75,5F
000001087,00000100,false,0,8,51,FD,7F,C0,5D,66,87,70
000001088,000000EF,false,0,8,3B,F7,00,7D,21,FE,7C,FF
000001089,000001A1,false,0,5,14,C4,00,00,8A,00,00,00
000001090,00000163,false,0,8,FF,FF,0D,25,FF,FF,FF,FF
000001091,00000173,false,0,8,3A,FE,00,0E,30,00,DE,10
000001092,00000112,false,0,8,FB,1F,C7,0E,3A,72,75,5F
000001093,00000197,false,0,4,86,0A,0E,C0,00,00,00,00
000001094,00000100,false,0,8,B6,FE,7F,C0,5D,66,87,70
000001095,00000199,false,0,6,FF,FF,B9,7E,FF,3F,00,00
000001096,0000019A,false,0,6,FF,FF,77,7E,FF,3F,00,00
000001097,0000019F,false,0,6,FF,FF,EB,7F,FF,2F,00,00
000001098,00000254,false,0,8,FF,7F,FF,7F,FF,7F,FF,7F
000001099,00000258,false,0,2,44,44,00,00,00,00,00,00
000001100,00000302,false,0,7,FF,FF,FF,7F,FC,FF,FF,00
000001101,0000015F,false,0,8,90,F8,00,7D,00,EE,00,7D
000001102,00000272,false,0,8,6F,FC,01,11,FF,FF,FF,FF
000001103,000000A5,false,0,8,66,F9,FF,F7,7F,00,00,C1
000001104,000000AC,false,0,2,00,F0,00,00,00,00,00,00
000001105,000000D9,false,0,8,C2,F9,00,10,00,F0,7F,C8
000001106,00000112,false,0,8,FA,1F,C7,0E,3A,72,75,5F
000001107,00000100,false,0,8,50,F3,7F,C0,5D,66,87,70
000001108,000002C5,false,0,7,1D,F7,00,20,06,20,CA,00
000001109,000002CA,false,0,2,72,72,00,00,00,00,00,00
000001110,000002F7,false,0,6,0E,D8,49,09,11,F1,00,00
000001111,000002F8,false,0,8,17,36,14,17,57,E5,07,F5
000001112,00000199,false,0,6,FF,FF,CD,7E,FF,3F,00,00
000001113,0000019A,false,0,6,FF,FF,77,7E,FF,3F,00,00
000001114,0000019F,false,0,6,FF,FF,FB,7F,FF,2F,00,00
000001115,00000254,false,0,8,FF,7F,FF,7F,FF,7F,FF,7F
000001116,00000258,false,0,2,44,44,00,00,00,00,00,00
000001117,00000302,false,0,7,FF,FF,FF,7F,FC,FF,FF,00
000001118,00000330,false,0,8,17,2F,01,02,00,06,EC,06
000001119,00000356,false,0,8,6F,50,04,FF,FF,FF,FF,FF
000001120,00000373,false,0,6,74,50,04,29,F0,FF,00,00
000001121,00000393,false,0,4,3F,32,0E,FE,00,00,00,00
000001122,0000015F,false,0,8,2A,FA,00,7D,00,EE,00,7D
000001123,000000A5,false,0,8,DC,FB,FF,F7,7F,00,00,C1
000001124,000000AC,false,0,2,00,F0,00,00,00,00,00,00
000001125,000000D9,false,0,8,78,FB,00,10,00,F0,7F,C8
000001126,000000F3,false,0,8,BE,0B,00,FF,F0,C0,FF,FF
000001127,00000112,false,0,8,FA,1F,C7,0E,3A,72,75,5F
000001128,0000012F,false,0,8,D7,25,86,1B,F1,35,30,00
000001129,00000100,false,0,8,DE,F4,7F,C0,5D,66,87,70
000001130,0000003C,false,0,8,FF,5F,00,00,00,00,FF,FF
000001131,00000297,false,0,7,B2,E3,F0,FC,F2,92,EA,00
000001132,000003A5,false,0,5,E1,D5,FF,FF,FF,00,00,00
000001133,00000206,false,0,8,E9,2D,5C,FF,FF,FF,FF,FF
000001134,000000EF,false,0,8,DD,FA,00,7D,21,FE,7C,FF
000001135,000001A1,false,0,5,E1,CA,00,00,8A,00,00,00
000001136,000000A9,false,0,8,C0,78,00,90,F1,00,00,FF
000001137,00000112,false,0,8,FA,1F,C7,0E,3A,72,75,5F
000001138,00000197,false,0,4,8A,02,0E,C0,00,00,00,00
000001139,00000100,false,0,8,83,F5,7F,C0,5D,66,87,70
000001140,000002A7,false,0,5,C0,FD,FE,FF,14,00,00,00
000001141,00000199,false,0,6,FF,FF,C3,7E,FF,3F,00,00
000001142,0000019A,false,0,6,FF,FF,8B,7E,FF,3F,00,00
000001143,0000019F,false,0,6,FF,FF,01,80,FF,2F,00,00
000001144,00000254,false,0,8,FF,7F,FF,7F,FF,7F,FF,7F
000001145,00000258,false,0,2,44,44,00,00,00,00,00,00
000001146,000001AE,false,0,2,F7,FF,00,00,00,00,00,00
000001147,0000015F,false,0,8,77,FB,00,7D,00,EE,00,7D
000001148,000002A1,false,0,5,80,58,02,00,F0,00,00,00
000001149,000007BD,false,0,8,00,00,00,C0,FF,C0,01,08
000001150,000007BE,false,0,8,07,05,00,63,06,67,00,00
000001151,000000A5,false,0,8,52,FC,FF,F7,7F,00,00,C1
000001152,000000AC,false,0,2,00,F0,00,00,00,00,00,00
000001153,000000D9,false,0,8,F6,FC,00,10,00,F0,7F,C8
000001154,000000F3,false,0,8,30,0C,00,FF,F0,C0,FF,FF
000001155,00000112,false,0,8,FA,1F,C7,0E,3A,72,75,5F
000001156,00000431,false,0,8,CA,FF,FF,FF,FF,6C,F3,4B
000001157,00000100,false,0,8,64,F6,7F,C0,5D,66,87,70
000001158,000002BB,false,0,5,21,FC,00,00,F2,00,00,00
000001159,000002E8,false,0,8,C0,18,C5,FF,FF,F4,F0,A4
000001160,000003FD,false,0,5,B4,00,00,00,FF,00,00,00
000001161,00000108,false,0,8,00,7D,FF,FF,07,F1,FF,FF
000001162,00000212,false,0,8,77,F1,F9,FF,FF,FF,FF,FF
000001163,000002DB,false,0,8,FF,FF,FF,FF,BF,FF,FF,FF
000001164,000002F1,false,0,8,B4,0F,00,00,00,00,00,A0
000001165,000000EF,false,0,8,80,FB,00,7D,21,FE,7C,FF
000001166,000001A1,false,0,5,88,CC,00,00,8A,00,00,00
000001167,00000397,false,0,7,00,2B,00,57,14,77,01,00
000001168,00000112,false,0,8,FA,1F,C7,0E,3A,72,75,5F
000001169,00000432,false,0,8,4C,ED,10,B1,8A,FF,00,FF
000001170,00000100,false,0,8,39,F7,7F,C0,5D,66,87,70
000001171,000001D6,false,0,2,F0,C0,00,00,00,00,00,00
000001172,000002FC,false,0,8,81,04,00,FF,FF,FF,FF,FF
000001173,00000349,false,0,5,FE,FF,EA,1A,00,00,00,00
000001174,00000199,false,0,6,FF,FF,B9,7E,FF,3F,00,00
000001175,0000019A,false,0,6,FF,FF,6D,7E,FF,3F,00,00
000001176,0000019F,false,0,6,FF,FF,0E,80,FF,2F,00,00
000001177,00000254,false,0,8,FF,7F,FF,7F,FF,7F,FF,7F
000001178,00000258,false,0,2,44,44,00,00,00,00,00,00
000001179,00000302,false,0,7,FF,FF,FF,7F,FC,FF,FF,00
000001180,00000201,false,0,8,21,61,21,61,FF,FF,FF,FF
000001181,0000015F,false,0,8,F9,FC,00,7D,00,EE,00,7D
000001182,000002B0,false,0,6,43,4D,05,C8,FF,FF,00,00
000001183,000000A5,false,0,8,0F,FD,FF,F7,7F,00,00,C1
000001184,000000AC,false,0,2,00,F0,00,00,00,00,00,00
000001185,000000D9,false,0,8,AB,FD,00,10,00,F0,7F,C8
000001186,000000F3,false,0,8,6D,0D,00,FF,F0,C0,FF,FF
000001187,00000112,false,0,8,FA,1F,C7,0E,3A,72,75,5F
000001188,00000197,false,0,4,05,03,0E,C0,00,00,00,00
000001189,00000100,false,0,8,65,F8,7F,C0,5D,66,87,70
000001190,00000314,false,0,3,11,02,FF,00,00,00,00,00
000001191,00000206,false,0,8,0E,2E,5C,FF,FF,FF,FF,FF
000001192,000000EF,false,0,8,0E,FC,00,7D,21,FE,7C,FF
000001193,000001A1,false,0,5,AF,CE,00,00,8A,00,00,00
000001194,00000163,false,0,8,FF,FF,0D,25,FF,FF,FF,FF
000001195,00000173,false,0,8,B4,F9,00,0E,30,00,DE,10
000001196,00000112,false,0,8,FA,1F,C7,0E,3A,72,75,5F
000001197,00000100,false,0,8,38,F9,7F,C0,5D,66,87,70
000001198,000003AC,false,0,2,FE,CF,00,00,00,00,00,00
000001199,0000036E,false,0,5,C9,F0,FE,FF,14,00,00,00
000001200,00000199,false,0,6,FF,FF,AF,7E,FF,3F,00,00
000001201,0000019A,false,0,6,FF,FF,77,7E,FF,3F,00,00
000001202,0000019F,false,0,6,FF,FF,01,80,FF,2F,00,00
000001203,00000254,false,0,8,FF,7F,FF,7F,FF,7F,FF,7F
000001204,00000258,false,0,2,44,44,00,00,00,00,00,00
000001205,0000015F,false,0,8,A4,FD,00,7D,00,EE,00,7D
000001206,000000A5,false,0,8,E8,FE,FF,F7,7F,00,00,C1
000001207,000000AC,false,0,2,00,F0,00,00,00,00,00,00
000001208,000000D9,false,0,8,4C,FE,00,10,00,F0,7F,C8
000001209,000000F3,false,0,8,8A,0E,00,FF,F0,C0,FF,FF
000001210,00000112,false,0,8,FA,1F,C7,0E,3A,72,75,5F
000001211,00000100,false,0,8,DF,FA,7F,C0,5D,66,87,70
000001212,000000EF,false,0,8,53,FD,00,7D,21,FE,7C,FF
000001213,000001A1,false,0,5,C7,C1,00,00,8A,00,00,00
000001214,000007BD,false,0,8,04,00,00,00,00,00,00,80
000001215,000007BE,false,0,8,00,C0,FA,1C,02,00,00,00
000001216,00000112,false,0,8,FA,1F,C7,0E,3A,72,75,5F
000001217,00000197,false,0,4,8F,04,0E,C0,00,00,00,00
000001218,00000100,false,0,8,82,FB,7F,C0,5D,66,87,70
000001219,00000199,false,0,6,FF,FF,AF,7E,FF,3F,00,00
000001220,0000019A,false,0,6,FF,FF,77,7E,FF,3F,00,00
000001221,0000019F,false,0,6,FF,FF,12,80,FF,2F,00,00
000001222,00000254,false,0,8,FF,7F,FF,7F,FF,7F,FF,7F
000001223,00000258,false,0,2,44,44,00,00,00,00,00,00
000001224,00000302,false,0,7,FF,FF,FF,7F,FC,FF,FF,00
000001225,0000015F,false,0,8,43,FE,00,7D,00,EE,00,7D
000001226,000002C4,false,0,8,00,00,FF,00,C8,64,FF,CF
000001227,000000A5,false,0,8,E9,F0,FF,F7,7F,00,00,C1
000001228,000000AC,false,0,2,00,F0,00,00,00,00,00,00
000001229,000000D9,false,0,8,4D,F0,00,10,00,F0,7F,C8
000001230,000000F3,false,0,8,8B,00,00,FF,F0,C0,FF,FF
000001231,00000304,false,0,6,FF,FF,BF,37,FF,FF,00,00
000001232,00000112,false,0,8,FB,1F,C7,0E,3A,72,75,5F
000001233,00000100,false,0,8,EA,F1,7F,C0,5D,66,87,70
000001234,000002BB,false,0,5,07,F7,00,00,F2,00,00,00
000001235,000002E8,false,0,8,C0,18,C5,FF,FF,F4,F7,F7
000001236,000003FD,false,0,5,40,07,00,00,FF,00,00,00
000001237,00000108,false,0,8,00,7D,FF,FF,07,F1,FF,FF
000001238,00000206,false,0,8,52,21,5C,FF,FF,FF,FF,FF
000001239,00000212,false,0,8,F8,F8,F9,FF,FF,FF,FF,FF
000001240,000002DB,false,0,8,FF,FF,FF,FF,BF,FF,FF,FF
000001241,000000EF,false,0,8,E8,F1,00,7D,21,FE,7C,FF
000001242,000002F1,false,0,8,B4,0F,00,00,00,00,00,A0
000001243,0000032B,false,0,8,FF,FF,FF,FF,FF,FF,00,FF
000001244,000001A1,false,0,5,AE,C7,00,00,8A,00,00,00
000001245,00000331,false,0,8,FF,FF,FF,EF,7F,FE,F7,FF
000001246,000003E9,false,0,8,08,52,00,00,00,00,00,00
000001247,00000112,false,0,8,FA,1F,C7,0E,3A,72,75,5F
000001248,00000197,false,0,4,09,0B,0E,C0,00,00,00,00
000001249,00000100,false,0,8,0D,F2,7F,C0,5D,66,87,70
000001250,000002A7,false,0,5,7B,F7,FE,FF,14,00,00,00
000001251,000002F9,false,0,7,00,00,00,08,7E,C0,F3,00
000001252,00000199,false,0,6,FF,FF,B9,7E,FF,3F,00,00
000001253,0000019A,false,0,6,FF,FF,77,7E,FF,3F,00,00
000001254,0000019F,false,0,6,FF,FF,08,80,FF,2F,00,00
000001255,00000254,false,0,8,FF,7F,FF,7F,FF,7F,FF,7F
000001256,00000258,false,0,2,44,44,00,00,00,00,00,00
000001257,00000201,false,0,8,C0,61,C0,61,FF,FF,FF,FF
000001258,0000015F,false,0,8,F8,F2,00,7D,00,EE,00,7D
000001259,000002B0,false,0,6,42,4D,05,C8,FF,FF,00,00
000001260,00000301,false,0,7,FF,FF,FF,7F,FF,FF,CF,00
000001261,000000A5,false,0,8,0E,F3,FF,F7,7F,00,00,C1
000001262,000000AC,false,0,2,00,F0,00,00,00,00,00,00
000001263,000000D9,false,0,8,AA,F3,00,10,00,F0,7F,C8
000001264,000000F3,false,0,8,6C,03,00,FF,F0,C0,FF,FF
000001265,00000112,false,0,8,FA,1F,C7,0E,3A,72,75,5F
000001266,00000100,false,0,8,50,F3,7F,C0,5D,66,87,70
000001267,000000EF,false,0,8,0F,F2,00,7D,21,FE,7C,FF
000001268,000001A1,false,0,5,5B,C9,00,00,8A,00,00,00
000001269,00000163,false,0,8,FF,FF,0D,25,FF,FF,FF,FF
000001270,00000173,false,0,8,52,F4,00,0E,30,00,DE,10
000001271,00000112,false,0,8,FA,1F,C7,0E,3A,72,75,5F
000001272,00000100,false,0,8,DE,F4,7F,C0,5D,66,87,70
000001273,00000199,false,0,6,FF,FF,C3,7E,FF,3F,00,00
000001274,0000019A,false,0,6,FF,FF,63,7E,FF,3F,00,00
000001275,0000019F,false,0,6,FF,FF,F8,7F,FF,2F,00,00
000001276,00000254,false,0,8,FF,7F,FF,7F,FF,7F,FF,7F
000001277,00000258,false,0,2,44,44,00,00,00,00,00,00
000001278,00000302,false,0,7,FF,FF,FF,7F,FC,FF,FF,00
000001279,0000015F,false,0,8,A5,F3,00,7D,00,EE,00,7D
000001280,00000272,false,0,8,BD,F4,01,11,FF,FF,FF,FF
000001281,000000A5,false,0,8,80,F4,FF,F7,7F,00,00,C1
000001282,000000AC,false,0,2,00,F0,00,00,00,00,00,00
000001283,000000D9,false,0,8,24,F4,00,10,00,F0,7F,C8
000001284,000000F3,false,0,8,E2,04,00,FF,F0,C0,FF,FF
000001285,00000112,false,0,8,FA,1F,C7,0E,3A,72,75,5F
000001286,000001E1,false,0,6,4E,F5,04,FF,FF,FF,00,00
000001287,00000197,false,0,4,83,0C,0E,C0,00,00,00,00
000001288,00000100,false,0,8,83,F5,7F,C0,5D,66,87,70
000001289,00000206,false,0,8,B5,22,5C,FF,FF,FF,FF,FF
000001290,000000EF,false,0,8,52,F3,00,7D,21,FE,7C,FF
000001291,000001A1,false,0,5,7C,CB,00,00,8A,00,00,00
000001292,00000112,false,0,8,FA,1F,C7,0E,3A,72,75,5F
000001293,00000239,false,0,8,81,91,2A,57,01,FF,FF,FF
000001294,00000100,false,0,8,64,F6,7F,C0,5D,66,87,70
000001295,00000199,false,0,6,FF,FF,C3,7E,FF,3F,00,00
000001296,0000019A,false,0,6,FF,FF,81,7E,FF,3F,00,00
000001297,0000019F,false,0,6,FF,FF,FA,7F,FF,2F,00,00
000001298,00000254,false,0,8,FF,7F,FF,7F,FF,7F,FF,7F
000001299,00000258,false,0,2,44,44,00,00,00,00,00,00
000001300,0000036F,false,0,5,D5,F5,FE,FF,14,00,00,00
000001301,0000015F,false,0,8,2B,F4,00,7D,00,EE,00,7D
000001302,000002C4,false,0,8,00,00,FF,00,C8,64,FF,CF
000001303,000000A5,false,0,8,DD,F5,FF,F7,7F,00,00,C1
000001304,000000AC,false,0,2,00,F0,00,00,00,00,00,00
000001305,000000D9,false,0,8,79,F5,00,10,00,F0,7F,C8
000001306,000000F3,false,0,8,BF,05,00,FF,F0,C0,FF,FF
000001307,00000112,false,0,8,FA,1F,C7,0E,3A,72,75,5F
000001308,000002F5,false,0,8,71,0F,60,29,22,0A,06,10
000001309,00000100,false,0,8,39,F7,7F,C0,5D,66,87,70
000001310,00000201,false,0,8,CB,61,CB,61,FF,FF,FF,FF
000001311,000000EF,false,0,8,DC,F4,00,7D,21,FE,7C,FF
000001312,000001A1,false,0,5,15,CD,00,00,8A,00,00,00
000001313,00000112,false,0,8,FA,1F,C7,0E,3A,72,75,5F
000001314,00000197,false,0,4,0C,0D,0E,C0,00,00,00,00
000001315,00000100,false,0,8,65,F8,7F,C0,5D,66,87,70
000001316,000002C5,false,0,7,D2,F0,00,20,06,20,CA,00
000001317,00000199,false,0,6,FF,FF,C3,7E,FF,3F,00,00
000001318,0000019A,false,0,6,FF,FF,8B,7E,FF,3F,00,00
000001319,0000019F,false,0,6,FF,FF,10,80,FF,2F,00,00
000001320,00000254,false,0,8,FF,7F,FF,7F,FF,7F,FF,7F
000001321,00000258,false,0,2,44,44,00,00,00,00,00,00
000001322,00000302,false,0,7,FF,FF,FF,7F,FC,FF,FF,00
000001323,0000015F,false,0,8,76,F5,00,7D,00,EE,00,7D
000001324,000000A5,false,0,8,3A,F6,FF,F7,7F,00,00,C1
000001325,000000AC,false,0,2,00,F0,00,00,00,00,00,00
000001326,000000D9,false,0,8,9E,F6,00,10,00,F0,7F,C8
000001327,000000F3,false,0,8,58,06,00,FF,F0,C0,FF,FF
000001328,00000112,false,0,8,FA,1F,C7,0E,3A,72,75,5F
000001329,0000012F,false,0,8,05,2D,86,1B,F1,35,30,00
000001330,00000100,false,0,8,38,F9,7F,C0,5D,66,87,70
000001331,0000003C,false,0,8,FF,5F,00,00,00,00,FF,FF
000001332,00000297,false,0,7,B7,E7,F0,FC,F2,92,EA,00
000001333,00000206,false,0,8,E8,23,5C,FF,FF,FF,FF,FF
000001334,000000EF,false,0,8,81,F5,00,7D,21,FE,7C,FF
000001335,000001A1,false,0,5,5A,C0,00,00,8A,00,00,00
000001336,000000A9,false,0,8,B0,78,00,90,F1,00,00,FF
000001337,00000112,false,0,8,FA,1F,C7,0E,3A,72,75,5F
000001338,00000200,false,0,8,00,00,81,00,0E,28,FA,FF
000001339,00000100,false,0,8,DF,FA,7F,C0,5D,66,87,70
000001340,000002A7,false,0,5,13,F8,FE,FF,14,00,00,00
000001341,00000246,false,0,5,3F,FB,00,FF,FF,00,00,00
000001342,00000299,false,0,6,FF,FF,FF,FF,FF,00,00,00
000001343,00000199,false,0,6,FF,FF,A5,7E,FF,3F,00,00
000001344,0000019A,false,0,6,FF,FF,77,7E,FF,3F,00,00
000001345,0000019F,false,0,6,FF,FF,08,80,FF,2F,00,00
000001346,00000254,false,0,8,FF,7F,FF,7F,FF,7F,FF,7F
000001347,00000258,false,0,2,44,44,00,00,00,00,00,00
000001348,000001AE,false,0,2,F7,FF,00,00,00,00,00,00
000001349,0000015F,false,0,8,91,F6,00,7D,00,EE,00,7D
000001350,000002A1,false,0,5,80,58,02,00,F0,00,00,00
000001351,000007BD,false,0,8,00,00,00,C0,FF,C0,01,08
000001352,000007BE,false,0,8,0C,41,04,68,00,00,00,00
000001353,000000A5,false,0,8,67,F7,FF,F7,7F,00,00,C1
000001354,000000AC,false,0,2,00,F0,00,00,00,00,00,00
000001355,000000D9,false,0,8,C3,F7,00,10,00,F0,7F,C8
000001356,000000F3,false,0,8,05,07,00,FF,F0,C0,FF,FF
000001357,00000112,false,0,8,FA,1F,C7,0E,3A,72,75,5F
000001358,00000112,false,0,8,FA,1F,C7,0E,3A,72,75,5F
000001359,00000197,false,0,4,00,05,0E,C0,00,00,00,00
000001360,00000100,false,0,8,B6,FE,7F,C0,5D,66,87,70
000001361,000002A7,false,0,5,12,F1,FE,FF,14,00,00,00
000001362,00000199,false,0,6,FF,FF,AF,7E,FF,3F,00,00
000001363,0000019A,false,0,6,FF,FF,95,7E,FF,3F,00,00
000001364,0000019F,false,0,6,FF,FF,0A,80,FF,2F,00,00
000001365,00000254,false,0,8,FF,7F,FF,7F,FF,7F,FF,7F
000001366,00000258,false,0,2,44,44,00,00,00,00,00,00
000001367,0000015F,false,0,8,90,F8,00,7D,00,EE,00,7D
000001368,000000A5,false,0,8,66,F9,FF,F7,7F,00,00,C1
000001369,000000AC,false,0,2,00,F0,00,00,00,00,00,00
000001370,000000D9,false,0,8,C2,F9,00,10,00,F0,7F,C8
000001371,000000F3,false,0,8,04,09,00,FF,F0,C0,FF,FF
000001372,00000112,false,0,8,FA,1F,C7,0E,3A,72,75,5F
000001373,00000100,false,0,8,B7,F0,7F,C0,5D,66,87,70
000001374,000000EF,false,0,8,67,F8,00,7D,21,FE,7C,FF
000001375,000001A1,false,0,5,33,C6,00,00,8A,00,00,00
000001376,000003CA,false,0,8,93,B0,21,0A,0A,31,FF,FF
000001377,000007BE,false,0,8,07,04,00,61,06,67,00,00
000001378,00000112,false,0,8,FA,1F,C7,0E,3A,72,75,5F
000001379,00000100,false,0,8,EA,F1,7F,C0,5D,66,87,70
000001380,000002A6,false,0,2,00,F2,00,00,00,00,00,00
000001381,00000199,false,0,6,FF,FF,A5,7E,FF,3F,00,00
000001382,0000019A,false,0,6,FF,FF,6D,7E,FF,3F,00,00
000001383,0000019F,false,0,6,FF,FF,FF,7F,FF,2F,00,00
000001384,00000254,false,0,8,FF,7F,FF,7F,FF,7F,FF,7F
000001385,00000258,false,0,2,44,44,00,00,00,00,00,00
000001386,00000302,false,0,7,FF,FF,FF,7F,FC,FF,FF,00
000001387,0000015F,false,0,8,CD,F9,00,7D,00,EE,00,7D
000001388,000002C4,false,0,8,00,00,FF,00,C8,64,FF,CF
000001389,000000A5,false,0,8,81,FA,FF,F7,7F,00,00,C1
000001390,000000AC,false,0,2,00,F0,00,00,00,00,00,00
000001391,000000D9,false,0,8,25,FA,00,10,00,F0,7F,C8
000001392,000000F3,false,0,8,E3,0A,00,FF,F0,C0,FF,FF
000001393,00000304,false,0,6,FF,FF,BF,37,FF,FF,00,00
000001394,00000112,false,0,8,FB,1F,C7,0E,3A,72,75,5F
000001395,00000197,false,0,4,8C,06,0E,C0,00,00,00,00
000001396,000003B4,false,0,8,00,FF,34,F0,BE,FF,00,00
000001397,000002F5,false,0,8,71,0F,60,29,22,0A,06,10
000001398,00000100,false,0,8,0D,F2,7F,C0,5D,66,87,70
000001399,00000314,false,0,3,11,02,FF,00,00,00,00,00
000001400,00000206,false,0,8,3B,25,5C,FF,FF,FF,FF,FF
000001401,00000201,false,0,8,6A,62,6A,62,FF,FF,FF,FF
000001402,000000EF,false,0,8,3A,F9,00,7D,21,FE,7C,FF
000001403,000001A1,false,0,5,C6,C8,00,00,8A,00,00,00
000001404,00000112,false,0,8,FA,1F,C7,0E,3A,72,75,5F
000001405,00000100,false,0,8,50,F3,7F,C0,5D,66,87,70
000001406,0000036E,false,0,5,C8,F9,FE,FF,14,00,00,00
000001407,000002C5,false,0,7,1D,F7,00,20,06,20,CA,00
000001408,00000199,false,0,6,FF,FF,B9,7E,FF,3F,00,00
000001409,0000019A,false,0,6,FF,FF,4F,7E,FF,3F,00,00
000001410,0000019F,false,0,6,FF,FF,F9,7F,FF,2F,00,00
000001411,00000254,false,0,8,FF,7F,FF,7F,FF,7F,FF,7F
000001412,00000258,false,0,2,44,44,00,00,00,00,00,00
000001413,0000015F,false,0,8,2A,FA,00,7D,00,EE,00,7D
000001414,000000A5,false,0,8,DC,FB,FF,F7,7F,00,00,C1
000001415,000000AC,false,0,2,00,F0,00,00,00,00,00,00
000001416,000000D9,false,0,8,78,FB,00,10,00,F0,7F,C8
000001417,000000F3,false,0,8,BE,0B,00,FF,F0,C0,FF,FF
000001418,00000112,false,0,8,FA,1F,C7,0E,3A,72,75,5F
000001419,0000012F,false,0,8,D7,25,86,1B,F1,35,30,00
000001420,00000100,false,0,8,DE,F4,7F,C0,5D,66,87,70
000001421,000000C0,false,0,2,F6,40,00,00,00,00,00,00
000001422,0000003C,false,0,8,FF,5F,00,00,00,00,FF,FF
000001423,000000EF,false,0,8,DD,FA,00,7D,21,FE,7C,FF
000001424,000001A1,false,0,5,E1,CA,00,00,8A,00,00,00
000001425,000000A9,false,0,8,C0,78,00,90,F1,00,00,FF
000001426,00000112,false,0,8,FA,1F,C7,0E,3A,72,75,5F
000001427,00000197,false,0,4,03,07,0E,C0,00,00,00,00
000001428,00000100,false,0,8,83,F5,7F,C0,5D,66,87,70
000001429,00000199,false,0,6,FF,FF,C3,7E,FF,3F,00,00
000001430,0000019A,false,0,6,FF,FF,63,7E,FF,3F,00,00
000001431,0000019F,false,0,6,FF,FF,0D,80,FF,2F,00,00
000001432,00000254,false,0,8,FF,7F,FF,7F,FF,7F,FF,7F
000001433,00000258,false,0,2,44,44,00,00,00,00,00,00
000001434,00000302,false,0,7,FF,FF,FF,7F,FC,FF,FF,00
000001435,000001AE,false,0,2,F7,FF,00,00,00,00,00,00
000001436,0000015F,false,0,8,77,FB,00,7D,00,EE,00,7D
000001437,000002A1,false,0,5,80,58,02,00,F0,00,00,00
000001438,000007BD,false,0,8,00,00,00,C0,FF,C0,01,08
000001439,000007BE,false,0,8,05,00,00,00,00,00,00,E0
000001440,000000A5,false,0,8,52,FC,FF,F7,7F,00,00,C1
000001441,000000AC,false,0,2,00,F0,00,00,00,00,00,00
000001442,000000D9,false,0,8,F6,FC,00,10,00,F0,7F,C8
000001443,000000F3,false,0,8,30,0C,00,FF,F0,C0,FF,FF
000001444,000003B4,false,0,8,00,FF,34,F0,BE,FF,00,00
000001445,00000112,false,0,8,FA,1F,C7,0E,3A,72,75,5F
000001446,00000100,false,0,8,64,F6,7F,C0,5D,66,87,70
000001447,000002BB,false,0,5,21,FC,00,00,F2,00,00,00
000001448,000002E8,false,0,8,C0,18,C5,FF,FF,F4,F0,A4
000001449,000003FD,false,0,5,B4,00,00,00,FF,00,00,00
000001450,00000108,false,0,8,00,7D,FF,FF,07,F1,FF,FF
000001451,00000206,false,0,8,DC,26,5C,FF,FF,FF,FF,FF
000001452,00000212,false,0,8,77,F1,F9,FF,FF,FF,FF,FF
000001453,000002DB,false,0,8,FF,FF,FF,FF,BF,FF,FF,FF
000001454,000000EF,false,0,8,80,FB,00,7D,21,FE,7C,FF
000001455,000002F1,false,0,8,B4,0F,00,00,00,00,00,A0
000001456,0000032B,false,0,8,FF,FF,FF,FF,FF,FF,00,FF
000001457,000001A1,false,0,5,88,CC,00,00,8A,00,00,00
000001458,00000331,false,0,8,FF,FF,FF,EF,7F,FE,F7,FF
000001459,000003E9,false,0,8,08,52,00,00,00,00,00,00
000001460,000003B4,false,0,8,00,FF,35,F0,BE,FF,00,00
000001461,00000112,false,0,8,FA,1F,C7,0E,3A,72,75,5F
000001462,00000100,false,0,8,39,F7,7F,C0,5D,66,87,70
000001463,000002A7,false,0,5,A8,F2,FE,FF,14,00,00,00
000001464,00000199,false,0,6,FF,FF,A5,7E,FF,3F,00,00
000001465,0000019A,false,0,6,FF,FF,63,7E,FF,3F,00,00
000001466,0000019F,false,0,6,FF,FF,07,80,FF,2F,00,00
000001467,00000254,false,0,8,FF,7F,FF,7F,FF,7F,FF,7F
000001468,00000258,false,0,2,44,44,00,00,00,00,00,00
000001469,00000201,false,0,8,76,62,76,62,FF,FF,FF,FF
000001470,0000015F,false,0,8,F9,FC,00,7D,00,EE,00,7D
000001471,000002B0,false,0,6,43,4D,05,C8,FF,FF,00,00
000001472,00000301,false,0,7,FF,FF,FF,7F,FF,FF,CF,00
000001473,000000A5,false,0,8,0F,FD,FF,F7,7F,00,00,C1
000001474,000000AC,false,0,2,00,F0,00,00,00,00,00,00
000001475,000000D9,false,0,8,AB,FD,00,10,00,F0,7F,C8
000001476,000000F3,false,0,8,6D,0D,00,FF,F0,C0,FF,FF
000001477,00000112,false,0,8,FB,1F,C7,0E,3A,72,75,5F
000001478,00000197,false,0,4,85,08,0E,C0,00,00,00,00
000001479,00000100,false,0,8,65,F8,7F,C0,5D,66,87,70
000001480,000000EF,false,0,8,0E,FC,00,7D,21,FE,7C,FF
000001481,000001A1,false,0,5,AF,CE,00,00,8A,00,00,00
000001482,00000163,false,0,8,FF,FF,0D,25,FF,FF,FF,FF
000001483,00000173,false,0,8,B4,F9,00,0E,30,00,DE,10
000001484,000000EF,false,0,8,B4,FE,00,7D,21,FE,7C,FF
000001485,000001A1,false,0,5,E0,C3,00,00,8A,00,00,00
000001486,000007BD,false,0,8,11,00,00,00,00,00,00,00
000001487,000007BE,false,0,8,0B,00,00,00,00,00,00,00
000001488,00000112,false,0,8,FA,1F,C7,0E,3A,72,75,5F
000001489,00000100,false,0,8,51,FD,7F,C0,5D,66,87,70
000001490,00000348,false,0,8,E7,00,0A,7F,FE,02,EC,11
000001491,00000199,false,0,6,FF,FF,AF,7E,FF,3F,00,00
000001492,0000019A,false,0,6,FF,FF,63,7E,FF,3F,00,00
000001493,0000019F,false,0,6,FF,FF,17,80,FF,2F,00,00
000001494,00000254,false,0,8,FF,7F,FF,7F,FF,7F,FF,7F
000001495,00000258,false,0,2,44,44,00,00,00,00,00,00
000001496,00000302,false,0,7,FF,FF,FF,7F,FC,FF,FF,00
000001497,000003A7,false,0,7,5C,F3,00,00,1F,11,F0,00
000001498,000003E6,false,0,2,82,00,00,00,00,00,00,00
000001499,0000015F,false,0,8,42,F0,00,7D,00,EE,00,7D
000001500,000000A5,false,0,8,B4,F1,FF,F7,7F,00,00,C1
000001501,000000AC,false,0,2,00,F0,00,00,00,00,00,00
000001502,000000D9,false,0,8,10,F1,00,10,00,F0,7F,C8
000001503,000000F3,false,0,8,D6,01,00,FF,F0,C0,FF,FF
000001504,00000112,false,0,8,FA,1F,C7,0E,3A,72,75,5F
000001505,0000012F,false,0,8,58,2C,86,1B,F1,35,30,00
000001506,00000197,false,0,4,89,00,0E,C0,00,00,00,00
000001507,000002F5,false,0,8,60,0F,64,20,22,0A,06,10
000001508,00000100,false,0,8,B6,FE,7F,C0,5D,66,87,70
000001509,0000003C,false,0,8,FF,5F,00,00,00,00,FF,FF
000001510,00000297,false,0,7,FB,EE,F0,FC,F2,92,EA,00
000001511,00000206,false,0,8,DD,28,5C,FF,FF,FF,FF,FF
000001512,000000EF,false,0,8,B5,F0,00,7D,21,FE,7C,FF
000001513,000001A1,false,0,5,89,C5,00,00,8A,00,00,00
000001514,000000A9,false,0,8,B0,78,00,90,F1,00,00,FF
000001515,00000112,false,0,8,FA,1F,C7,0E,3A,72,75,5F
000001516,00000100,false,0,8,B7,F0,7F,C0,5D,66,87,70
000001517,00000199,false,0,6,FF,FF,A5,7E,FF,3F,00,00
000001518,0000019A,false,0,6,FF,FF,63,7E,FF,3F,00,00
000001519,0000019F,false,0,6,FF,FF,0A,80,FF,2F,00,00
000001520,00000254,false,0,8,FF,7F,FF,7F,FF,7F,FF,7F
000001521,00000258,false,0,2,44,44,00,00,00,00,00,00
000001522,000002C5,false,0,7,51,FE,00,20,06,20,CA,00
000001523,0000036F,false,0,5,F3,FE,FE,FF,14,00,00,00
000001524,000001AE,false,0,2,F7,FF,00,00,00,00,00,00
000001525,0000043D,false,0,8,0A,F7,E6,FF,1E,0F,01,F0
000001526,0000015F,false,0,8,1F,F1,00,7D,00,EE,00,7D
000001527,000002A1,false,0,5,80,58,02,00,F0,00,00,00
000001528,000000A5,false,0,8,53,F2,FF,F7,7F,00,00,C1
000001529,000000AC,false,0,2,00,F0,00,00,00,00,00,00
000001530,000000D9,false,0,8,F7,F2,00,10,00,F0,7F,C8
000001531,000000F3,false,0,8,31,02,00,FF,F0,C0,FF,FF
000001532,00000112,false,0,8,FA,1F,C7,0E,3A,72,75,5F
000001533,00000431,false,0,8,CA,FF,FF,FF,FF,6C,F3,4B
000001534,00000100,false,0,8,EA,F1,7F,C0,5D,66,87,70
000001535,000002E8,false,0,8,C0,18,C5,FF,FF,F4,F7,F7
000001536,000002BB,false,0,5,07,F7,00,00,F2,00,00,00
000001537,000003FD,false,0,5,40,07,00,00,FF,00,00,00
000001538,00000108,false,0,8,00,7D,FF,FF,47,F9,FF,FF
000001539,00000212,false,0,8,F8,F8,F9,FF,FF,FF,FF,FF
000001540,000002DB,false,0,8,FF,FF,FF,FF,BF,FF,FF,FF
000001541,000002F1,false,0,8,A2,0F,00,00,00,00,00,A0
000001542,000000EF,false,0,8,E8,F1,00,7D,21,FE,7C,FF
000001543,000001A1,false,0,5,AE,C7,00,00,8A,00,00,00
000001544,00000112,false,0,8,FA,1F,C7,0E,3A,72,75,5F
000001545,00000197,false,0,4,06,01,0E,C0,00,00,00,00
000001546,00000100,false,0,8,0D,F2,7F,C0,5D,66,87,70
000001547,00000349,false,0,5,FE,FF,F4,1A,00,00,00,00
000001548,00000432,false,0,8,4C,ED,10,B1,8A,FF,00,FF
000001549,0000043C,false,0,8,FE,FE,FF,FF,FF,FF,FF,FF
000001550,000002FA,false,0,8,FD,FF,00,FF,FF,FF,FF,FF
000001551,00000199,false,0,6,FF,FF,AF,7E,FF,3F,00,00
000001552,0000019A,false,0,6,FF,FF,45,7E,FF,3F,00,00
000001553,0000019F,false,0,6,FF,FF,12,80,FF,2F,00,00
000001554,00000254,false,0,8,FF,7F,FF,7F,FF,7F,FF,7F
000001555,00000258,false,0,2,44,44,00,00,00,00,00,00
000001556,00000302,false,0,7,FF,FF,FF,7F,FC,FF,FF,00
000001557,00000201,false,0,8,15,63,15,63,FF,FF,FF,FF
000001558,0000015F,false,0,8,F8,F2,00,7D,00,EE,00,7D
000001559,000002B0,false,0,6,42,4D,05,C8,FF,FF,00,00
000001560,000000A5,false,0,8,0E,F3,FF,F7,7F,00,00,C1
000001561,000000AC,false,0,2,00,F0,00,00,00,00,00,00
000001562,000000D9,false,0,8,AA,F3,00,10,00,F0,7F,C8
000001563,000000F3,false,0,8,6C,03,00,FF,F0,C0,FF,FF
000001564,00000112,false,0,8,FA,1F,C7,0E,3A,72,75,5F
000001565,00000100,false,0,8,50,F3,7F,C0,5D,66,87,70
000001566,000007BD,false,0,8,00,00,00,C0,FF,C0,01,08
000001567,00000206,false,0,8,80,29,5C,FF,FF,FF,FF,FF
000001568,000000EF,false,0,8,0F,F2,00,7D,21,FE,7C,FF
000001569,000001A1,false,0,5,5B,C9,00,00,8A,00,00,00
000001570,000003D2,false,0,2,F3,FF,00,00,00,00,00,00
000001571,00000163,false,0,8,FF,FF,0D,25,FF,FF,FF,FF
000001572,00000173,false,0,8,52,F4,00,0E,30,00,DE,10
000001573,00000112,false,0,8,FA,1F,C7,0E,3A,72,75,5F
000001574,000001FA,false,0,8,41,65,45,F0,4A,4B,49,4A
000001575,00000100,false,0,8,DE,F4,7F,C0,5D,66,87,70
000001576,000002A7,false,0,5,A9,FB,FE,FF,14,00,00,00
000001577,00000199,false,0,6,FF,FF,B9,7E,FF,3F,00,00
000001578,0000019A,false,0,6,FF,FF,31,7E,FF,3F,00,00
000001579,0000019F,false,0,6,FF,FF,FE,7F,FF,2F,00,00
000001580,00000254,false,0,8,FF,7F,FF,7F,FF,7F,FF,7F
000001581,00000258,false,0,2,44,44,00,00,00,00,00,00
000001582,0000015F,false,0,8,A5,F3,00,7D,00,EE,00,7D
000001583,000000A5,false,0,8,80,F4,FF,F7,7F,00,00,C1
000001584,000000AC,false,0,2,00,F0,00,00,00,00,00,00
000001585,000000D9,false,0,8,24,F4,00,10,00,F0,7F,C8
000001586,000000F3,false,0,8,E2,04,00,FF,F0,C0,FF,FF
000001587,00000112,false,0,8,FA,1F,C7,0E,3A,72,75,5F
000001588,00000197,false,0,4,8A,02,0E,C0,00,00,00,00
000001589,00000363,false,0,8,D5,14,09,09,FF,FF,FF,FF
000001590,00000100,false,0,8,83,F5,7F,C0,5D,66,87,70
000001591,000003E9,false,0,8,08,52,11,D1,06,00,00,00
000001592,00000510,false,0,8,40,10,20,00,00,00,00,00
000001593,000000EF,false,0,8,52,F3,00,7D,21,FE,7C,FF
000001594,000001A1,false,0,5,7C,CB,00,00,8A,00,00,00
000001595,000005F8,false,0,8,64,01,00,00,00,00,00,02
000001596,00000112,false,0,8,FA,1F,C7,0E,3A,72,75,5F
000001597,00000100,false,0,8,64,F6,7F,C0,5D,66,87,70
000001598,00000199,false,0,6,FF,FF,C3,7E,FF,3F,00,00
000001599,0000019A,false,0,6,FF,FF,59,7E,FF,3F,00,00
000001600,0000019F,false,0,6,FF,FF,F2,7F,FF,2F,00,00
000001601,00000254,false,0,8,FF,7F,FF,7F,FF,7F,FF,7F
000001602,00000258,false,0,2,44,44,00,00,00,00,00,00
000001603,00000302,false,0,7,FF,FF,FF,7F,FC,FF,FF,00
000001604,0000015F,false,0,8,2B,F4,00,7D,00,EE,00,7D
000001605,00000397,false,0,7,00,2A,00,57,14,77,01,00
000001606,000002C4,false,0,8,00,00,FF,00,C8,64,FF,CF
000001607,000000A5,false,0,8,DD,F5,FF,F7,7F,00,00,C1
000001608,000000AC,false,0,2,00,F0,00,00,00,00,00,00
000001609,000000D9,false,0,8,79,F5,00,10,00,F0,7F,C8
000001610,000000F3,false,0,8,05,07,00,FF,F0,C0,FF,FF
000001611,00000112,false,0,8,FA,1F,C7,0E,3A,72,75,5F
000001612,00000197,false,0,4,0A,09,0E,C0,00,00,00,00
000001613,000003B4,false,0,8,10,FF,71,F0,BA,FF,01,00
000001614,00000100,false,0,8,82,FB,7F,C0,5D,66,87,70
000001615,00000314,false,0,3,11,02,FF,00,00,00,00,00
000001616,000002C5,false,0,7,5B,F6,00,20,06,20,CA,00
000001617,000002BB,false,0,5,D4,F2,00,00,F2,00,00,00
000001618,000002E8,false,0,8,C0,18,C5,FF,FF,F4,FE,02
000001619,000003FD,false,0,5,41,0E,00,00,FF,00,00,00
000001620,00000108,false,0,8,E3,7D,FF,FF,47,F3,FF,FF
000001621,00000206,false,0,8,3A,2B,5C,FF,FF,FF,FF,FF
000001622,00000212,false,0,8,2A,F0,F9,FF,FF,FF,FF,FF
000001623,000002DB,false,0,8,FF,FF,FF,FF,BF,FF,FF,FF
000001624,000000EF,false,0,8,66,F6,00,7D,21,FE,7C,FF
000001625,000002F1,false,0,8,A2,0F,00,00,00,00,00,A0
000001626,0000032B,false,0,8,FF,FF,FF,FF,FF,FF,00,FF
000001627,000001A1,false,0,5,7D,C2,00,00,8A,00,00,00
000001628,00000331,false,0,8,FF,FF,FF,EF,7F,FE,F7,FF
000001629,000003E9,false,0,8,08,52,11,C1,07,00,00,00
000001630,00000112,false,0,8,FA,1F,C7,0E,3A,72,75,5F
000001631,00000100,false,0,8,0C,FC,7F,C0,5D,66,87,70
000001632,0000036E,false,0,5,73,F3,FE,FF,14,00,00,00
000001633,00000199,false,0,6,FF,FF,A5,7E,FF,3F,00,00
000001634,0000019A,false,0,6,FF,FF,63,7E,FF,3F,00,00
000001635,0000019F,false,0,6,FF,FF,FA,7F,FF,2F,00,00
000001636,00000254,false,0,8,FF,7F,FF,7F,FF,7F,FF,7F
000001637,00000258,false,0,2,44,44,00,00,00,00,00,00
000001638,00000201,false,0,8,B4,63,B4,63,FF,FF,FF,FF
000001639,0000015F,false,0,8,CC,F7,00,7D,00,EE,00,7D
000001640,000002B0,false,0,6,42,4D,05,C8,FF,FF,00,00
000001641,00000301,false,0,7,FF,FF,FF,7F,FF,FF,CF,00
000001642,000000A5,false,0,8,3B,F8,FF,F7,7F,00,00,C1
000001643,000000AC,false,0,2,00,F0,00,00,00,00,00,00
000001644,000000D9,false,0,8,9F,F8,00,10,00,F0,7F,C8
000001645,000000F3,false,0,8,59,08,00,FF,F0,C0,FF,FF
000001646,00000112,false,0,8,FA,1F,C7,0E,3A,72,75,5F
000001647,00000100,false,0,8,51,FD,7F,C0,5D,66,87,70
000001648,000002D1,false,0,2,79,73,00,00,00,00,00,00
000001649,000003E9,false,0,8,08,52,11,C1,07,00,00,00
000001650,000000EF,false,0,8,3B,F7,00,7D,21,FE,7C,FF
000001651,000001A1,false,0,5,14,C4,00,00,8A,00,00,00
000001652,00000163,false,0,8,FF,FF,0D,25,FF,FF,FF,FF
000001653,00000173,false,0,8,3A,FE,00,0E,30,00,DE,10
000001654,00000112,false,0,8,FA,1F,C7,0E,3A,72,75,5F
000001655,00000197,false,0,4,86,0A,0E,C0,00,00,00,00
000001656,00000100,false,0,8,B6,FE,7F,C0,5D,66,87,70
000001657,000007BD,false,0,8,00,00,00,C0,FF,C0,01,08
000001658,000007BE,false,0,8,05,00,00,00,00,00,00,E0
000001659,00000199,false,0,6,FF,FF,C3,7E,FF,3F,00,00
000001660,0000019A,false,0,6,FF,FF,6D,7E,FF,3F,00,00
000001661,0000019F,false,0,6,FF,FF,03,80,FF,2F,00,00
000001662,00000254,false,0,8,FF,7F,FF,7F,FF,7F,FF,7F
000001663,00000258,false,0,2,44,44,00,00,00,00,00,00
000001664,00000302,false,0,7,FF,FF,FF,7F,FC,FF,FF,00
000001665,0000015F,false,0,8,90,F8,00,7D,00,EE,00,7D
000001666,000000A5,false,0,8,66,F9,FF,F7,7F,00,00,C1
000001667,000000AC,false,0,2,00,F0,00,00,00,00,00,00
000001668,000000D9,false,0,8,C2,F9,00,10,00,F0,7F,C8
000001669,000000F3,false,0,8,04,09,00,FF,F0,C0,FF,FF
000001670,00000112,false,0,8,FA,1F,C7,0E,3A,72,75,5F
000001671,000001E1,false,0,6,FB,F1,04,FF,FF,FF,00,00
000001672,00000272,false,0,8,D4,F0,01,11,FF,FF,FF,FF
000001673,00000100,false,0,8,B7,F0,7F,C0,5D,66,87,70
000001674,00000206,false,0,8,B4,2C,5C,FF,FF,FF,FF,FF
000001675,000000EF,false,0,8,67,F8,00,7D,21,FE,7C,FF
000001676,000001A1,false,0,5,33,C6,00,00,8A,00,00,00
000001677,0000051A,false,0,8,00,00,00,00,50,00,00,1A
000001678,00000112,false,0,8,FA,1F,C7,0E,3A,72,75,5F
000001679,00000239,false,0,8,71,8E,2A,4E,01,FF,FF,FF
000001680,00000100,false,0,8,EA,F1,7F,C0,5D,66,87,70
000001681,000002A7,false,0,5,5C,F5,FE,FF,14,00,00,00
000001682,00000199,false,0,6,FF,FF,A5,7E,FF,3F,00,00
000001683,0000019A,false,0,6,FF,FF,63,7E,FF,3F,00,00
000001684,0000019F,false,0,6,FF,FF,0E,80,FF,2F,00,00
000001685,00000254,false,0,8,FF,7F,FF,7F,FF,7F,FF,7F
000001686,00000258,false,0,2,44,44,00,00,00,00,00,00
000001687,0000015F,false,0,8,CD,F9,00,7D,00,EE,00,7D
000001688,000002C4,false,0,8,00,00,FF,00,C8,64,FF,CF
000001689,000000A5,false,0,8,81,FA,FF,F7,7F,00,00,C1
000001690,000000AC,false,0,2,00,F0,00,00,00,00,00,00
000001691,000000D9,false,0,8,25,FA,00,10,00,F0,7F,C8
000001692,000000F3,false,0,8,E3,0A,00,FF,F0,C0,FF,FF
000001693,00000112,false,0,8,FA,1F,C7,0E,3A,72,75,5F
000001694,00000197,false,0,4,09,0B,0E,C0,00,00,00,00
000001695,00000100,false,0,8,0D,F2,7F,C0,5D,66,87,70
000001696,000002F5,false,0,8,60,0F,64,20,22,0A,06,10
000001697,000003E9,false,0,8,08,52,21,C1,07,00,00,00
000001698,00000201,false,0,8,BF,63,BF,63,FF,FF,FF,FF
000001699,000000EF,false,0,8,3A,F9,00,7D,21,FE,7C,FF
000001700,000001A1,false,0,5,C6,C8,00,00,8A,00,00,00
000001701,00000112,false,0,8,FA,1F,C7,0E,3A,72,75,5F
000001702,00000100,false,0,8,50,F3,7F,C0,5D,66,87,70
000001703,00000348,false,0,8,E7,00,0A,7F,FE,D3,F3,11
000001704,00000199,false,0,6,FF,FF,B9,7E,FF,3F,00,00
000001705,0000019A,false,0,6,FF,FF,6D,7E,FF,3F,00,00
000001706,0000019F,false,0,6,FF,FF,0E,80,FF,2F,00,00
000001707,00000254,false,0,8,FF,7F,FF,7F,FF,7F,FF,7F
000001708,00000258,false,0,2,44,44,00,00,00,00,00,00
000001709,00000302,false,0,7,FF,FF,FF,7F,FC,FF,FF,00
000001710,0000015F,false,0,8,2A,FA,00,7D,00,EE,00,7D
000001711,000000A5,false,0,8,DC,FB,FF,F7,7F,00,00,C1
000001712,000000AC,false,0,2,00,F0,00,00,00,00,00,00
000001713,000000D9,false,0,8,78,FB,00,10,00,F0,7F,C8
000001714,000000F3,false,0,8,BE,0B,00,FF,F0,C0,FF,FF
000001715,00000112,false,0,8,FA,1F,C7,0E,3A,72,75,5F
000001716,0000012F,false,0,8,D7,25,86,1B,F1,35,30,00
000001717,00000100,false,0,8,DE,F4,7F,C0,5D,66,87,70
000001718,000007BD,false,0,8,01,2D,55,7F,49,57,57,00
000001719,000007BE,false,0,8,0C,41,04,68,00,00,00,00
000001720,0000003C,false,0,8,FF,5F,00,00,00,00,FF,FF
000001721,00000297,false,0,7,B2,E3,F0,FC,F2,92,EA,00
000001722,00000206,false,0,8,E9,2D,5C,FF,FF,FF,FF,FF
000001723,000000EF,false,0,8,DD,FA,00,7D,21,FE,7C,FF
000001724,000001A1,false,0,5,E1,CA,00,00,8A,00,00,00
000001725,000000A9,false,0,8,B0,78,00,90,F1,00,00,FF
000001726,00000112,false,0,8,FA,1F,C7,0E,3A,72,75,5F
000001727,00000197,false,0,4,83,0C,0E,C0,00,00,00,00
000001728,00000100,false,0,8,83,F5,7F,C0,5D,66,87,70
000001729,0000043D,false,0,8,0A,F7,E6,FF,1E,0F,01,F0
000001730,00000199,false,0,6,FF,FF,AF,7E,FF,3F,00,00
000001731,0000019A,false,0,6,FF,FF,6D,7E,FF,3F,00,00
000001732,0000019F,false,0,6,FF,FF,EF,7F,FF,2F,00,00
000001733,00000254,false,0,8,FF,7F,FF,7F,FF,7F,FF,7F
000001734,00000258,false,0,2,44,44,00,00,00,00,00,00
000001735,0000036F,false,0,5,48,F4,FE,FF,14,00,00,00
000001736,000001A1,false,0,5,C7,C1,00,00,8A,00,00,00
000001737,00000112,false,0,8,38,20,CB,0E,3A,72,75,5F
000001738,00000197,false,0,4,8F,04,0E,C0,00,00,00,00
000001739,00000100,false,0,8,04,FB,7F,C0,5D,69,87,70
000001740,0000034C,false,0,8,78,00,00,00,00,13,F0,FF
000001741,00000199,false,0,6,FF,FF,C3,7E,FF,3F,00,00
000001742,0000019A,false,0,6,FF,FF,77,7E,FF,3F,00,00
000001743,0000019F,false,0,6,FF,FF,0B,80,FF,2F,00,00
000001744,00000254,false,0,8,FF,7F,FF,7F,FF,7F,FF,7F
000001745,00000258,false,0,2,44,44,00,00,00,00,00,00
000001746,00000302,false,0,7,FF,FF,FF,7F,FC,FF,FF,00
000001747,0000015F,false,0,8,43,FE,00,7D,00,EE,00,7D
000001748,000002C4,false,0,8,00,00,FF,00,C8,64,FF,CF
000001749,000000A5,false,0,8,E9,F0,FF,F7,7F,00,00,C1
000001750,000000AC,false,0,2,00,F0,00,00,00,00,00,00
000001751,000000D9,false,0,8,4D,F0,00,10,00,F0,7F,C8
000001752,000000F3,false,0,8,8B,00,00,FF,F0,C0,FF,FF
000001753,00000304,false,0,6,FF,FF,BE,37,FF,FF,00,00
000001754,00000112,false,0,8,39,20,CB,0E,3A,72,75,5F
000001755,00000100,false,0,8,8A,FC,7F,C0,5D,69,87,70
000001756,000002F5,false,0,8,60,0F,64,20,22,0A,06,10
000001757,00000206,false,0,8,0F,20,5C,FF,FF,FF,FF,FF
000001758,00000201,false,0,8,61,64,61,64,FF,FF,FF,FF
000001759,000000EF,false,0,8,B4,FE,00,7D,21,FE,7C,FF
000001760,000001A1,false,0,5,E0,C3,00,00,8A,00,00,00
000001761,00000112,false,0,8,3A,20,CB,0E,3A,72,75,5F
000001762,00000100,false,0,8,D7,FD,7F,C0,5D,69,87,70
000001763,000002A7,false,0,5,7A,FE,FE,FF,14,00,00,00
000001764,00000199,false,0,6,FF,FF,B9,7E,FF,3F,00,00
000001765,0000019A,false,0,6,FF,FF,59,7E,FF,3F,00,00
000001766,0000019F,false,0,6,FF,FF,00,80,FF,2F,00,00
000001767,00000254,false,0,8,FF,7F,FF,7F,FF,7F,FF,7F
000001768,00000258,false,0,2,44,44,00,00,00,00,00,00
000001769,0000015F,false,0,8,42,F0,00,7D,00,EE,00,7D
000001770,000000A5,false,0,8,B4,F1,FF,F7,7F,00,00,C1
000001771,000000AC,false,0,2,00,F0,00,00,00,00,00,00
000001772,000000D9,false,0,8,10,F1,00,10,00,F0,7F,C8
000001773,000000F3,false,0,8,D6,01,00,FF,F0,C0,FF,FF
000001774,00000112,false,0,8,3B,20,CC,0E,3A,72,75,5F
000001775,0000012F,false,0,8,58,2C,86,1B,F1,35,30,00
000001776,00000197,false,0,4,00,05,0E,C0,00,00,00,00
000001777,00000100,false,0,8,30,FE,7F,C0,5D,69,87,70
000001778,000000C0,false,0,2,F2,40,00,00,00,00,00,00
000001779,0000003C,false,0,8,FF,5F,00,00,00,00,FF,FF
000001780,000000EF,false,0,8,B5,F0,00,7D,21,FE,7C,FF
000001781,000007BE,false,0,8,0B,00,00,00,00,00,00,00
000001782,000001A1,false,0,5,89,C5,00,00,8A,00,00,00
000001783,000000A9,false,0,8,C0,78,00,90,F1,00,00,FF
000001784,00000112,false,0,8,3B,20,CC,0E,3A,72,75,5F
000001785,00000100,false,0,8,31,F0,7F,C0,5D,69,87,70
000001786,00000199,false,0,6,FF,FF,C3,7E,FF,3F,00,00
000001787,0000019A,false,0,6,FF,FF,6D,7E,FF,3F,00,00
000001788,0000019F,false,0,6,FF,FF,0F,80,FF,2F,00,00
000001789,00000254,false,0,8,FF,7F,FF,7F,FF,7F,FF,7F
000001790,00000258,false,0,2,44,44,00,00,00,00,00,00
000001791,00000302,false,0,7,FF,FF,FF,7F,FC,FF,FF,00
000001792,000001AE,false,0,2,F7,FF,00,00,00,00,00,00
000001793,0000015F,false,0,8,1F,F1,00,7D,00,EE,00,7D
000001794,000002A1,false,0,5,80,58,02,00,F0,00,00,00
000001795,000000A5,false,0,8,53,F2,FF,F7,7F,00,00,C1
000001796,000000AC,false,0,2,00,F0,00,00,00,00,00,00
000001797,000000D9,false,0,8,F7,F2,00,10,00,F0,7F,C8
000001798,000000F3,false,0,8,31,02,00,FF,F0,C0,FF,FF
000001799,00000112,false,0,8,3C,20,CC,0E,3A,72,75,5F
000001800,00000100,false,0,8,6C,F1,7F,C0,5D,69,87,70
000001801,000003B4,false,0,8,10,FF,71,F0,BA,FF,01,00
000001802,00000314,false,0,3,11,02,FF,00,00,00,00,00
000001803,000002E8,false,0,8,C0,18,C5,FF,FF,F4,F7,F7
000001804,000002BB,false,0,5,07,F7,00,00,F2,00,00,00
000001805,000003FD,false,0,5,40,07,00,00,FF,00,00,00
000001806,00000108,false,0,8,EA,7D,FF,43,48,F2,FF,FF
000001807,00000206,false,0,8,52,21,5C,FF,FF,FF,FF,FF
000001808,00000212,false,0,8,F8,F8,F9,FF,FF,FF,FF,FF
000001809,000002DB,false,0,8,FF,FF,FF,FF,BF,FF,FF,FF
000001810,000000EF,false,0,8,E8,F1,00,7D,21,FE,7C,FF
000001811,000002C5,false,0,7,51,FE,00,20,06,20,CA,00
000001812,000002F1,false,0,8,A2,0F,00,00,00,00,00,A0
000001813,000001A1,false,0,5,AE,C7,00,00,8A,00,00,00
000001814,0000032B,false,0,8,FF,FF,FF,FF,FF,FF,00,FF
000001815,00000331,false,0,8,FF,FF,FF,EF,7F,FE,F7,FF
000001816,000003E9,false,0,8,08,52,21,01,08,00,00,C1
000001817,00000112,false,0,8,3D,20,CC,0E,3A,72,75,5F
000001818,00000197,false,0,4,8C,06,0E,C0,00,00,00,00
000001819,00000100,false,0,8,8B,F2,7F,C0,5D,69,87,70
000001820,0000036E,false,0,5,55,F8,FE,FF,14,00,00,00
000001821,000002F0,false,0,3,35,DD,F0,00,00,00,00,00
000001822,000002F9,false,0,7,00,00,00,08,7E,C0,F3,00
000001823,00000199,false,0,6,FF,FF,C3,7E,FF,3F,00,00
000001824,0000019A,false,0,6,FF,FF,6D,7E,FF,3F,00,00
000001825,0000019F,false,0,6,FF,FF,02,80,FF,2F,00,00
000001826,00000254,false,0,8,FF,7F,FF,7F,FF,7F,FF,7F
000001827,00000258,false,0,2,44,44,00,00,00,00,00,00
000001828,00000201,false,0,8,6C,64,6C,64,FF,FF,FF,FF
000001829,0000015F,false,0,8,F8,F2,00,7D,00,EE,00,7D
000001830,000002B0,false,0,6,43,4D,05,C8,FF,FF,00,00
000001831,00000301,false,0,7,FF,FF,FF,7F,FF,FF,CF,00
000001832,000000A5,false,0,8,0E,F3,FF,F7,7F,00,00,C1
000001833,000000AC,false,0,2,00,F0,00,00,00,00,00,00
000001834,000000D9,false,0,8,AA,F3,00,10,00,F0,7F,C8
000001835,000000F3,false,0,8,6C,03,00,FF,F0,C0,FF,FF
000001836,00000112,false,0,8,3E,20,CC,0E,3A,72,75,5F
000001837,00000100,false,0,8,D6,F3,7F,C0,5D,69,87,70
000001838,000000EF,false,0,8,0F,F2,00,7D,21,FE,7C,FF
000001839,000001A1,false,0,5,5B,C9,00,00,8A,00,00,00
000001840,00000163,false,0,8,FF,FF,0D,25,FF,FF,FF,FF
000001841,00000173,false,0,8,52,F4,00,0E,30,00,DE,10
000001842,00000112,false,0,8,3F,20,CC,0E,3A,72,75,5F
000001843,00000100,false,0,8,58,F4,7F,C0,5D,69,87,70
000001844,00000199,false,0,6,FF,FF,B9,7E,FF,3F,00,00
000001845,0000019A,false,0,6,FF,FF,77,7E,FF,3F,00,00
000001846,0000019F,false,0,6,FF,FF,05,80,FF,2F,00,00
000001847,00000254,false,0,8,FF,7F,FF,7F,FF,7F,FF,7F
000001848,00000258,false,0,2,44,44,00,00,00,00,00,00
000001849,00000302,false,0,7,FF,FF,FF,7F,FC,FF,FF,00
000001850,0000015F,false,0,8,A5,F3,00,7D,00,EE,00,7D
000001851,000007BD,false,0,8,00,00,00,C0,FF,C0,01,08
000001852,000007BE,false,0,8,05,00,00,00,00,00,00,E0
000001853,000000A5,false,0,8,80,F4,FF,F7,7F,00,00,C1
000001854,000000AC,false,0,2,00,F0,00,00,00,00,00,00
000001855,000000D9,false,0,8,24,F4,00,10,00,F0,7F,C8
000001856,000000F3,false,0,8,E2,04,00,FF,F0,C0,FF,FF
000001857,00000112,false,0,8,40,20,CC,0E,3A,72,75,5F
000001858,000001E1,false,0,6,4E,F5,04,FF,FF,FF,00,00
000001859,00000197,false,0,4,03,07,0E,C0,00,00,00,00
000001860,00000100,false,0,8,05,F5,7F,C0,5D,69,87,70
000001861,00000272,false,0,8,BD,F4,01,11,FF,FF,FF,FF
000001862,000002E8,false,0,8,C0,18,C5,FF,FF,F4,FE,02
000001863,000002BB,false,0,5,D4,F2,00,00,F2,00,00,00
000001864,000003FD,false,0,5,41,0E,00,00,FF,00,00,00
000001865,00000108,false,0,8,E5,7D,FF,52,48,F2,FF,FF
000001866,00000212,false,0,8,2A,F0,F9,FF,FF,FF,FF,FF
000001867,000002DB,false,0,8,FF,FF,FF,FF,BF,FF,FF,FF
000001868,000002F1,false,0,8,A2,0F,00,00,00,00,00,A0
000001869,000000EF,false,0,8,66,F6,00,7D,21,FE,7C,FF
000001870,000002C5,false,0,7,5B,F6,00,20,06,20,CA,00
000001871,000001A1,false,0,5,7D,C2,00,00,8A,00,00,00
000001872,00000112,false,0,8,4D,20,CD,0E,3A,72,85,5F
000001873,00000432,false,0,8,4C,ED,10,B1,8A,FF,00,FF
000001874,00000100,false,0,8,8A,FC,7F,C0,5D,69,87,70
000001875,00000349,false,0,5,FE,FF,F4,1A,00,00,00,00
000001876,00000199,false,0,6,FF,FF,B9,7E,FF,3F,00,00
000001877,0000019A,false,0,6,FF,FF,77,7E,FF,3F,00,00
000001878,0000019F,false,0,6,FF,FF,F7,7F,FF,2F,00,00
000001879,00000254,false,0,8,FF,7F,FF,7F,FF,7F,FF,7F
000001880,00000258,false,0,2,44,44,00,00,00,00,00,00
000001881,00000302,false,0,7,FF,FF,FF,7F,FC,FF,FF,00
000001882,00000201,false,0,8,0B,65,0B,65,FF,FF,FF,FF
000001883,0000015F,false,0,8,CC,F7,00,7D,00,EE,00,7D
000001884,000002B0,false,0,6,42,4D,05,C8,FF,FF,00,00
