Time Stamp,ID,Extended,Dir,Bus,LEN,D1,D2,D3,D4,D5,D6,D7,D8
4266856,00000112,false,Rx,0,8,1A,20,90,0E,A6,71,55,5D,
4266943,00000197,false,Rx,0,4,80,0E,0E,C0,00,00,00,00,
4267028,000002B0,false,Rx,0,6,38,40,03,C9,FF,FF,00,00,
4267113,000000EF,false,Rx,0,8,C3,FC,00,7D,21,00,7D,FF,
4267199,00000100,false,Rx,0,8,8E,F9,7F,C0,5D,49,87,70,
4267284,000001A1,false,Rx,0,5,AF,CE,00,00,8A,00,00,00,
4267370,00000199,false,Rx,0,6,FF,FF,42,7F,FF,3F,00,00,
4267455,0000019A,false,Rx,0,6,FF,FF,1E,7F,FF,3F,00,00,
4267546,0000019F,false,Rx,0,6,FF,FF,FA,7F,FF,2F,00,00,
4267631,00000254,false,Rx,0,8,FF,7F,FF,7F,FF,7F,FF,7F,
4267724,00000258,false,Rx,0,2,44,44,00,00,00,00,00,00,
4267810,00000302,false,Rx,0,7,FF,FF,D4,7F,FC,FF,FF,00,
4267895,000003C3,false,Rx,0,8,70,1C,49,02,00,00,00,00,
4267980,00000112,false,Rx,0,8,1A,20,90,0E,A6,71,55,5D,
4268066,000002F5,false,Rx,0,8,60,0F,7E,20,22,0A,06,10,
4268151,0000012F,false,Rx,0,8,27,20,88,1D,F1,35,30,80,
4268237,0000036E,false,Rx,0,5,C9,F0,FE,FF,14,00,00,00,
4268322,0000015F,false,Rx,0,8,A4,FD,00,7D,00,EE,00,7D,
4268408,00000100,false,Rx,0,8,69,FA,7F,C0,5D,49,87,70,
4268608,000000A5,false,Rx,0,8,0F,FD,FF,F7,7F,00,00,C1,
4268814,000000AC,false,Rx,0,2,00,F0,00,00,00,00,00,00,
4269013,000000D9,false,Rx,0,8,43,FD,00,10,00,F0,7F,C0,
4269293,000000F3,false,Rx,0,8,6D,0D,00,FF,F0,C0,FF,FF,
4271632,00000112,false,Rx,0,8,1A,20,90,0E,A6,71,55,5D,
4272490,0000003C,false,Rx,0,8,FF,5F,00,00,00,00,FF,FF,
4276548,000000EF,false,Rx,0,8,9E,FD,00,7D,21,00,7D,FF,
4276836,00000100,false,Rx,0,8,34,FB,7F,C0,5D,49,87,70,
4277116,000001A1,false,Rx,0,5,C7,C1,00,00,8A,00,00,00,
4279533,00000199,false,Rx,0,6,FF,FF,42,7F,FF,3F,00,00,
4279738,0000019A,false,Rx,0,6,FF,FF,32,7F,FF,3F,00,00,
4279937,0000019F,false,Rx,0,6,FF,FF,0E,80,FF,2F,00,00,
4280137,00000254,false,Rx,0,8,FF,7F,FF,7F,FF,7F,FF,7F,
4280254,00000258,false,Rx,0,2,44,44,00,00,00,00,00,00,
4281622,00000112,false,Rx,0,8,1A,20,90,0E,A6,71,55,5D,
4285625,00000197,false,Rx,0,4,89,00,0E,C0,00,00,00,00,
4286496,0000015F,false,Rx,0,8,43,FE,00,7D,00,EE,00,7D,
4286698,00000100,false,Rx,0,8,BA,FC,7F,C0,5D,49,87,70,
4288299,000000A5,false,Rx,0,8,E8,FE,FF,F7,7F,00,00,C1,
4288417,000000AC,false,Rx,0,2,00,F0,00,00,00,00,00,00,
4288699,000000D9,false,Rx,0,8,A4,FE,00,10,00,F0,7F,C0,
4288907,000000F3,false,Rx,0,8,8A,0E,00,FF,F0,C0,FF,FF,
4289847,00000206,false,Rx,0,8,3C,20,60,FF,FF,FF,FF,FF,
4290617,00000348,false,Rx,0,8,B7,9D,0A,7F,FE,2A,52,3A,
4290743,000002A5,false,Rx,0,2,CE,FE,00,00,00,00,00,00,
4291594,00000112,false,Rx,0,8,1A,20,90,0E,A6,71,55,5D,
4293519,0000019B,false,Rx,0,8,C7,43,40,55,FD,FF,FF,FF,
4293971,000007BD,false,Rx,0,8,04,00,01,02,00,00,00,80,
4294251,000007BE,false,Rx,0,8,00,C0,FA,1C,12,00,00,00,
4296501,000000EF,false,Rx,0,8,79,FE,00,7D,21,00,7D,FF,
4296790,00000100,false,Rx,0,8,E7,FD,7F,C0,5D,49,87,70,
4297070,000001A1,false,Rx,0,5,E0,C3,00,00,8A,00,00,00,
4298662,000002F2,false,Rx,0,6,00,00,00,00,FF,FF,00,00,
4298869,0000019D,false,Rx,0,8,A3,98,F5,05,FF,FF,FF,FF,
4299068,000001B3,false,Rx,0,8,FC,12,00,F1,00,78,8A,B8,
4299348,000002C5,false,Rx,0,7,5D,F2,00,20,04,20,CA,00,
4299553,00000362,false,Rx,0,7,C2,40,02,C2,40,02,EA,00,
4299759,00000199,false,Rx,0,6,FF,FF,2E,7F,FF,3F,00,00,
4299958,0000019A,false,Rx,0,6,FF,FF,28,7F,FF,3F,00,00,
4300156,0000019F,false,Rx,0,6,FF,FF,F6,7F,FF,2F,00,00,
4300436,00000201,false,Rx,0,8,10,0E,10,0E,FF,FF,FF,FF,
4300730,00000254,false,Rx,0,8,FF,7F,FF,7F,FF,7F,FF,7F,
4300848,00000258,false,Rx,0,2,44,44,00,00,00,00,00,00,
4301047,00000302,false,Rx,0,7,FF,FF,D4,7F,FC,FF,FF,00,
4301657,00000112,false,Rx,0,8,1A,20,90,0E,A6,71,55,5D,
4303417,000002A7,false,Rx,0,5,7A,FE,FE,FF,14,00,00,00,
4306489,0000015F,false,Rx,0,8,42,F0,00,7D,00,EE,00,7D,
4306778,00000100,false,Rx,0,8,00,FE,7F,C0,5D,49,87,70,
4308288,000002C4,false,Rx,0,8,00,00,FF,00,C8,64,FF,CF,
4308487,000000A5,false,Rx,0,8,E9,F0,FF,F7,7F,00,00,C1,
4308687,000000AC,false,Rx,0,2,00,F0,00,00,00,00,00,00,
4308895,000000D9,false,Rx,0,8,A5,F0,00,10,00,F0,7F,C0,
4309175,000000F3,false,Rx,0,8,8B,00,00,FF,F0,C0,FF,FF,
4309375,00000304,false,Rx,0,6,FF,FF,F9,39,FF,FF,00,00,
4310563,0000043D,false,Rx,0,8,0A,FE,EB,FF,1E,A7,00,F0,
4311665,00000112,false,Rx,0,8,1A,20,90,0E,A6,71,55,5D,
4314575,000001AE,false,Rx,0,2,F7,FF,00,00,00,00,00,00,
4315596,00000197,false,Rx,0,4,06,01,0E,C0,00,00,00,00,
4316537,000000EF,false,Rx,0,8,78,F0,00,7D,21,00,7D,FF,
4316819,00000100,false,Rx,0,8,01,F0,7F,C0,5D,49,87,70,
4330400,000001A1,false,Rx,0,5,89,C5,00,00,8A,00,00,00,
4330521,00000199,false,Rx,0,6,FF,FF,24,7F,FF,3F,00,00,
4330606,0000019A,false,Rx,0,6,FF,FF,1E,7F,FF,3F,00,00,
4330692,0000019F,false,Rx,0,6,FF,FF,06,80,FF,2F,00,00,
4330807,00000254,false,Rx,0,8,FF,7F,FF,7F,FF,7F,FF,7F,
4330893,00000258,false,Rx,0,2,44,44,00,00,00,00,00,00,
4331019,00000314,false,Rx,0,3,50,00,FF,00,00,00,00,00,
4331104,00000112,false,Rx,0,8,1A,20,90,0E,A6,71,55,5D,
4331222,000000A9,false,Rx,0,8,10,78,00,90,F1,00,00,FF,
4331308,0000015F,false,Rx,0,8,1F,F1,00,7D,00,EE,00,7D,
4331393,00000100,false,Rx,0,8,5C,F1,7F,C0,5D,49,87,70,
4331512,000000A5,false,Rx,0,8,B4,F1,FF,F7,7F,00,00,C1,
4331597,000000AC,false,Rx,0,2,00,F0,00,00,00,00,00,00,
4331723,000000D9,false,Rx,0,8,F8,F1,00,10,00,F0,7F,C0,
4331809,000000F3,false,Rx,0,8,D6,01,00,FF,F0,C0,FF,FF,
4331894,000002E8,false,Rx,0,8,C0,18,C5,FF,FF,F4,FA,76,
4332012,000003FD,false,Rx,0,5,B4,00,00,00,FF,00,00,00,
4332098,00000108,false,Rx,0,8,71,7D,FF,1F,48,F2,FF,FF,
4332215,00000206,false,Rx,0,8,98,21,5F,FF,FF,FF,FF,FF,
4332300,00000163,false,Rx,0,8,FF,FF,F1,24,FF,FF,FF,FF,
4332386,00000173,false,Rx,0,8,66,F1,00,0E,30,00,DE,10,
4332504,00000212,false,Rx,0,8,2B,FE,F9,FF,FF,FF,FF,FF,
4332591,0000043C,false,Rx,0,8,FE,FE,FF,FF,FF,FF,FF,FF,
4332709,000002DB,false,Rx,0,8,FF,FF,FF,FF,BF,FF,FF,FF,
4332801,00000112,false,Rx,0,8,1A,20,90,0E,A6,71,55,5D,
4332887,000002F1,false,Rx,0,8,A2,0F,00,00,1B,DF,06,A0,
4332972,0000032B,false,Rx,0,8,FF,FF,FF,FF,FF,FF,00,FF,
4333058,00000331,false,Rx,0,8,FF,FF,FF,EF,7F,FE,F7,FF,
4333143,000003E9,false,Rx,0,8,08,52,21,91,02,00,00,FE,
4333424,00000301,false,Rx,0,7,FF,FF,D9,7F,FF,FF,CF,00,
4333625,000002BB,false,Rx,0,5,B7,F7,C4,09,F2,00,00,00,
4336047,000002A1,false,Rx,0,5,80,58,02,00,F0,00,00,00,
4336574,000000EF,false,Rx,0,8,25,F1,00,7D,21,00,7D,FF,
4336775,00000100,false,Rx,0,8,BB,F2,7F,C0,5D,49,87,70,
4337055,000001A1,false,Rx,0,5,AE,C7,00,00,8A,00,00,00,
4339466,00000199,false,Rx,0,6,FF,FF,1A,7F,FF,3F,00,00,
4339756,0000019A,false,Rx,0,6,FF,FF,1E,7F,FF,3F,00,00,
4339955,0000019F,false,Rx,0,6,FF,FF,1A,80,FF,2F,00,00,
4340154,00000254,false,Rx,0,8,FF,7F,FF,7F,FF,7F,FF,7F,
4340270,00000258,false,Rx,0,2,44,44,00,00,00,00,00,00,
4340554,00000302,false,Rx,0,7,FF,FF,D4,7F,FC,FF,FF,00,
4341667,00000112,false,Rx,0,8,1A,20,90,0E,A6,71,55,5D,
4342607,000001E1,false,Rx,0,6,00,F5,00,FF,FF,FF,00,00,
4343963,000007BD,false,Rx,0,8,00,00,00,40,FF,C0,01,08,
4344243,000007BE,false,Rx,0,8,05,00,00,00,00,00,00,E0,
4344687,0000036F,false,Rx,0,5,9B,F1,FE,FF,14,00,00,00,
4345627,00000197,false,Rx,0,4,8A,02,0E,C0,00,00,00,00,
4346572,0000015F,false,Rx,0,8,F8,F2,00,7D,00,EE,00,7D,
4346779,00000100,false,Rx,0,8,E6,F3,7F,C0,5D,49,87,70,
4348451,000000A5,false,Rx,0,8,53,F2,FF,F7,7F,00,00,C1,
4348651,000000AC,false,Rx,0,2,00,F0,00,00,00,00,00,00,
4348858,000000D9,false,Rx,0,8,1F,F2,00,10,00,F0,7F,C0,
4349137,000000F3,false,Rx,0,8,31,02,00,FF,F0,C0,FF,FF,
4349850,00000201,false,Rx,0,8,1B,0E,1B,0E,FF,FF,FF,FF,
4351605,00000112,false,Rx,0,8,1A,20,90,0E,A6,71,55,5D,
4351894,00000239,false,Rx,0,8,8D,55,1D,B2,01,4B,FF,FF,
4356038,000002B0,false,Rx,0,6,38,40,03,C9,FF,FF,00,00,
4356480,000000EF,false,Rx,0,8,C2,F2,00,7D,21,00,7D,FF,
4356770,00000100,false,Rx,0,8,68,F4,7F,C0,5D,49,87,70,
4357051,000001A1,false,Rx,0,5,5B,C9,00,00,8A,00,00,00,
4359468,00000199,false,Rx,0,6,FF,FF,38,7F,FF,3F,00,00,
4359668,0000019A,false,Rx,0,6,FF,FF,28,7F,FF,3F,00,00,
4359956,0000019F,false,Rx,0,6,FF,FF,FA,7F,FF,2F,00,00,
4360156,00000254,false,Rx,0,8,FF,7F,FF,7F,FF,7F,FF,7F,
4360273,00000258,false,Rx,0,2,44,44,00,00,00,00,00,00,
4361623,00000112,false,Rx,0,8,1A,20,90,0E,A6,71,55,5D,
4362156,000002F5,false,Rx,0,8,60,0F,7E,20,22,0A,06,10,
4362601,0000012F,false,Rx,0,8,7A,21,88,1D,F1,35,30,80,
4366496,0000015F,false,Rx,0,8,A5,F3,00,7D,00,EE,00,7D,
4366697,00000100,false,Rx,0,8,35,F5,7F,C0,5D,49,87,70,
4368626,000000A5,false,Rx,0,8,0E,F3,FF,F7,7F,00,00,C1,
4368750,000000AC,false,Rx,0,2,00,F0,00,00,00,00,00,00,
4369030,000000D9,false,Rx,0,8,42,F3,00,10,00,F0,7F,C0,
4369230,000000F3,false,Rx,0,8,6C,03,00,FF,F0,C0,FF,FF,
4369845,00000206,false,Rx,0,8,7F,22,5F,FF,FF,FF,FF,FF,
4370867,00000349,false,Rx,0,5,FE,FF,12,1B,00,00,00,00,
4371638,00000112,false,Rx,0,8,1A,20,90,0E,A6,71,55,5D,
4372332,000000C0,false,Rx,0,2,FD,40,00,00,00,00,00,00,
4372529,0000003C,false,Rx,0,8,FF,5F,00,00,00,00,FF,FF,
4375602,00000197,false,Rx,0,4,05,03,0E,C0,00,00,00,00,
4376541,000000EF,false,Rx,0,8,51,F3,00,7D,21,FC,7C,FF,
4376829,00000100,false,Rx,0,8,D2,F6,7F,C0,5D,49,87,70,
4377109,000001A1,false,Rx,0,5,7C,CB,00,00,8A,00,00,00,
4379527,00000199,false,Rx,0,6,FF,FF,38,7F,FF,3F,00,00,
4379734,0000019A,false,Rx,0,6,FF,FF,28,7F,FF,3F,00,00,
4379933,0000019F,false,Rx,0,6,FF,FF,F2,7F,FF,2F,00,00,
4380132,00000254,false,Rx,0,8,FF,7F,FF,7F,FF,7F,FF,7F,
4380330,00000258,false,Rx,0,2,44,44,00,00,00,00,00,00,
4395561,00000302,false,Rx,0,7,FF,FF,D4,7F,FC,FF,FF,00,
4395648,00000112,false,Rx,0,8,1A,20,90,0E,A6,71,55,5D,
4395741,000002A7,false,Rx,0,5,8F,F0,FE,FF,14,00,00,00,
4395827,0000015F,false,Rx,0,8,2B,F4,00,7D,00,EE,00,7D,
4395912,00000100,false,Rx,0,8,8F,F7,7F,C0,5D,49,87,70,
4395998,000000A5,false,Rx,0,8,80,F4,FF,F7,7F,00,00,C1,
4396083,000000AC,false,Rx,0,2,00,F0,00,00,00,00,00,00,
4396168,000000D9,false,Rx,0,8,CC,F4,00,10,00,F0,7F,C0,
4396254,000000F3,false,Rx,0,8,E2,04,00,FF,F0,C0,FF,FF,
4396339,000003B4,false,Rx,0,8,0C,FF,71,F0,BA,FF,01,00,
4396457,00000112,false,Rx,0,8,1A,20,90,0E,A6,71,55,5D,
4396546,000007BD,false,Rx,0,8,10,00,00,00,00,00,00,00,
4396632,000007BE,false,Rx,0,8,0B,00,00,00,00,00,00,00,
4396758,000000EF,false,Rx,0,8,DF,F4,00,7D,21,FC,7C,FF,
4396843,00000100,false,Rx,0,8,D3,F8,7F,C0,5D,49,87,70,
4397043,000001A1,false,Rx,0,5,15,CD,00,00,8A,00,00,00,
4398666,000002F2,false,Rx,0,6,00,00,00,00,FF,FF,00,00,
4398874,000001B3,false,Rx,0,8,FC,12,00,F2,00,78,8A,B9,
4399154,000002C5,false,Rx,0,7,1B,F3,00,20,04,20,CA,00,
4399518,00000199,false,Rx,0,6,FF,FF,38,7F,FF,3F,00,00,
4399724,0000019A,false,Rx,0,6,FF,FF,1E,7F,FF,3F,00,00,
4399923,0000019F,false,Rx,0,6,FF,FF,0A,80,FF,2F,00,00,
4400122,00000201,false,Rx,0,8,27,0E,27,0E,FF,FF,FF,FF,
4400403,00000254,false,Rx,0,8,FF,7F,FF,7F,FF,7F,FF,7F,
4400524,00000258,false,Rx,0,2,44,44,00,00,00,00,00,00,
4401627,00000112,false,Rx,0,8,1A,20,90,0E,A6,71,55,5D,
4401916,00000431,false,Rx,0,8,CA,FF,05,02,68,26,F3,4B,
4405644,00000197,false,Rx,0,4,8F,04,0E,C0,00,00,00,00,
4406501,0000015F,false,Rx,0,8,76,F5,00,7D,00,EE,00,7D,
4406791,00000100,false,Rx,0,8,8E,F9,7F,C0,5D,49,87,70,
4408303,000002C4,false,Rx,0,8,00,00,FF,00,C8,64,FF,CF,
4408502,000000A5,false,Rx,0,8,DD,F5,FF,F7,7F,00,00,C1,
4408621,000000AC,false,Rx,0,2,00,F0,00,00,00,00,00,00,
4408909,000000D9,false,Rx,0,8,91,F5,00,10,00,F0,7F,C0,
4409108,000000F3,false,Rx,0,8,BF,05,00,FF,F0,C0,FF,FF,
4409886,00000206,false,Rx,0,8,22,23,5F,FF,FF,FF,FF,FF,
4411645,00000112,false,Rx,0,8,1A,20,90,0E,A6,71,55,5D,
4411851,00000432,false,Rx,0,8,CC,E8,10,A3,66,FF,00,FF,
4414506,000001AE,false,Rx,0,2,F7,FF,00,00,00,00,00,00,
4414971,00000297,false,Rx,0,7,C6,ED,F0,E0,F2,92,EA,00,
4416479,000000EF,false,Rx,0,8,82,F5,00,7D,21,FC,7C,FF,
4416769,00000100,false,Rx,0,8,69,FA,7F,C0,5D,49,87,70,
4417049,000001A1,false,Rx,0,5,5A,C0,00,00,8A,00,00,00,
4419468,00000199,false,Rx,0,6,FF,FF,24,7F,FF,3F,00,00,
4419667,0000019A,false,Rx,0,6,FF,FF,28,7F,FF,3F,00,00,
4419873,0000019F,false,Rx,0,6,FF,FF,F1,7F,FF,2F,00,00,
4420154,00000254,false,Rx,0,8,FF,7F,FF,7F,FF,7F,FF,7F,
4420270,00000258,false,Rx,0,2,44,44,00,00,00,00,00,00,
4420558,00000302,false,Rx,0,7,FF,FF,D4,7F,FC,FF,FF,00,
4421663,00000112,false,Rx,0,8,1A,20,90,0E,A6,71,55,5D,
4423505,0000036E,false,Rx,0,5,54,F1,FE,FF,14,00,00,00,
4426090,000000A9,false,Rx,0,8,10,78,00,90,F1,00,00,FF,
4426452,0000015F,false,Rx,0,8,91,F6,00,7D,00,EE,00,7D,
4426743,00000100,false,Rx,0,8,34,FB,7F,C0,5D,49,87,70,
4428580,000000A5,false,Rx,0,8,3A,F6,FF,F7,7F,00,00,C1,
4428697,000000AC,false,Rx,0,2,00,F0,00,00,00,00,00,00,
4428904,000000D9,false,Rx,0,8,76,F6,00,10,00,F0,7F,C0,
4429185,000000F3,false,Rx,0,8,58,06,00,FF,F0,C0,FF,FF,
4429384,000002E8,false,Rx,0,8,C0,18,C5,FF,FF,F4,FB,6B,
4429836,000003FD,false,Rx,0,5,29,01,00,00,FF,00,00,00,
4430035,00000108,false,Rx,0,8,71,7D,FF,1F,48,F2,FF,FF,
4430316,00000201,false,Rx,0,8,2E,0E,2E,0E,FF,FF,FF,FF,
4430516,00000163,false,Rx,0,8,FF,FF,F1,24,FF,FF,FF,FF,
4430798,00000173,false,Rx,0,8,0E,FB,00,0E,30,00,DE,10,
4430997,00000212,false,Rx,0,8,2A,F0,F9,FF,FF,FF,FF,FF,
4431277,00000272,false,Rx,0,8,32,FD,01,11,FF,FF,FF,FF,
4431476,000002DB,false,Rx,0,8,FF,FF,FF,FF,BF,FF,FF,FF,
4431766,00000112,false,Rx,0,8,1A,20,90,0E,A6,71,55,5D,
4431965,000002F1,false,Rx,0,8,A2,0F,00,00,1B,DF,06,A0,
4433557,000002BB,false,Rx,0,5,64,F2,C4,09,F2,00,00,00,
4435647,00000197,false,Rx,0,4,00,05,0E,C0,00,00,00,00,
4436016,000002A1,false,Rx,0,5,80,58,02,00,F0,00,00,00,
4436458,000000EF,false,Rx,0,8,AB,F6,00,7D,21,00,7D,FF,
4436748,00000100,false,Rx,0,8,BA,FC,7F,C0,5D,49,87,70,
4437029,000001A1,false,Rx,0,5,7D,C2,00,00,8A,00,00,00,
4439527,00000199,false,Rx,0,6,FF,FF,42,7F,FF,3F,00,00,
4439734,0000019A,false,Rx,0,6,FF,FF,32,7F,FF,3F,00,00,
4439933,0000019F,false,Rx,0,6,FF,FF,F9,7F,FF,2F,00,00,
4440213,00000254,false,Rx,0,8,FF,7F,FF,7F,FF,7F,FF,7F,
4440331,00000258,false,Rx,0,2,44,44,00,00,00,00,00,00,
4441622,00000112,false,Rx,0,8,1A,20,90,0E,A6,71,55,5D,
4443885,000007BD,false,Rx,0,8,00,00,00,40,FF,C4,01,08,
4459802,0000015F,false,Rx,0,8,CC,F7,00,7D,00,EE,00,7D,
4459922,00000100,false,Rx,0,8,E7,FD,7F,C0,5D,49,87,70,
4460007,000000A5,false,Rx,0,8,67,F7,FF,F7,7F,00,00,C1,
4460124,000000AC,false,Rx,0,2,00,F0,00,00,00,00,00,00,
4460209,000000D9,false,Rx,0,8,2B,F7,00,10,00,F0,7F,C0,
4460326,000000F3,false,Rx,0,8,05,07,00,FF,F0,C0,FF,FF,
4460412,00000206,false,Rx,0,8,AC,24,5F,FF,FF,FF,FF,FF,
4460533,00000201,false,Rx,0,8,33,0E,33,0E,FF,FF,FF,FF,
4460619,00000112,false,Rx,0,8,1A,20,90,0E,A6,71,55,5D,
4460704,000002B0,false,Rx,0,6,38,40,03,C9,FF,FF,00,00,
4460798,000000EF,false,Rx,0,8,38,F7,00,7D,21,FC,7C,FF,
4460883,00000100,false,Rx,0,8,00,FE,7F,C0,5D,49,87,70,
4460969,000001A1,false,Rx,0,5,14,C4,00,00,8A,00,00,00,
4461054,00000199,false,Rx,0,6,FF,FF,2E,7F,FF,3F,00,00,
4461140,0000019A,false,Rx,0,6,FF,FF,1E,7F,FF,3F,00,00,
4461225,0000019F,false,Rx,0,6,FF,FF,0E,80,FF,2F,00,00,
4461310,00000254,false,Rx,0,8,FF,7F,FF,7F,FF,7F,FF,7F,
4461396,00000258,false,Rx,0,2,44,44,00,00,00,00,00,00,
4461481,00000302,false,Rx,0,7,FF,FF,D4,7F,FC,FF,FF,00,
4461600,00000112,false,Rx,0,8,1A,20,90,0E,A6,71,55,5D,
4462133,000002F5,false,Rx,0,8,60,0F,7E,20,22,0A,06,10,
4462659,0000012F,false,Rx,0,8,9D,22,88,1D,F1,35,30,80,
4463434,000002A7,false,Rx,0,5,12,F1,FE,FF,14,00,00,00,
4465605,00000197,false,Rx,0,4,8C,06,0E,C0,00,00,00,00,
4466463,0000015F,false,Rx,0,8,90,F8,00,7D,00,EE,00,7D,
4466755,00000100,false,Rx,0,8,01,F0,7F,C0,5D,49,87,70,
4468590,000000A5,false,Rx,0,8,3B,F8,FF,F7,7F,00,00,C1,
4468708,000000AC,false,Rx,0,2,00,F0,00,00,00,00,00,00,
4468914,000000D9,false,Rx,0,8,77,F8,00,10,00,F0,7F,C0,
4469194,000000F3,false,Rx,0,8,59,08,00,FF,F0,C0,FF,FF,
4469394,00000338,false,Rx,0,8,12,00,0A,F0,00,FE,FE,FE,
4471566,00000112,false,Rx,0,8,1A,20,90,0E,A6,71,55,5D,
4472505,0000003C,false,Rx,0,8,FF,5F,00,00,00,00,FF,FF,
4476568,000000EF,false,Rx,0,8,64,F8,00,7D,21,FC,7C,FF,
4476776,00000100,false,Rx,0,8,5C,F1,7F,C0,5D,49,87,70,
4477138,000001A1,false,Rx,0,5,33,C6,00,00,8A,00,00,00,
4479472,00000199,false,Rx,0,6,FF,FF,38,7F,FF,3F,00,00,
4479672,0000019A,false,Rx,0,6,FF,FF,32,7F,FF,3F,00,00,
4479879,0000019F,false,Rx,0,6,FF,FF,E3,7F,FF,2F,00,00,
4480160,00000254,false,Rx,0,8,FF,7F,FF,7F,FF,7F,FF,7F,
4480277,00000258,false,Rx,0,2,44,44,00,00,00,00,00,00,
4481056,00000314,false,Rx,0,3,50,00,FF,00,00,00,00,00,
4481581,00000112,false,Rx,0,8,1A,20,90,0E,A6,71,55,5D,
4486461,0000015F,false,Rx,0,8,CD,F9,00,7D,00,EE,00,7D,
4486752,00000100,false,Rx,0,8,BB,F2,7F,C0,5D,49,87,70,
4488181,0000038E,false,Rx,0,8,00,00,0D,0D,89,0C,B7,F7,
4488402,000000A5,false,Rx,0,8,66,F9,FF,F7,7F,00,00,C1,
4488689,000000D9,false,Rx,0,8,2A,F9,00,10,00,F0,7F,C0,
4488814,000000AC,false,Rx,0,2,00,F0,00,00,00,00,00,00,
4489012,000000F3,false,Rx,0,8,04,09,00,FF,F0,C0,FF,FF,
4489211,00000172,false,Rx,0,5,12,00,0A,60,F0,00,00,00,
4489830,00000206,false,Rx,0,8,F1,25,5F,FF,FF,FF,FF,FF,
4490777,000002A5,false,Rx,0,2,CE,FE,00,00,00,00,00,00,
4491627,00000112,false,Rx,0,8,1A,20,90,0E,A6,71,55,5D,
4493551,0000019B,false,Rx,0,8,49,44,40,55,FD,FF,FF,FF,
4493921,000007BD,false,Rx,0,8,11,00,00,00,00,00,00,00,
4495594,00000197,false,Rx,0,4,03,07,0E,C0,00,00,00,00,
4496533,000000EF,false,Rx,0,8,F7,F9,00,7D,21,00,7D,FF,
4496739,00000100,false,Rx,0,8,E6,F3,7F,C0,5D,49,87,70,
4497019,000001A1,false,Rx,0,5,C6,C8,00,00,8A,00,00,00,
4498693,000002F2,false,Rx,0,6,00,00,00,00,FF,FF,00,00,
4498900,000001B3,false,Rx,0,8,FC,12,00,F3,00,78,8A,BA,
4499098,000002C5,false,Rx,0,7,D4,F4,00,20,04,20,CA,00,
4499379,00000362,false,Rx,0,7,C2,40,02,C2,40,02,EA,00,
4499583,00000199,false,Rx,0,6,FF,FF,38,7F,FF,3F,00,00,
4499784,0000019A,false,Rx,0,6,FF,FF,28,7F,FF,3F,00,00,
4499983,0000019F,false,Rx,0,6,FF,FF,E1,7F,FF,2F,00,00,
4500264,00000201,false,Rx,0,8,3F,0E,3F,0E,FF,FF,FF,FF,
4500463,00000254,false,Rx,0,8,FF,7F,FF,7F,FF,7F,FF,7F,
4500584,00000258,false,Rx,0,2,44,44,00,00,00,00,00,00,
4500872,00000302,false,Rx,0,7,FF,FF,D4,7F,FC,FF,FF,00,
4501644,00000112,false,Rx,0,8,1A,20,90,0E,A6,71,55,5D,
4504728,0000036F,false,Rx,0,5,21,F2,FE,FF,14,00,00,00,
4506480,0000015F,false,Rx,0,8,2A,FA,00,7D,00,EE,00,7D,
4506770,00000100,false,Rx,0,8,68,F4,7F,C0,5D,49,87,70,
4508527,000002C4,false,Rx,0,8,00,00,FF,00,C8,64,FF,CF,
4508735,000000A5,false,Rx,0,8,81,FA,FF,F7,7F,00,00,C1,
4508852,000000AC,false,Rx,0,2,00,F0,00,00,00,00,00,00,
4509132,000000D9,false,Rx,0,8,CD,FA,00,10,00,F0,7F,C0,
4509331,000000F3,false,Rx,0,8,E3,0A,00,FF,F0,C0,FF,FF,
4509533,00000304,false,Rx,0,6,FF,FF,F9,39,FF,FF,00,00,
4523733,00000112,false,Rx,0,8,1A,20,90,0E,A6,71,55,5D,
4523819,000001AE,false,Rx,0,2,F7,FF,00,00,00,00,00,00,
4523904,000000EF,false,Rx,0,8,10,FA,00,7D,21,00,7D,FF,
4523990,00000100,false,Rx,0,8,35,F5,7F,C0,5D,49,87,70,
4524075,000001A1,false,Rx,0,5,E1,CA,00,00,8A,00,00,00,
4524161,00000199,false,Rx,0,6,FF,FF,38,7F,FF,3F,00,00,
4524246,0000019A,false,Rx,0,6,FF,FF,1E,7F,FF,3F,00,00,
4524331,0000019F,false,Rx,0,6,FF,FF,03,80,FF,2F,00,00,
4524417,00000254,false,Rx,0,8,FF,7F,FF,7F,FF,7F,FF,7F,
4524502,00000258,false,Rx,0,2,44,44,00,00,00,00,00,00,
4524589,00000112,false,Rx,0,8,1A,20,90,0E,A6,71,55,5D,
4525610,00000197,false,Rx,0,4,85,08,0E,C0,00,00,00,00,
4526061,000000A9,false,Rx,0,8,10,78,00,90,F1,00,00,FF,
4526505,0000015F,false,Rx,0,8,77,FB,00,7D,00,EE,00,7D,
4526704,00000100,false,Rx,0,8,D2,F6,7F,C0,5D,49,87,70,
4528551,000000A5,false,Rx,0,8,DC,FB,FF,F7,7F,00,00,C1,
4528669,000000AC,false,Rx,0,2,00,F0,00,00,00,00,00,00,
4528876,000000D9,false,Rx,0,8,90,FB,00,10,00,F0,7F,C0,
4529157,000000F3,false,Rx,0,8,BE,0B,00,FF,F0,C0,FF,FF,
4529356,000002E8,false,Rx,0,8,C0,18,C5,FF,FF,F4,FC,38,
4529802,00000540,false,Rx,0,8,00,00,00,00,FD,3C,FF,40,
4530010,00000108,false,Rx,0,8,71,7D,FF,1F,48,F2,FF,FF,
4530209,000003FD,false,Rx,0,5,93,02,00,00,FF,00,00,00,
4530408,00000206,false,Rx,0,8,16,26,5F,FF,FF,FF,FF,FF,
4530690,00000163,false,Rx,0,8,FF,FF,F1,24,FF,FF,FF,FF,
4530897,00000173,false,Rx,0,8,E8,F6,00,0E,30,00,DE,10,
4531178,00000212,false,Rx,0,8,77,F1,F9,FF,FF,FF,FF,FF,
4531377,000002DB,false,Rx,0,8,FF,FF,FF,FF,BF,FF,FF,FF,
4531660,00000112,false,Rx,0,8,1A,20,90,0E,A6,71,55,5D,
4531867,000002F1,false,Rx,0,8,A2,0F,00,00,1B,DF,06,A0,
4532148,0000032B,false,Rx,0,8,FF,FF,FF,FF,FF,FF,00,FF,
4532347,00000331,false,Rx,0,8,FF,FF,FF,EF,7F,FE,F7,FF,
4532629,000003E9,false,Rx,0,8,08,52,21,91,02,00,00,FE,
4533404,00000301,false,Rx,0,7,FF,FF,D9,7F,FF,FF,CF,00,
4533605,000002BB,false,Rx,0,5,91,FC,C4,09,F2,00,00,00,
4533812,00000560,false,Rx,0,8,00,00,00,00,FE,00,00,60,
4536066,000002A1,false,Rx,0,5,80,58,02,00,F0,00,00,00,
4536509,000000EF,false,Rx,0,8,4D,FB,00,7D,21,00,7D,FF,
4536709,00000100,false,Rx,0,8,8F,F7,7F,C0,5D,49,87,70,
4536996,000001A1,false,Rx,0,5,88,CC,00,00,8A,00,00,00,
4539515,00000199,false,Rx,0,6,FF,FF,42,7F,FF,3F,00,00,
4539722,0000019A,false,Rx,0,6,FF,FF,1E,7F,FF,3F,00,00,
4539920,0000019F,false,Rx,0,6,FF,FF,11,80,FF,2F,00,00,
4540201,00000254,false,Rx,0,8,FF,7F,FF,7F,FF,7F,FF,7F,
4540318,00000258,false,Rx,0,2,44,44,00,00,00,00,00,00,
4540519,00000302,false,Rx,0,7,FF,FF,D4,7F,FC,FF,FF,00,
4541645,00000112,false,Rx,0,8,1A,20,90,0E,A6,71,55,5D,
4542584,000001E1,false,Rx,0,6,BE,F6,00,FF,FF,FF,00,00,
4543440,000002A7,false,Rx,0,5,A8,F2,FE,FF,14,00,00,00,
4543891,000007BD,false,Rx,0,8,00,00,00,40,FF,C8,01,08,
4544172,000007BE,false,Rx,0,8,05,00,00,00,00,00,00,E0,
4546586,0000015F,false,Rx,0,8,F9,FC,00,7D,00,EE,00,7D,
4546794,00000100,false,Rx,0,8,D3,F8,7F,C0,5D,49,87,70,
4548468,000000A5,false,Rx,0,8,52,FC,FF,F7,7F,00,00,C1,
4548587,000000AC,false,Rx,0,2,00,F0,00,00,00,00,00,00,
4548876,000000D9,false,Rx,0,8,1E,FC,00,10,00,F0,7F,C0,
4549076,000000F3,false,Rx,0,8,30,0C,00,FF,F0,C0,FF,FF,
4549861,00000201,false,Rx,0,8,4A,0E,4A,0E,FF,FF,FF,FF,
4551616,00000112,false,Rx,0,8,1A,20,90,0E,A6,71,55,5D,
4551903,00000239,false,Rx,0,8,8D,55,1D,B2,01,4B,FF,FF,
4555384,00000510,false,Rx,0,8,40,10,20,00,00,00,00,00,
4555667,00000197,false,Rx,0,4,0A,09,0E,C0,00,00,00,00,
4556036,000002B0,false,Rx,0,6,38,40,03,C9,FF,FF,00,00,
4556479,000000EF,false,Rx,0,8,C3,FC,00,7D,21,00,7D,FF,
4556769,00000100,false,Rx,0,8,8E,F9,7F,C0,5D,49,87,70,
4557050,000001A1,false,Rx,0,5,AF,CE,00,00,8A,00,00,00,
4559465,00000199,false,Rx,0,6,FF,FF,38,7F,FF,3F,00,00,
4559754,0000019A,false,Rx,0,6,FF,FF,32,7F,FF,3F,00,00,
4559953,0000019F,false,Rx,0,6,FF,FF,04,80,FF,2F,00,00,
4560152,00000254,false,Rx,0,8,FF,7F,FF,7F,FF,7F,FF,7F,
4560270,00000258,false,Rx,0,2,44,44,00,00,00,00,00,00,
4560551,000003CD,false,Rx,0,8,B5,14,58,96,01,00,00,00,
4561653,00000112,false,Rx,0,8,1A,20,90,0E,A6,71,55,5D,
4562103,000002F5,false,Rx,0,8,60,0F,7E,20,22,0A,06,10,
4562629,0000012F,false,Rx,0,8,C0,23,88,1D,F1,35,30,80,
4566444,0000015F,false,Rx,0,8,A4,FD,00,7D,00,EE,00,7D,
4566736,00000100,false,Rx,0,8,69,FA,7F,C0,5D,49,87,70,
4568571,000000A5,false,Rx,0,8,0F,FD,FF,F7,7F,00,00,C1,
4568689,000000AC,false,Rx,0,2,00,F0,00,00,00,00,00,00,
4568896,000000D9,false,Rx,0,8,43,FD,00,10,00,F0,7F,C0,
4569177,000000F3,false,Rx,0,8,6D,0D,00,FF,F0,C0,FF,FF,
4569376,000003CA,false,Rx,0,8,6D,20,17,06,06,3D,FF,FF,
4569830,00000206,false,Rx,0,8,4B,27,5F,FF,FF,FF,FF,FF,
4570850,00000349,false,Rx,0,5,FE,FF,12,1B,00,00,00,00,
4571540,00000112,false,Rx,0,8,1A,20,90,0E,A6,71,55,5D,
4572316,000000C0,false,Rx,0,2,FE,40,00,00,00,00,00,00,
4572598,0000003C,false,Rx,0,8,FF,5F,00,00,00,00,FF,FF,
4588836,000000EF,false,Rx,0,8,9E,FD,00,7D,21,00,7D,FF,
4588954,00000100,false,Rx,0,8,34,FB,7F,C0,5D,49,87,70,
4589040,000001A1,false,Rx,0,5,C7,C1,00,00,8A,00,00,00,
4589125,00000199,false,Rx,0,6,FF,FF,38,7F,FF,3F,00,00,
4589211,0000019A,false,Rx,0,6,FF,FF,28,7F,FF,3F,00,00,
4589296,0000019F,false,Rx,0,6,FF,FF,F7,7F,FF,2F,00,00,
4589381,00000254,false,Rx,0,8,FF,7F,FF,7F,FF,7F,FF,7F,
4589467,00000258,false,Rx,0,2,44,44,00,00,00,00,00,00,
4589554,00000302,false,Rx,0,7,FF,FF,D4,7F,FC,FF,FF,00,
4589639,00000112,false,Rx,0,8,1A,20,90,0E,A6,71,55,5D,
4589733,0000036E,false,Rx,0,5,EE,F2,FE,FF,14,00,00,00,
4589818,00000197,false,Rx,0,4,86,0A,0E,C0,00,00,00,00,
4589903,000003D8,false,Rx,0,8,07,FF,FF,FF,FF,FF,FF,FF,
4589989,0000015F,false,Rx,0,8,43,FE,00,7D,00,EE,00,7D,
4590074,00000100,false,Rx,0,8,BA,FC,7F,C0,5D,49,87,70,
4590160,000000A5,false,Rx,0,8,E8,FE,FF,F7,7F,00,00,C1,
4590245,000000AC,false,Rx,0,2,00,F0,00,00,00,00,00,00,
4590330,000000D9,false,Rx,0,8,A4,FE,00,10,00,F0,7F,C0,
4590416,000000F3,false,Rx,0,8,8A,0E,00,FF,F0,C0,FF,FF,
4590537,000003B4,false,Rx,0,8,0C,FF,71,F0,BA,FF,01,00,
4591667,00000112,false,Rx,0,8,1A,20,90,0E,A6,71,55,5D,
4593941,000007BD,false,Rx,0,8,07,00,00,00,40,00,00,00,
4594140,000007BE,false,Rx,0,8,0C,05,04,6A,00,00,00,00,
4596472,000000EF,false,Rx,0,8,79,FE,00,7D,21,00,7D,FF,
4596761,00000100,false,Rx,0,8,E7,FD,7F,C0,5D,49,87,70,
4597041,000001A1,false,Rx,0,5,E0,C3,00,00,8A,00,00,00,
4598632,000002F2,false,Rx,0,6,00,00,00,00,FF,FF,00,00,
4598839,0000019D,false,Rx,0,8,A3,98,F5,05,FF,FF,FF,FF,
4599119,000001B3,false,Rx,0,8,FC,12,00,F4,00,78,8A,BB,
4599318,000002C5,false,Rx,0,7,92,F5,00,20,04,20,CA,00,
4599518,00000199,false,Rx,0,6,FF,FF,38,7F,FF,3F,00,00,
4599805,0000019A,false,Rx,0,6,FF,FF,1E,7F,FF,3F,00,00,
4600003,0000019F,false,Rx,0,6,FF,FF,09,80,FF,2F,00,00,
4600202,00000201,false,Rx,0,8,56,0E,56,0E,FF,FF,FF,FF,
4600483,00000254,false,Rx,0,8,FF,7F,FF,7F,FF,7F,FF,7F,
4600604,00000258,false,Rx,0,2,44,44,00,00,00,00,00,00,
4601626,00000112,false,Rx,0,8,1A,20,90,0E,A6,71,55,5D,
4601832,00000431,false,Rx,0,8,CA,FF,05,02,68,26,F3,4B,
4604743,000003A7,false,Rx,0,7,87,F3,0A,00,4F,11,F0,00,
4604860,000003E6,false,Rx,0,2,79,1D,00,00,00,00,00,00,
4606533,0000015F,false,Rx,0,8,42,F0,00,7D,00,EE,00,7D,
4606739,00000100,false,Rx,0,8,00,FE,7F,C0,5D,49,87,70,
4608493,000002C4,false,Rx,0,8,00,00,FF,00,C8,64,FF,CF,
4608694,000000A5,false,Rx,0,8,E9,F0,FF,F7,7F,00,00,C1,
4608820,000000AC,false,Rx,0,2,00,F0,00,00,00,00,00,00,
4609100,000000D9,false,Rx,0,8,A5,F0,00,10,00,F0,7F,C0,
4609299,000000F3,false,Rx,0,8,8B,00,00,FF,F0,C0,FF,FF,
4609832,00000206,false,Rx,0,8,17,28,5F,FF,FF,FF,FF,FF,
4611586,00000112,false,Rx,0,8,1A,20,90,0E,A6,71,55,5D,
4611787,00000432,false,Rx,0,8,CC,E8,10,A3,66,FF,00,FF,
4614533,000001AE,false,Rx,0,2,F7,FF,00,00,00,00,00,00,
4614834,0000051A,false,Rx,0,8,00,00,00,00,50,00,00,1A,
4615114,00000297,false,Rx,0,7,0C,EE,F0,E0,F2,92,EA,00,
4615641,00000197,false,Rx,0,4,09,0B,0E,C0,00,00,00,00,
4616498,000000EF,false,Rx,0,8,78,F0,00,7D,21,00,7D,FF,
4616788,00000100,false,Rx,0,8,01,F0,7F,C0,5D,49,87,70,
4616986,000001A1,false,Rx,0,5,89,C5,00,00,8A,00,00,00,
4618748,00000328,false,Rx,0,6,AC,90,8A,0C,87,1E,00,00,
4619518,00000199,false,Rx,0,6,FF,FF,38,7F,FF,3F,00,00,
4619725,0000019A,false,Rx,0,6,FF,FF,14,7F,FF,3F,00,00,
4619924,0000019F,false,Rx,0,6,FF,FF,01,80,FF,2F,00,00,
4620122,00000254,false,Rx,0,8,FF,7F,FF,7F,FF,7F,FF,7F,
4620321,00000258,false,Rx,0,2,44,44,00,00,00,00,00,00,
4620522,00000239,false,Rx,0,8,3D,51,1D,B2,01,4B,FF,FF,
4620730,00000302,false,Rx,0,7,FF,FF,D4,7F,FC,FF,FF,00,
4621663,00000112,false,Rx,0,8,1A,20,90,0E,A6,71,55,5D,
4623588,000002A7,false,Rx,0,5,35,F3,FE,FF,14,00,00,00,
4626089,000000A9,false,Rx,0,8,10,78,00,90,F1,00,00,FF,
4626533,0000015F,false,Rx,0,8,1F,F1,00,7D,00,EE,00,7D,
4626741,00000100,false,Rx,0,8,5C,F1,7F,C0,5D,49,87,70,
4628577,000000A5,false,Rx,0,8,B4,F1,FF,F7,7F,00,00,C1,
4628695,000000AC,false,Rx,0,2,00,F0,00,00,00,00,00,00,
4628902,000000D9,false,Rx,0,8,F8,F1,00,10,00,F0,7F,C0,
4629182,000000F3,false,Rx,0,8,D6,01,00,FF,F0,C0,FF,FF,
4629381,000002E8,false,Rx,0,8,C0,18,C5,FF,FF,F4,FD,25,
4629834,000003FD,false,Rx,0,5,0E,03,00,00,FF,00,00,00,
4630034,00000108,false,Rx,0,8,71,7D,FF,1F,48,F2,FF,FF,
4630233,00000212,false,Rx,0,8,90,F2,F9,FF,FF,FF,FF,FF,
4630514,00000163,false,Rx,0,8,FF,FF,F1,24,FF,FF,FF,FF,
4630721,00000173,false,Rx,0,8,66,F1,00,0E,30,00,DE,10,
4631001,00000272,false,Rx,0,8,D5,FE,01,11,FF,FF,FF,FF,
4631200,000002DB,false,Rx,0,8,FF,FF,FF,FF,BF,FF,FF,FF,
4631481,000002F1,false,Rx,0,8,A2,0F,00,00,1B,DF,06,A0,
4631681,00000112,false,Rx,0,8,1A,20,90,0E,A6,71,55,5D,
4633525,000002BB,false,Rx,0,5,B7,F7,C4,09,F2,00,00,00,
4636026,000002A1,false,Rx,0,5,80,58,02,00,F0,00,00,00,
4636468,000000EF,false,Rx,0,8,25,F1,00,7D,21,00,7D,FF,
4636759,00000100,false,Rx,0,8,BB,F2,7F,C0,5D,49,87,70,
4637039,000001A1,false,Rx,0,5,AE,C7,00,00,8A,00,00,00,
4654289,00000199,false,Rx,0,6,FF,FF,38,7F,FF,3F,00,00,
4654375,0000019A,false,Rx,0,6,FF,FF,1E,7F,FF,3F,00,00,
4654460,0000019F,false,Rx,0,6,FF,FF,F1,7F,FF,2F,00,00,
4654549,00000254,false,Rx,0,8,FF,7F,FF,7F,FF,7F,FF,7F,
4654635,00000258,false,Rx,0,2,44,44,00,00,00,00,00,00,
4654729,00000314,false,Rx,0,3,50,00,FF,00,00,00,00,00,
4654814,00000112,false,Rx,0,8,1A,20,90,0E,A6,71,55,5D,
4654900,000007BD,false,Rx,0,8,00,00,00,40,FF,CC,01,08,
4654985,000007BE,false,Rx,0,8,07,49,07,EA,06,67,00,00,
4655071,00000197,false,Rx,0,4,83,0C,0E,C0,00,00,00,00,
4655156,0000015F,false,Rx,0,8,F8,F2,00,7D,00,EE,00,7D,
4655241,00000100,false,Rx,0,8,E6,F3,7F,C0,5D,49,87,70,
4655327,000000A5,false,Rx,0,8,53,F2,FF,F7,7F,00,00,C1,
4655412,000000AC,false,Rx,0,2,00,F0,00,00,00,00,00,00,
4655497,000000D9,false,Rx,0,8,1F,F2,00,10,00,F0,7F,C0,
4655584,000000F3,false,Rx,0,8,31,02,00,FF,F0,C0,FF,FF,
4655670,00000206,false,Rx,0,8,4A,29,5F,FF,FF,FF,FF,FF,
4655764,00000201,false,Rx,0,8,62,0E,62,0E,FF,FF,FF,FF,
4655849,00000112,false,Rx,0,8,1A,20,90,0E,A6,71,55,5D,
4656048,000002B0,false,Rx,0,6,38,40,03,C9,FF,FF,00,00,
4656491,000000EF,false,Rx,0,8,0C,F2,00,7D,21,FC,7C,FF,
4656691,00000100,false,Rx,0,8,68,F4,7F,C0,5D,49,87,70,
4657060,000001A1,false,Rx,0,5,5B,C9,00,00,8A,00,00,00,
4659474,00000199,false,Rx,0,6,FF,FF,42,7F,FF,3F,00,00,
4659675,0000019A,false,Rx,0,6,FF,FF,32,7F,FF,3F,00,00,
4659882,0000019F,false,Rx,0,6,FF,FF,F6,7F,FF,2F,00,00,
4660162,00000254,false,Rx,0,8,FF,7F,FF,7F,FF,7F,FF,7F,
4660279,00000258,false,Rx,0,2,44,44,00,00,00,00,00,00,
4660560,00000302,false,Rx,0,7,FF,FF,D4,7F,FC,FF,FF,00,
4661663,00000112,false,Rx,0,8,1A,20,90,0E,A6,71,55,5D,
4662114,000002F5,false,Rx,0,8,60,0F,7E,20,22,0A,06,10,
4662640,0000012F,false,Rx,0,8,4E,24,88,1D,F1,35,30,80,
4664817,0000036F,false,Rx,0,5,BC,F3,FE,FF,14,00,00,00,
4666489,0000015F,false,Rx,0,8,A5,F3,00,7D,00,EE,00,7D,
4666779,00000100,false,Rx,0,8,35,F5,7F,C0,5D,49,87,70,
4668614,000000A5,false,Rx,0,8,0E,F3,FF,F7,7F,00,00,C1,
4668820,000000AC,false,Rx,0,2,00,F0,00,00,00,00,00,00,
4669019,000000D9,false,Rx,0,8,42,F3,00,10,00,F0,7F,C0,
4669218,000000F3,false,Rx,0,8,6C,03,00,FF,F0,C0,FF,FF,
4670242,0000034A,false,Rx,0,8,ED,9F,06,A9,3D,5F,02,22,
4671591,00000112,false,Rx,0,8,1A,20,90,0E,A6,71,55,5D,
4672448,0000003C,false,Rx,0,8,FF,5F,00,00,00,00,FF,FF,
4675604,00000197,false,Rx,0,4,0C,0D,0E,C0,00,00,00,00,
4676544,000000EF,false,Rx,0,8,9F,F3,00,7D,21,00,7D,FF,
4676832,00000100,false,Rx,0,8,D2,F6,7F,C0,5D,49,87,70,
4677112,000001A1,false,Rx,0,5,7C,CB,00,00,8A,00,00,00,
4679530,00000199,false,Rx,0,6,FF,FF,42,7F,FF,3F,00,00,
4679737,0000019A,false,Rx,0,6,FF,FF,3C,7F,FF,3F,00,00,
4679937,0000019F,false,Rx,0,6,FF,FF,FE,7F,FF,2F,00,00,
4680136,00000201,false,Rx,0,8,69,0E,69,0E,FF,FF,FF,FF,
4680417,00000254,false,Rx,0,8,FF,7F,FF,7F,FF,7F,FF,7F,
4680535,00000258,false,Rx,0,2,44,44,00,00,00,00,00,00,
4681641,00000112,false,Rx,0,8,1A,20,90,0E,A6,71,55,5D,
4686527,0000015F,false,Rx,0,8,2B,F4,00,7D,00,EE,00,7D,
4686735,00000100,false,Rx,0,8,8F,F7,7F,C0,5D,49,87,70,
4688325,000000A5,false,Rx,0,8,80,F4,FF,F7,7F,00,00,C1,
4688442,000000AC,false,Rx,0,2,00,F0,00,00,00,00,00,00,
4688644,000000D9,false,Rx,0,8,CC,F4,00,10,00,F0,7F,C0,
4688932,000000F3,false,Rx,0,8,E2,04,00,FF,F0,C0,FF,FF,
4689873,00000206,false,Rx,0,8,AD,2A,5F,FF,FF,FF,FF,FF,
4690733,000002A5,false,Rx,0,2,CE,FE,00,00,00,00,00,00,
4691175,00000348,false,Rx,0,8,B7,9D,0A,7F,FE,FA,59,3A,
4691620,00000112,false,Rx,0,8,1A,20,90,0E,A6,71,55,5D,
4693549,0000019B,false,Rx,0,8,14,45,40,55,FD,FF,FF,FF,
4693940,000007BD,false,Rx,0,8,07,00,00,00,40,00,00,00,
4694224,000007BE,false,Rx,0,8,00,C0,FA,1C,12,00,00,00,
4696487,000000EF,false,Rx,0,8,11,F4,00,7D,21,00,7D,FF,
4696688,00000100,false,Rx,0,8,D3,F8,7F,C0,5D,49,87,70,
4697057,000001A1,false,Rx,0,5,15,CD,00,00,8A,00,00,00,
4698651,000002F2,false,Rx,0,6,00,00,00,00,FF,FF,00,00,
4698859,000001B3,false,Rx,0,8,FC,12,00,F5,00,78,8A,BC,
4699139,000002C5,false,Rx,0,7,58,F6,00,20,04,20,CA,00,
4699339,00000362,false,Rx,0,7,C2,40,02,C2,40,02,EA,00,
4699621,00000199,false,Rx,0,6,FF,FF,38,7F,FF,3F,00,00,
4699827,0000019A,false,Rx,0,6,FF,FF,28,7F,FF,3F,00,00,
4700026,0000019F,false,Rx,0,6,FF,FF,10,80,FF,2F,00,00,
4700307,00000201,false,Rx,0,8,6E,0E,6E,0E,FF,FF,FF,FF,
4700506,00000254,false,Rx,0,8,FF,7F,FF,7F,FF,7F,FF,7F,
4700625,00000258,false,Rx,0,2,44,44,00,00,00,00,00,00,
4700914,00000302,false,Rx,0,7,FF,FF,D4,7F,FC,FF,FF,00,
4701602,00000112,false,Rx,0,8,1A,20,90,0E,A6,71,55,5D,
4703445,000002A7,false,Rx,0,5,C1,F4,FE,FF,14,00,00,00,
4718438,00000197,false,Rx,0,4,80,0E,0E,C0,00,00,00,00,
4718527,0000015F,false,Rx,0,8,76,F5,00,7D,00,EE,00,7D,
4718612,00000100,false,Rx,0,8,8E,F9,7F,C0,5D,49,87,70,
4718698,000002C4,false,Rx,0,8,00,00,FF,00,C8,64,FF,CF,
4718792,000000A5,false,Rx,0,8,DD,F5,FF,F7,7F,00,00,C1,
4718877,000000AC,false,Rx,0,2,00,F0,00,00,00,00,00,00,
4718962,000000D9,false,Rx,0,8,91,F5,00,10,00,F0,7F,C0,
4719048,000000F3,false,Rx,0,8,BF,05,00,FF,F0,C0,FF,FF,
4719133,00000304,false,Rx,0,6,FF,FF,F9,39,FF,FF,00,00,
4719219,0000043D,false,Rx,0,8,0A,FE,EB,FF,1E,A7,00,F0,
4719304,00000112,false,Rx,0,8,1A,20,90,0E,A6,71,55,5D,
4719390,000001AE,false,Rx,0,2,F7,FF,00,00,00,00,00,00,
4719507,000000EF,false,Rx,0,8,4C,F5,00,7D,21,00,7D,FF,
4719594,00000100,false,Rx,0,8,69,FA,7F,C0,5D,49,87,70,
4719712,000001A1,false,Rx,0,5,5A,C0,00,00,8A,00,00,00,
4719804,00000199,false,Rx,0,6,FF,FF,1A,7F,FF,3F,00,00,
4719922,0000019A,false,Rx,0,6,FF,FF,3C,7F,FF,3F,00,00,
4720008,0000019F,false,Rx,0,6,FF,FF,07,80,FF,2F,00,00,
4720126,00000254,false,Rx,0,8,FF,7F,FF,7F,FF,7F,FF,7F,
4720324,00000258,false,Rx,0,2,44,44,00,00,00,00,00,00,
4721673,00000112,false,Rx,0,8,1A,20,90,0E,A6,71,55,5D,
4726065,000000A9,false,Rx,0,8,10,78,00,90,F1,00,00,FF,
4726508,0000015F,false,Rx,0,8,91,F6,00,7D,00,EE,00,7D,
4726796,00000100,false,Rx,0,8,34,FB,7F,C0,5D,49,87,70,
4728551,000000A5,false,Rx,0,8,3A,F6,FF,F7,7F,00,00,C1,
4728669,000000AC,false,Rx,0,2,00,F0,00,00,00,00,00,00,
4728875,000000D9,false,Rx,0,8,76,F6,00,10,00,F0,7F,C0,
4729155,000000F3,false,Rx,0,8,58,06,00,FF,F0,C0,FF,FF,
4729354,000002E8,false,Rx,0,8,C0,18,C5,FF,FF,F4,FE,02,
4729808,000003FD,false,Rx,0,5,FA,04,00,00,FF,00,00,00,
4730087,00000108,false,Rx,0,8,71,7D,FF,1F,48,F2,FF,FF,
4730286,00000206,false,Rx,0,8,F0,2B,5F,FF,FF,FF,FF,FF,
4730568,00000163,false,Rx,0,8,FF,FF,F1,24,FF,FF,FF,FF,
4730774,00000173,false,Rx,0,8,0E,FB,00,0E,30,00,DE,10,
4731055,00000212,false,Rx,0,8,CD,F3,F9,FF,FF,FF,FF,FF,
4731254,0000043C,false,Rx,0,8,FE,FE,FF,FF,FF,FF,FF,FF,
4731537,000002DB,false,Rx,0,8,FF,FF,FF,FF,BF,FF,FF,FF,
4731745,00000112,false,Rx,0,8,1A,20,90,0E,A6,71,55,5D,
4731944,000002F1,false,Rx,0,8,A2,0F,00,00,1B,DF,06,A0,
4732225,0000032B,false,Rx,0,8,FF,FF,FF,FF,FF,FF,00,FF,
4732505,00000331,false,Rx,0,8,FF,FF,FF,EF,7F,FE,F7,FF,
4732705,000003E9,false,Rx,0,8,08,52,21,91,02,00,00,FE,
4733400,00000301,false,Rx,0,7,FF,FF,D9,7F,FF,FF,CF,00,
4733601,000002BB,false,Rx,0,5,64,F2,C4,09,F2,00,00,00,
4735608,00000197,false,Rx,0,4,89,00,0E,C0,00,00,00,00,
4736059,000002A1,false,Rx,0,5,80,58,02,00,F0,00,00,00,
4736502,000000EF,false,Rx,0,8,65,F6,00,7D,21,FC,7C,FF,
4736791,00000100,false,Rx,0,8,BA,FC,7F,C0,5D,49,87,70,
4737072,000001A1,false,Rx,0,5,7D,C2,00,00,8A,00,00,00,
4739485,00000199,false,Rx,0,6,FF,FF,38,7F,FF,3F,00,00,
4739685,0000019A,false,Rx,0,6,FF,FF,28,7F,FF,3F,00,00,
4739892,0000019F,false,Rx,0,6,FF,FF,01,80,FF,2F,00,00,
4740173,00000254,false,Rx,0,8,FF,7F,FF,7F,FF,7F,FF,7F,
4740289,00000258,false,Rx,0,2,44,44,00,00,00,00,00,00,
4740576,00000302,false,Rx,0,7,FF,FF,D4,7F,FC,FF,FF,00,
4741644,00000112,false,Rx,0,8,1A,20,90,0E,A6,71,55,5D,
4742584,000001E1,false,Rx,0,6,D4,F7,00,FF,FF,FF,00,00,
4743442,0000036E,false,Rx,0,5,73,F3,FE,FF,14,00,00,00,
4743896,000007BD,false,Rx,0,8,00,00,00,40,FF,C0,01,08,
4744176,000007BE,false,Rx,0,8,05,00,00,00,00,00,00,E0,
4746592,0000015F,false,Rx,0,8,CC,F7,00,7D,00,EE,00,7D,
4746880,00000100,false,Rx,0,8,E7,FD,7F,C0,5D,49,87,70,
4748472,000000A5,false,Rx,0,8,67,F7,FF,F7,7F,00,00,C1,
4748591,000000AC,false,Rx,0,2,00,F0,00,00,00,00,00,00,
4748880,000000D9,false,Rx,0,8,2B,F7,00,10,00,F0,7F,C0,
4749079,000000F3,false,Rx,0,8,05,07,00,FF,F0,C0,FF,FF,
4749865,00000201,false,Rx,0,8,7A,0E,7A,0E,FF,FF,FF,FF,
4750968,0000034C,false,Rx,0,8,69,00,00,00,77,03,F0,FF,
4751576,00000112,false,Rx,0,8,1A,20,90,0E,A6,71,55,5D,
4751777,00000239,false,Rx,0,8,3D,51,1D,B2,01,4B,FF,FF,
4756080,000002B0,false,Rx,0,6,38,40,03,C9,FF,FF,00,00,
4756527,000000EF,false,Rx,0,8,38,F7,00,7D,21,FC,7C,FF,
4756734,00000100,false,Rx,0,8,00,FE,7F,C0,5D,49,87,70,
4757014,000001A1,false,Rx,0,5,14,C4,00,00,8A,00,00,00,
4759508,00000199,false,Rx,0,6,FF,FF,24,7F,FF,3F,00,00,
4759707,0000019A,false,Rx,0,6,FF,FF,1E,7F,FF,3F,00,00,
4759914,0000019F,false,Rx,0,6,FF,FF,F7,7F,FF,2F,00,00,
4760194,00000254,false,Rx,0,8,FF,7F,FF,7F,FF,7F,FF,7F,
4760312,00000258,false,Rx,0,2,44,44,00,00,00,00,00,00,
4761659,00000112,false,Rx,0,8,1A,20,90,0E,A6,71,55,5D,
4762110,000002F5,false,Rx,0,8,60,0F,7E,20,22,0A,06,10,
4762638,0000012F,false,Rx,0,8,13,25,88,1D,F1,35,30,80,
4765632,00000197,false,Rx,0,4,06,01,0E,C0,00,00,00,00,
4766325,00000100,false,Rx,0,8,01,F0,7F,C0,5D,49,87,70,
4766610,0000015F,false,Rx,0,8,90,F8,00,7D,00,EE,00,7D,
4783216,000000A5,false,Rx,0,8,3B,F8,FF,F7,7F,00,00,C1,
4783303,000000AC,false,Rx,0,2,00,F0,00,00,00,00,00,00,
4783388,000000D9,false,Rx,0,8,77,F8,00,10,00,F0,7F,C0,
4783505,000000F3,false,Rx,0,8,59,08,00,FF,F0,C0,FF,FF,
4783592,00000206,false,Rx,0,8,7E,2C,5F,FF,FF,FF,FF,FF,
4783678,000001D6,false,Rx,0,2,F0,C0,00,00,00,00,00,00,
4783772,00000349,false,Rx,0,5,FE,FF,12,1B,00,00,00,00,
4783857,00000112,false,Rx,0,8,1A,20,90,0E,A6,71,55,5D,
4783942,000000C0,false,Rx,0,2,F0,40,00,00,00,00,00,00,
4784027,0000003C,false,Rx,0,8,FF,5F,00,00,00,00,FF,FF,
4784113,000000EF,false,Rx,0,8,AA,F8,00,7D,21,00,7D,FF,
4784198,00000100,false,Rx,0,8,5C,F1,7F,C0,5D,49,87,70,
4784284,000001A1,false,Rx,0,5,33,C6,00,00,8A,00,00,00,
4784369,00000199,false,Rx,0,6,FF,FF,2E,7F,FF,3F,00,00,
4784454,0000019A,false,Rx,0,6,FF,FF,1E,7F,FF,3F,00,00,
4784543,0000019F,false,Rx,0,6,FF,FF,04,80,FF,2F,00,00,
4784629,00000254,false,Rx,0,8,FF,7F,FF,7F,FF,7F,FF,7F,
4784722,00000258,false,Rx,0,2,44,44,00,00,00,00,00,00,
4784807,00000302,false,Rx,0,7,FF,FF,D4,7F,FC,FF,FF,00,
4784893,00000112,false,Rx,0,8,1A,20,90,0E,A6,71,55,5D,
4784978,000002A7,false,Rx,0,5,5C,F5,FE,FF,14,00,00,00,
4786487,0000015F,false,Rx,0,8,CD,F9,00,7D,00,EE,00,7D,
4786688,00000100,false,Rx,0,8,BB,F2,7F,C0,5D,49,87,70,
4788286,000000A5,false,Rx,0,8,66,F9,FF,F7,7F,00,00,C1,
4788403,000000AC,false,Rx,0,2,00,F0,00,00,00,00,00,00,
4788685,000000D9,false,Rx,0,8,2A,F9,00,10,00,F0,7F,C0,
4788892,000000F3,false,Rx,0,8,04,09,00,FF,F0,C0,FF,FF,
4790647,000003B4,false,Rx,0,8,0C,FF,71,F0,BA,FF,01,00,
4791668,00000112,false,Rx,0,8,1A,20,90,0E,A6,71,55,5D,
4793866,000007BD,false,Rx,0,8,07,00,00,00,40,00,00,00,
4794146,000007BE,false,Rx,0,8,0B,00,00,00,00,00,00,00,
4795659,00000197,false,Rx,0,4,8A,02,0E,C0,00,00,00,00,
4796549,000000EF,false,Rx,0,8,39,F9,00,7D,21,FC,7C,FF,
4796756,00000100,false,Rx,0,8,E6,F3,7F,C0,5D,49,87,70,
4797037,000001A1,false,Rx,0,5,C6,C8,00,00,8A,00,00,00,
4798643,000002F2,false,Rx,0,6,00,00,00,00,FF,FF,00,00,
4798849,000001B3,false,Rx,0,8,FC,12,00,F6,00,78,8A,BD,
4799130,000002C5,false,Rx,0,7,1E,F7,00,20,04,20,CA,00,
4799659,00000199,false,Rx,0,6,FF,FF,4C,7F,FF,3F,00,00,
4799866,0000019A,false,Rx,0,6,FF,FF,32,7F,FF,3F,00,00,
4800065,0000019F,false,Rx,0,6,FF,FF,FE,7F,FF,2F,00,00,
4800265,00000201,false,Rx,0,8,86,0E,86,0E,FF,FF,FF,FF,
4800549,00000254,false,Rx,0,8,FF,7F,FF,7F,FF,7F,FF,7F,
4800667,00000258,false,Rx,0,2,44,44,00,00,00,00,00,00,
4801199,00000314,false,Rx,0,3,50,00,FF,00,00,00,00,00,
4801644,00000112,false,Rx,0,8,1A,20,90,0E,A6,71,55,5D,
4801851,00000431,false,Rx,0,8,CA,FF,05,02,68,26,F3,4B,
4806563,0000015F,false,Rx,0,8,2A,FA,00,7D,00,EE,00,7D,
4806769,00000100,false,Rx,0,8,68,F4,7F,C0,5D,49,87,70,
4808442,000002C4,false,Rx,0,8,00,00,FF,00,C8,64,FF,CF,
4808733,000000A5,false,Rx,0,8,81,FA,FF,F7,7F,00,00,C1,
4808851,000000AC,false,Rx,0,2,00,F0,00,00,00,00,00,00,
4809130,000000D9,false,Rx,0,8,CD,FA,00,10,00,F0,7F,C0,
4809330,000000F3,false,Rx,0,8,E3,0A,00,FF,F0,C0,FF,FF,
4809864,00000206,false,Rx,0,8,23,2D,5F,FF,FF,FF,FF,FF,
4811538,00000112,false,Rx,0,8,1A,20,90,0E,A6,71,55,5D,
4811820,00000432,false,Rx,0,8,CC,E8,10,A3,66,FF,00,FF,
4814563,000001AE,false,Rx,0,2,F7,FF,00,00,00,00,00,00,
4815025,00000297,false,Rx,0,7,8F,E0,F0,E0,F2,92,EA,00,
4816538,000000EF,false,Rx,0,8,DE,FA,00,7D,21,FC,7C,FF,
4816745,00000100,false,Rx,0,8,35,F5,7F,C0,5D,49,87,70,
4817025,000001A1,false,Rx,0,5,E1,CA,00,00,8A,00,00,00,
4819521,00000199,false,Rx,0,6,FF,FF,38,7F,FF,3F,00,00,
4819728,0000019A,false,Rx,0,6,FF,FF,32,7F,FF,3F,00,00,
4819927,0000019F,false,Rx,0,6,FF,FF,0B,80,FF,2F,00,00,
4820126,00000254,false,Rx,0,8,FF,7F,FF,7F,FF,7F,FF,7F,
4820325,00000258,false,Rx,0,2,44,44,00,00,00,00,00,00,
4820527,00000302,false,Rx,0,7,FF,FF,D4,7F,FC,FF,FF,00,
4821629,00000112,false,Rx,0,8,1A,20,90,0E,A6,71,55,5D,
4824786,0000036F,false,Rx,0,5,48,F4,FE,FF,14,00,00,00,
4825641,00000197,false,Rx,0,4,05,03,0E,C0,00,00,00,00,
4826092,000000A9,false,Rx,0,8,10,78,00,90,F1,00,00,FF,
4826453,0000015F,false,Rx,0,8,77,FB,00,7D,00,EE,00,7D,
4826745,00000100,false,Rx,0,8,D2,F6,7F,C0,5D,49,87,70,
4828581,000000A5,false,Rx,0,8,DC,FB,FF,F7,7F,00,00,C1,
4828699,000000AC,false,Rx,0,2,00,F0,00,00,00,00,00,00,
4828906,000000D9,false,Rx,0,8,90,FB,00,10,00,F0,7F,C0,
4829187,000000F3,false,Rx,0,8,BE,0B,00,FF,F0,C0,FF,FF,
4829386,000002E8,false,Rx,0,8,C0,18,C5,FF,FF,F4,F0,A4,
4829838,000003FD,false,Rx,0,5,67,05,00,00,FF,00,00,00,
4830037,00000108,false,Rx,0,8,71,7D,FF,1F,48,F2,FF,FF,
4830318,00000212,false,Rx,0,8,43,F4,F9,FF,FF,FF,FF,FF,
4830518,00000163,false,Rx,0,8,FF,FF,F1,24,FF,FF,FF,FF,
4830805,00000173,false,Rx,0,8,E8,F6,00,0E,30,00,DE,10,
4831004,00000272,false,Rx,0,8,D4,F0,01,11,FF,FF,FF,FF,
4831285,000002DB,false,Rx,0,8,FF,FF,FF,FF,BF,FF,FF,FF,
4831484,000002F1,false,Rx,0,8,A2,0F,00,00,1B,DF,06,A0,
4831685,00000112,false,Rx,0,8,1A,20,90,0E,A6,71,55,5D,
4848428,000002BB,false,Rx,0,5,91,FC,C4,09,F2,00,00,00,
4848515,000002A1,false,Rx,0,5,80,58,02,00,F0,00,00,00,
4848633,000000EF,false,Rx,0,8,83,FB,00,7D,21,FC,7C,FF,
4848726,00000100,false,Rx,0,8,8F,F7,7F,C0,5D,49,87,70,
4848811,000001A1,false,Rx,0,5,88,CC,00,00,8A,00,00,00,
4848929,00000199,false,Rx,0,6,FF,FF,1A,7F,FF,3F,00,00,
4849015,0000019A,false,Rx,0,6,FF,FF,1E,7F,FF,3F,00,00,
4849100,0000019F,false,Rx,0,6,FF,FF,02,80,FF,2F,00,00,
4849185,00000254,false,Rx,0,8,FF,7F,FF,7F,FF,7F,FF,7F,
4849271,00000258,false,Rx,0,2,44,44,00,00,00,00,00,00,
4849356,00000112,false,Rx,0,8,1A,20,90,0E,A6,71,55,5D,
4849442,000007BD,false,Rx,0,8,00,00,00,40,FF,C4,01,08,
4849530,000007BE,false,Rx,0,8,0C,05,04,6A,00,00,00,00,
4849616,00000397,false,Rx,0,7,00,2A,00,66,0F,55,00,00,
4849701,0000015F,false,Rx,0,8,F9,FC,00,7D,00,EE,00,7D,
4849836,00000100,false,Rx,0,8,D3,F8,7F,C0,5D,49,87,70,
4849921,000000A5,false,Rx,0,8,52,FC,FF,F7,7F,00,00,C1,
4850007,000000AC,false,Rx,0,2,00,F0,00,00,00,00,00,00,
4850125,000000D9,false,Rx,0,8,1E,FC,00,10,00,F0,7F,C0,
4850210,000000F3,false,Rx,0,8,30,0C,00,FF,F0,C0,FF,FF,
4850296,00000206,false,Rx,0,8,C4,2E,5F,FF,FF,FF,FF,FF,
4850381,00000201,false,Rx,0,8,91,0E,91,0E,FF,FF,FF,FF,
4851569,00000112,false,Rx,0,8,1A,20,90,0E,A6,71,55,5D,
4854899,000002E7,false,Rx,0,8,80,46,04,A1,56,65,00,00,
4855668,00000197,false,Rx,0,4,8F,04,0E,C0,00,00,00,00,
4856119,000002B0,false,Rx,0,6,38,40,03,C9,FF,FF,00,00,
4856480,000000EF,false,Rx,0,8,C3,FC,00,7D,21,00,7D,FF,
4856771,00000100,false,Rx,0,8,8E,F9,7F,C0,5D,49,87,70,
4857051,000001A1,false,Rx,0,5,AF,CE,00,00,8A,00,00,00,
4859467,00000199,false,Rx,0,6,FF,FF,4C,7F,FF,3F,00,00,
4859756,0000019A,false,Rx,0,6,FF,FF,14,7F,FF,3F,00,00,
4859955,0000019F,false,Rx,0,6,FF,FF,07,80,FF,2F,00,00,
4860154,00000254,false,Rx,0,8,FF,7F,FF,7F,FF,7F,FF,7F,
4860271,00000258,false,Rx,0,2,44,44,00,00,00,00,00,00,
4860552,00000302,false,Rx,0,7,FF,FF,D4,7F,FC,FF,FF,00,
4861657,00000112,false,Rx,0,8,1A,20,90,0E,A6,71,55,5D,
4862108,000002F5,false,Rx,0,8,60,0F,7E,20,22,0A,06,10,
4862635,0000012F,false,Rx,0,8,F4,26,88,1D,F1,35,30,80,
4863411,000002A7,false,Rx,0,5,E6,F6,FE,FF,14,00,00,00,
4866486,0000015F,false,Rx,0,8,A4,FD,00,7D,00,EE,00,7D,
4866686,00000100,false,Rx,0,8,69,FA,7F,C0,5D,49,87,70,
4868530,000000A5,false,Rx,0,8,0F,FD,FF,F7,7F,00,00,C1,
4868648,000000AC,false,Rx,0,2,00,F0,00,00,00,00,00,00,
4868937,000000D9,false,Rx,0,8,43,FD,00,10,00,F0,7F,C0,
4869136,000000F3,false,Rx,0,8,6D,0D,00,FF,F0,C0,FF,FF,
4871550,00000112,false,Rx,0,8,1A,20,90,0E,A6,71,55,5D,
4872489,0000003C,false,Rx,0,8,FF,5F,00,00,00,00,FF,FF,
4876551,000000EF,false,Rx,0,8,9E,FD,00,7D,21,00,7D,FF,
4876839,00000100,false,Rx,0,8,34,FB,7F,C0,5D,49,87,70,
4877120,000001A1,false,Rx,0,5,C7,C1,00,00,8A,00,00,00,
4879536,00000199,false,Rx,0,6,FF,FF,2E,7F,FF,3F,00,00,
4879742,0000019A,false,Rx,0,6,FF,FF,3C,7F,FF,3F,00,00,
4879941,0000019F,false,Rx,0,6,FF,FF,FB,7F,FF,2F,00,00,
4880221,00000254,false,Rx,0,8,FF,7F,FF,7F,FF,7F,FF,7F,
4880337,00000258,false,Rx,0,2,44,44,00,00,00,00,00,00,
4881685,00000112,false,Rx,0,8,1A,20,90,0E,A6,71,55,5D,
4885663,00000197,false,Rx,0,4,00,05,0E,C0,00,00,00,00,
4886524,0000015F,false,Rx,0,8,43,FE,00,7D,00,EE,00,7D,
4886731,00000100,false,Rx,0,8,BA,FC,7F,C0,5D,49,87,70,
4888324,000000A5,false,Rx,0,8,E8,FE,FF,F7,7F,00,00,C1,
4888441,000000AC,false,Rx,0,2,00,F0,00,00,00,00,00,00,
4888641,000000D9,false,Rx,0,8,A4,FE,00,10,00,F0,7F,C0,
4888930,000000F3,false,Rx,0,8,8A,0E,00,FF,F0,C0,FF,FF,
4889870,00000206,false,Rx,0,8,C5,20,5F,FF,FF,FF,FF,FF,
4890803,000002A5,false,Rx,0,2,CE,FE,00,00,00,00,00,00,
4891661,00000112,false,Rx,0,8,1A,20,90,0E,A6,71,55,5D,
4893502,0000019B,false,Rx,0,8,F3,46,40,55,FD,FF,FF,FF,
4893956,000007BD,false,Rx,0,8,07,00,00,00,40,00,00,00,
4894237,000007BE,false,Rx,0,8,00,C0,FA,1C,12,00,00,00,
4896486,000000EF,false,Rx,0,8,79,FE,00,7D,21,00,7D,FF,
4896776,00000100,false,Rx,0,8,E7,FD,7F,C0,5D,49,87,70,
4897056,000001A1,false,Rx,0,5,E0,C3,00,00,8A,00,00,00,
4898080,0000032E,false,Rx,0,8,FF,FF,8F,6F,76,FF,FF,12,
4910820,000002F2,false,Rx,0,6,00,00,00,00,FF,FF,00,00,
4910906,0000019D,false,Rx,0,8,A3,98,F5,05,FF,FF,FF,FF,
4910992,000001B3,false,Rx,0,8,FC,12,00,F7,00,78,8A,BE,
4911077,000002C5,false,Rx,0,7,DB,F8,00,20,04,20,CA,00,
4911163,00000199,false,Rx,0,6,FF,FF,38,7F,FF,3F,00,00,
4911248,0000019A,false,Rx,0,6,FF,FF,3C,7F,FF,3F,00,00,
4911333,0000019F,false,Rx,0,6,FF,FF,EE,7F,FF,2F,00,00,
4911419,00000201,false,Rx,0,8,9E,0E,9E,0E,FF,FF,FF,FF,
4911539,00000254,false,Rx,0,8,FF,7F,FF,7F,FF,7F,FF,7F,
4911625,00000258,false,Rx,0,2,44,44,00,00,00,00,00,00,
4911710,00000302,false,Rx,0,7,FF,FF,D4,7F,FC,FF,FF,00,
4911803,00000112,false,Rx,0,8,1A,20,90,0E,A6,71,55,5D,
4911888,0000036E,false,Rx,0,5,87,F4,FE,FF,14,00,00,00,
4911974,00000362,false,Rx,0,7,C2,40,02,C2,40,02,EA,00,
4912059,0000015F,false,Rx,0,8,42,F0,00,7D,00,EE,00,7D,
4912145,00000100,false,Rx,0,8,00,FE,7F,C0,5D,49,87,70,
4912230,000002C4,false,Rx,0,8,00,00,FF,00,C8,64,FF,CF,
4912316,000000A5,false,Rx,0,8,E9,F0,FF,F7,7F,00,00,C1,
4912401,000000AC,false,Rx,0,2,00,F0,00,00,00,00,00,00,
4912486,000000D9,false,Rx,0,8,A5,F0,00,10,00,F0,7F,C0,
4912573,000000F3,false,Rx,0,8,8B,00,00,FF,F0,C0,FF,FF,
4912659,00000304,false,Rx,0,6,FF,FF,F9,39,FF,FF,00,00,
4912752,000003F9,false,Rx,0,8,EF,F9,80,E0,3F,38,C3,FF,
4912838,00000112,false,Rx,0,8,1A,20,90,0E,A6,71,55,5D,
4914509,000001AE,false,Rx,0,2,F7,FF,00,00,00,00,00,00,
4915613,00000197,false,Rx,0,4,8C,06,0E,C0,00,00,00,00,
4916554,000000EF,false,Rx,0,8,78,F0,00,7D,21,00,7D,FF,
4916842,00000100,false,Rx,0,8,01,F0,7F,C0,5D,49,87,70,
4917123,000001A1,false,Rx,0,5,89,C5,00,00,8A,00,00,00,
4919538,00000199,false,Rx,0,6,FF,FF,2E,7F,FF,3F,00,00,
4919745,0000019A,false,Rx,0,6,FF,FF,1E,7F,FF,3F,00,00,
4919944,0000019F,false,Rx,0,6,FF,FF,E8,7F,FF,2F,00,00,
4920143,00000254,false,Rx,0,8,FF,7F,FF,7F,FF,7F,FF,7F,
4920260,00000258,false,Rx,0,2,44,44,00,00,00,00,00,00,
4921690,00000112,false,Rx,0,8,1A,20,90,0E,A6,71,55,5D,
4926160,000000A9,false,Rx,0,8,10,78,00,90,F1,00,00,FF,
4926527,0000015F,false,Rx,0,8,1F,F1,00,7D,00,EE,00,7D,
4926735,00000100,false,Rx,0,8,5C,F1,7F,C0,5D,49,87,70,
4928488,000000A5,false,Rx,0,8,B4,F1,FF,F7,7F,00,00,C1,
4928687,000000AC,false,Rx,0,2,00,F0,00,00,00,00,00,00,
4928895,000000D9,false,Rx,0,8,F8,F1,00,10,00,F0,7F,C0,
4929094,000000F3,false,Rx,0,8,D6,01,00,FF,F0,C0,FF,FF,
4929374,000002ED,false,Rx,0,3,4C,07,02,00,00,00,00,00,
4929822,000003FD,false,Rx,0,5,DD,06,00,00,FF,00,00,00,
4930021,00000108,false,Rx,0,8,71,7D,FF,1F,48,F2,FF,FF,
4930301,00000201,false,Rx,0,8,A5,0E,A5,0E,FF,FF,FF,FF,
4930500,00000163,false,Rx,0,8,FF,FF,F1,24,FF,FF,FF,FF,
4930701,00000173,false,Rx,0,8,66,F1,00,0E,30,00,DE,10,
4930990,00000206,false,Rx,0,8,98,21,5F,FF,FF,FF,FF,FF,
4931189,000002E8,false,Rx,0,8,C0,18,C5,FF,FF,F4,F1,B9,
4931469,00000212,false,Rx,0,8,1E,F5,F9,FF,FF,FF,FF,FF,
4931669,00000112,false,Rx,0,8,1A,20,90,0E,A6,71,55,5D,
4931958,000002DB,false,Rx,0,8,FF,FF,FF,FF,BF,FF,FF,FF,
4932157,000002F1,false,Rx,0,8,A2,0F,00,00,1B,DF,06,A0,
4932437,000002FA,false,Rx,0,8,80,04,00,FF,FF,FF,FF,FF,
4932730,0000032B,false,Rx,0,8,FF,FF,FF,FF,FF,FF,00,FF,
4932930,00000331,false,Rx,0,8,FF,FF,FF,EF,7F,FE,F7,FF,
4933210,000003AD,false,Rx,0,8,00,F0,FF,FF,FF,FF,FF,FA,
4933410,00000301,false,Rx,0,7,FF,FF,D9,7F,FF,FF,CF,00,
4933611,000002BB,false,Rx,0,5,B7,F7,C4,09,F2,00,00,00,
4933736,000001F9,false,Rx,0,2,FD,FF,00,00,00,00,00,00,
4933853,000003E8,false,Rx,0,2,F1,FF,00,00,00,00,00,00,
4934133,000003E9,false,Rx,0,8,08,52,21,91,02,00,00,FE,
4936061,000002A1,false,Rx,0,5,80,58,02,00,F0,00,00,00,
4936504,000000EF,false,Rx,0,8,25,F1,00,7D,21,00,7D,FF,
4936792,00000100,false,Rx,0,8,BB,F2,7F,C0,5D,49,87,70,
4936992,000001A1,false,Rx,0,5,AE,C7,00,00,8A,00,00,00,
4939484,00000199,false,Rx,0,6,FF,FF,24,7F,FF,3F,00,00,
4939685,0000019A,false,Rx,0,6,FF,FF,14,7F,FF,3F,00,00,
4939892,0000019F,false,Rx,0,6,FF,FF,F6,7F,FF,2F,00,00,
4940172,00000254,false,Rx,0,8,FF,7F,FF,7F,FF,7F,FF,7F,
4940290,00000258,false,Rx,0,2,44,44,00,00,00,00,00,00,
4940487,00000302,false,Rx,0,7,FF,FF,D4,7F,FC,FF,FF,00,
4941615,00000112,false,Rx,0,8,1A,20,90,0E,A6,71,55,5D,
4942641,000001E1,false,Rx,0,6,A8,F8,00,FF,FF,FF,00,00,
4943255,000001D0,false,Rx,0,8,BE,F8,DF,FF,FF,FF,FF,FF,
4943454,000002A7,false,Rx,0,5,7B,F7,FE,FF,14,00,00,00,
4943657,000001B9,false,Rx,0,5,FF,FF,FF,14,FF,00,00,00,
4943945,000007BD,false,Rx,0,8,00,00,00,40,FF,C8,01,08,
4944226,000007BE,false,Rx,0,8,05,00,00,00,00,00,00,E0,
4945659,00000197,false,Rx,0,4,03,07,0E,C0,00,00,00,00,
4946601,0000015F,false,Rx,0,8,F8,F2,00,7D,00,EE,00,7D,
4946809,00000100,false,Rx,0,8,E6,F3,7F,C0,5D,49,87,70,
4948480,000000A5,false,Rx,0,8,53,F2,FF,F7,7F,00,00,C1,
4948598,000000AC,false,Rx,0,2,00,F0,00,00,00,00,00,00,
4948887,000000D9,false,Rx,0,8,1F,F2,00,10,00,F0,7F,C0,
4949086,000000F3,false,Rx,0,8,31,02,00,FF,F0,C0,FF,FF,
4949875,00000201,false,Rx,0,8,AA,0E,AA,0E,FF,FF,FF,FF,
4951551,00000112,false,Rx,0,8,1A,20,90,0E,A6,71,55,5D,
4951757,00000239,false,Rx,0,8,3D,51,1D,B2,01,4B,FF,FF,
4956061,000002B0,false,Rx,0,6,39,40,03,C9,FF,FF,00,00,
4956504,000000EF,false,Rx,0,8,0C,F2,00,7D,21,FC,7C,FF,
4956705,00000100,false,Rx,0,8,68,F4,7F,C0,5D,49,87,70,
4956993,000001A1,false,Rx,0,5,5B,C9,00,00,8A,00,00,00,
4959485,00000199,false,Rx,0,6,FF,FF,2E,7F,FF,3F,00,00,
4959685,0000019A,false,Rx,0,6,FF,FF,1E,7F,FF,3F,00,00,
4959892,0000019F,false,Rx,0,6,FF,FF,FB,7F,FF,2F,00,00,
4960172,00000254,false,Rx,0,8,FF,7F,FF,7F,FF,7F,FF,7F,
4960290,00000258,false,Rx,0,2,44,44,00,00,00,00,00,00,
4978067,00000314,false,Rx,0,3,50,00,FF,00,00,00,00,00,
4978153,00000112,false,Rx,0,8,1A,20,90,0E,A6,71,55,5D,
4978239,000002F5,false,Rx,0,8,60,0F,7E,20,22,0A,06,10,
4978324,0000012F,false,Rx,0,8,A9,27,88,1D,F1,35,30,80,
4978410,000003F9,false,Rx,0,8,87,FA,80,E0,3F,39,C3,FF,
4978495,0000015F,false,Rx,0,8,A5,F3,00,7D,00,EE,00,7D,
4978583,00000100,false,Rx,0,8,35,F5,7F,C0,5D,49,87,70,
4978668,000000A5,false,Rx,0,8,0E,F3,FF,F7,7F,00,00,C1,
4978762,000000AC,false,Rx,0,2,00,F0,00,00,00,00,00,00,
4978847,000000D9,false,Rx,0,8,42,F3,00,10,00,F0,7F,C0,
4978933,000000F3,false,Rx,0,8,6C,03,00,FF,F0,C0,FF,FF,
4979018,00000206,false,Rx,0,8,7F,22,5F,FF,FF,FF,FF,FF,
4979104,00000349,false,Rx,0,5,FE,FF,12,1B,00,00,00,00,
4979189,00000112,false,Rx,0,8,1A,20,90,0E,A6,71,55,5D,
4979275,000000C0,false,Rx,0,2,F1,40,00,00,00,00,00,00,
4979360,0000003C,false,Rx,0,8,FF,5F,00,00,00,00,FF,FF,
4979477,00000197,false,Rx,0,4,85,08,0E,C0,00,00,00,00,
4979564,000000EF,false,Rx,0,8,9F,F3,00,7D,21,00,7D,FF,
4979682,00000100,false,Rx,0,8,D2,F6,7F,C0,5D,49,87,70,
4979776,000001A1,false,Rx,0,5,7C,CB,00,00,8A,00,00,00,
4979893,00000199,false,Rx,0,6,FF,FF,2E,7F,FF,3F,00,00,
4979979,0000019A,false,Rx,0,6,FF,FF,14,7F,FF,3F,00,00,
4980064,0000019F,false,Rx,0,6,FF,FF,EE,7F,FF,2F,00,00,
4980182,00000254,false,Rx,0,8,FF,7F,FF,7F,FF,7F,FF,7F,
4980300,00000258,false,Rx,0,2,44,44,00,00,00,00,00,00,
4980499,00000302,false,Rx,0,7,FF,FF,D4,7F,FC,FF,FF,00,
4981602,00000112,false,Rx,0,8,1A,20,90,0E,A6,71,55,5D,
4984676,0000036F,false,Rx,0,5,D5,F5,FE,FF,14,00,00,00,
4986355,00000100,false,Rx,0,8,8F,F7,7F,C0,5D,49,87,70,
4986557,0000015F,false,Rx,0,8,2B,F4,00,7D,00,EE,00,7D,
4988317,000000A5,false,Rx,0,8,80,F4,FF,F7,7F,00,00,C1,
4988435,000000AC,false,Rx,0,2,00,F0,00,00,00,00,00,00,
4988637,000000D9,false,Rx,0,8,CC,F4,00,10,00,F0,7F,C0,
4988926,000000F3,false,Rx,0,8,E2,04,00,FF,F0,C0,FF,FF,
4990764,000003B4,false,Rx,0,8,0C,FF,71,F0,BA,FF,01,00,
4991615,00000112,false,Rx,0,8,1A,20,90,0E,A6,71,55,5D,
4993874,000007BD,false,Rx,0,8,07,00,00,00,40,00,00,00,
4994155,000007BE,false,Rx,0,8,0B,00,00,00,00,00,00,00,
4996485,000000EF,false,Rx,0,8,11,F4,00,7D,21,00,7D,FF,
4996775,00000100,false,Rx,0,8,D3,F8,7F,C0,5D,49,87,70,
4997056,000001A1,false,Rx,0,5,15,CD,00,00,8A,00,00,00,
4997582,000003C0,false,Rx,0,8,DD,DD,DD,FD,FF,FF,FF,FF,
4998684,000002F2,false,Rx,0,6,00,00,00,00,FF,FF,00,00,
4998892,000001B3,false,Rx,0,8,FC,12,00,F8,00,78,8A,BF,
4999090,000002C5,false,Rx,0,7,9D,F9,00,20,04,20,CA,00,
4999616,00000199,false,Rx,0,6,FF,FF,42,7F,FF,3F,00,00,
4999821,0000019A,false,Rx,0,6,FF,FF,14,7F,FF,3F,00,00,
5000019,0000019F,false,Rx,0,6,FF,FF,11,80,FF,2F,00,00,
5000300,00000201,false,Rx,0,8,B5,0E,B5,0E,FF,FF,FF,FF,
5000499,00000254,false,Rx,0,8,FF,7F,FF,7F,FF,7F,FF,7F,
5000618,00000258,false,Rx,0,2,44,44,00,00,00,00,00,00,
5001673,00000112,false,Rx,0,8,1A,20,90,0E,A6,71,55,5D,
5001881,00000431,false,Rx,0,8,CA,FF,05,02,68,26,F3,4B,
5005616,00000197,false,Rx,0,4,0A,09,0E,C0,00,00,00,00,
5006557,0000015F,false,Rx,0,8,76,F5,00,7D,00,EE,00,7D,
5006763,00000100,false,Rx,0,8,8E,F9,7F,C0,5D,49,87,70,
5008434,000002C4,false,Rx,0,8,00,00,FF,00,C8,64,FF,CF,
5008724,000000A5,false,Rx,0,8,DD,F5,FF,F7,7F,00,00,C1,
5008842,000000AC,false,Rx,0,2,00,F0,00,00,00,00,00,00,
5009122,000000D9,false,Rx,0,8,91,F5,00,10,00,F0,7F,C0,
5009320,000000F3,false,Rx,0,8,BF,05,00,FF,F0,C0,FF,FF,
5009855,00000206,false,Rx,0,8,22,23,5F,FF,FF,FF,FF,FF,
5011528,00000112,false,Rx,0,8,1A,20,90,0E,A6,71,55,5D,
5011815,00000432,false,Rx,0,8,CC,E8,10,A3,66,FF,00,FF,
5014555,000001AE,false,Rx,0,2,F7,FF,00,00,00,00,00,00,
5015017,00000297,false,Rx,0,7,C9,E1,F0,E0,F2,92,EA,00,
5016530,000000EF,false,Rx,0,8,4C,F5,00,7D,21,00,7D,FF,
5016737,00000100,false,Rx,0,8,69,FA,7F,C0,5D,49,87,70,
5017017,000001A1,false,Rx,0,5,5A,C0,00,00,8A,00,00,00,
5018201,00000459,false,Rx,0,8,A8,74,C1,65,8F,22,43,8A,
5018480,000002F9,false,Rx,0,7,00,00,00,08,7C,C0,F3,00,
5019501,00000199,false,Rx,0,6,FF,FF,2E,7F,FF,3F,00,00,
5019702,0000019A,false,Rx,0,6,FF,FF,28,7F,FF,3F,00,00,
5019908,0000019F,false,Rx,0,6,FF,FF,07,80,FF,2F,00,00,
5020189,00000254,false,Rx,0,8,FF,7F,FF,7F,FF,7F,FF,7F,
5020307,00000258,false,Rx,0,2,44,44,00,00,00,00,00,00,
5020506,00000302,false,Rx,0,7,FF,FF,D4,7F,FC,FF,FF,00,
5021693,00000112,false,Rx,0,8,1A,20,90,0E,A6,71,55,5D,
5023538,000002A7,false,Rx,0,5,13,F8,FE,FF,14,00,00,00,
5026122,000000A9,false,Rx,0,8,20,78,00,90,F1,00,00,FF,
5026483,0000015F,false,Rx,0,8,91,F6,00,7D,00,EE,00,7D,
5026774,00000100,false,Rx,0,8,34,FB,7F,C0,5D,49,87,70,
5042172,000000A5,false,Rx,0,8,3A,F6,FF,F7,7F,00,00,C1,
5042259,000000AC,false,Rx,0,2,00,F0,00,00,00,00,00,00,
5042344,000000D9,false,Rx,0,8,76,F6,00,10,00,F0,7F,C0,
5042429,000000F3,false,Rx,0,8,58,06,00,FF,F0,C0,FF,FF,
5042515,000002E8,false,Rx,0,8,C0,18,C5,FF,FF,F4,F2,9E,
5042601,000003FD,false,Rx,0,5,40,07,00,00,FF,00,00,00,
5042686,00000108,false,Rx,0,8,71,7D,FF,1F,48,F2,FF,FF,
5042780,00000212,false,Rx,0,8,F9,F6,F9,FF,FF,FF,FF,FF,
5042866,00000163,false,Rx,0,8,FF,FF,F1,24,FF,FF,FF,FF,
5042951,00000173,false,Rx,0,8,0E,FB,00,0E,30,00,DE,10,
5043037,00000272,false,Rx,0,8,89,F1,01,11,FF,FF,FF,FF,
5043122,000002DB,false,Rx,0,8,FF,FF,FF,FF,BF,FF,FF,FF,
5043208,000002F1,false,Rx,0,8,A2,0F,00,00,1B,DF,06,A0,
5043293,00000112,false,Rx,0,8,1A,20,90,0E,A6,71,55,5D,
5043379,000001FA,false,Rx,0,8,45,65,45,F0,40,40,3F,40,
5043464,000002BB,false,Rx,0,5,64,F2,C4,09,F2,00,00,00,
5043551,00000197,false,Rx,0,4,86,0A,0E,C0,00,00,00,00,
5043637,000002A1,false,Rx,0,5,80,58,02,00,F0,00,00,00,
5043730,000000EF,false,Rx,0,8,65,F6,00,7D,21,FC,7C,FF,
5043848,00000100,false,Rx,0,8,BA,FC,7F,C0,5D,49,87,70,
5043933,000001A1,false,Rx,0,5,7D,C2,00,00,8A,00,00,00,
5044019,00000199,false,Rx,0,6,FF,FF,2E,7F,FF,3F,00,00,
5044104,0000019A,false,Rx,0,6,FF,FF,28,7F,FF,3F,00,00,
5044189,0000019F,false,Rx,0,6,FF,FF,04,80,FF,2F,00,00,
5044275,00000254,false,Rx,0,8,FF,7F,FF,7F,FF,7F,FF,7F,
5044360,00000258,false,Rx,0,2,44,44,00,00,00,00,00,00,
5044445,00000112,false,Rx,0,8,1A,20,90,0E,A6,71,55,5D,
5044533,00000363,false,Rx,0,8,ED,AE,7E,08,FF,FF,FF,FF,
5044618,000007BD,false,Rx,0,8,00,00,00,40,FF,CC,01,08,
5046548,0000015F,false,Rx,0,8,CC,F7,00,7D,00,EE,00,7D,
5046837,00000100,false,Rx,0,8,E7,FD,7F,C0,5D,49,87,70,
5048264,000000A5,false,Rx,0,8,67,F7,FF,F7,7F,00,00,C1,
5048382,000000AC,false,Rx,0,2,00,F0,00,00,00,00,00,00,
5048666,000000D9,false,Rx,0,8,2B,F7,00,10,00,F0,7F,C0,
5048872,000000F3,false,Rx,0,8,05,07,00,FF,F0,C0,FF,FF,
5049839,00000206,false,Rx,0,8,AC,24,5F,FF,FF,FF,FF,FF,
5050120,00000201,false,Rx,0,8,C1,0E,C1,0E,FF,FF,FF,FF,
5051550,00000112,false,Rx,0,8,1A,20,90,0E,A6,71,55,5D,
5056026,000002B0,false,Rx,0,6,39,40,03,C9,FF,FF,00,00,
5056469,000000EF,false,Rx,0,8,38,F7,00,7D,21,FC,7C,FF,
5056759,00000100,false,Rx,0,8,00,FE,7F,C0,5D,49,87,70,
5057040,000001A1,false,Rx,0,5,14,C4,00,00,8A,00,00,00,
5059537,00000199,false,Rx,0,6,FF,FF,38,7F,FF,3F,00,00,
5059745,0000019A,false,Rx,0,6,FF,FF,28,7F,FF,3F,00,00,
5059944,0000019F,false,Rx,0,6,FF,FF,00,80,FF,2F,00,00,
5060142,00000254,false,Rx,0,8,FF,7F,FF,7F,FF,7F,FF,7F,
5060259,00000258,false,Rx,0,2,44,44,00,00,00,00,00,00,
5060543,00000302,false,Rx,0,7,FF,FF,D4,7F,FC,FF,FF,00,
5061647,00000112,false,Rx,0,8,1A,20,90,0E,A6,71,55,5D,
5062179,000002F5,false,Rx,0,8,60,0F,7E,20,22,0A,06,10,
5062623,0000012F,false,Rx,0,8,F5,28,88,1D,F1,35,30,80,
5063400,0000036E,false,Rx,0,5,1A,F5,FE,FF,14,00,00,00,
5065651,00000197,false,Rx,0,4,09,0B,0E,C0,00,00,00,00,
5066020,000003D2,false,Rx,0,2,F3,FF,00,00,00,00,00,00,
5066462,0000015F,false,Rx,0,8,90,F8,00,7D,00,EE,00,7D,
5066753,00000100,false,Rx,0,8,01,F0,7F,C0,5D,49,87,70,
5068671,000000A5,false,Rx,0,8,3B,F8,FF,F7,7F,00,00,C1,
5068790,000000AC,false,Rx,0,2,00,F0,00,00,00,00,00,00,
5068989,000000D9,false,Rx,0,8,77,F8,00,10,00,F0,7F,C0,
5069269,000000F3,false,Rx,0,8,59,08,00,FF,F0,C0,FF,FF,
5071684,00000112,false,Rx,0,8,1A,20,90,0E,A6,71,55,5D,
5072460,0000003C,false,Rx,0,8,FF,5F,00,00,00,00,FF,FF,
5073157,00000300,false,Rx,0,8,18,2A,58,86,61,18,86,65,
5076558,000000EF,false,Rx,0,8,AA,F8,00,7D,21,00,7D,FF,
5076763,00000100,false,Rx,0,8,5C,F1,7F,C0,5D,49,87,70,
5077125,000001A1,false,Rx,0,5,33,C6,00,00,8A,00,00,00,
5079544,00000199,false,Rx,0,6,FF,FF,2E,7F,FF,3F,00,00,
5079750,0000019A,false,Rx,0,6,FF,FF,1E,7F,FF,3F,00,00,
5079949,0000019F,false,Rx,0,6,FF,FF,EE,7F,FF,2F,00,00,
5080149,00000254,false,Rx,0,8,FF,7F,FF,7F,FF,7F,FF,7F,
5080266,00000258,false,Rx,0,2,44,44,00,00,00,00,00,00,
5081615,00000112,false,Rx,0,8,1A,20,90,0E,A6,71,55,5D,
5086496,0000015F,false,Rx,0,8,CD,F9,00,7D,00,EE,00,7D,
5086697,00000100,false,Rx,0,8,BB,F2,7F,C0,5D,49,87,70,
5088300,000000A5,false,Rx,0,8,66,F9,FF,F7,7F,00,00,C1,
5088417,000000AC,false,Rx,0,2,00,F0,00,00,00,00,00,00,
5088699,000000D9,false,Rx,0,8,2A,F9,00,10,00,F0,7F,C0,
5088907,000000F3,false,Rx,0,8,04,09,00,FF,F0,C0,FF,FF,
5089847,00000206,false,Rx,0,8,F1,25,5F,FF,FF,FF,FF,FF,
5090698,000002A5,false,Rx,0,2,CE,FE,00,00,00,00,00,00,
5091641,00000112,false,Rx,0,8,1A,20,90,0E,A6,71,55,5D,
5092092,00000348,false,Rx,0,8,B7,9D,0A,7F,FE,FA,59,3A,
5106263,0000019B,false,Rx,0,8,AE,47,40,55,FD,FF,FF,FF,
5106837,000007BD,false,Rx,0,8,07,00,00,00,40,00,00,00,
5106923,00000197,false,Rx,0,4,83,0C,0E,C0,00,00,00,00,
5107008,000000EF,false,Rx,0,8,F7,F9,00,7D,21,00,7D,FF,
5107093,00000100,false,Rx,0,8,E6,F3,7F,C0,5D,49,87,70,
5107179,000001A1,false,Rx,0,5,C6,C8,00,00,8A,00,00,00,
5107264,00000200,false,Rx,0,8,00,00,79,00,3F,14,FA,FF,
5107350,00000246,false,Rx,0,5,3F,FB,00,FF,FF,00,00,00,
5107435,00000299,false,Rx,0,6,FF,FF,FF,FF,FF,00,00,00,
5107524,000002F2,false,Rx,0,6,00,00,00,00,FF,FF,00,00,
5107610,000001B3,false,Rx,0,8,FC,12,00,F9,00,78,8A,C0,
5107695,000002C5,false,Rx,0,7,57,FA,00,20,04,20,CA,00,
5107789,00000362,false,Rx,0,7,C2,40,02,C2,40,02,EA,00,
5107874,00000199,false,Rx,0,6,FF,FF,38,7F,FF,3F,00,00,
5107960,0000019A,false,Rx,0,6,FF,FF,1E,7F,FF,3F,00,00,
5108045,0000019F,false,Rx,0,6,FF,FF,F2,7F,FF,2F,00,00,
5108130,00000201,false,Rx,0,8,CD,0E,CD,0E,FF,FF,FF,FF,
5108216,00000254,false,Rx,0,8,FF,7F,FF,7F,FF,7F,FF,7F,
5108301,00000258,false,Rx,0,2,44,44,00,00,00,00,00,00,
5108386,00000302,false,Rx,0,7,FF,FF,D4,7F,FC,FF,FF,00,
5108505,00000112,false,Rx,0,8,1A,20,90,0E,A6,71,55,5D,
5108592,000002A7,false,Rx,0,5,8E,F9,FE,FF,14,00,00,00,
5108710,0000015F,false,Rx,0,8,2A,FA,00,7D,00,EE,00,7D,
5108835,00000100,false,Rx,0,8,68,F4,7F,C0,5D,49,87,70,
5108920,000002C4,false,Rx,0,8,00,00,FF,00,C8,64,FF,CF,
5109006,000000A5,false,Rx,0,8,81,FA,FF,F7,7F,00,00,C1,
5109124,000000AC,false,Rx,0,2,00,F0,00,00,00,00,00,00,
5109209,000000D9,false,Rx,0,8,CD,FA,00,10,00,F0,7F,C0,
5109327,000000F3,false,Rx,0,8,E3,0A,00,FF,F0,C0,FF,FF,
5109534,00000304,false,Rx,0,6,FF,FF,F9,39,FF,FF,00,00,
5110896,000001EE,false,Rx,0,2,00,FC,00,00,00,00,00,00,
5111665,00000112,false,Rx,0,8,1A,20,90,0E,A6,71,55,5D,
5113508,0000043D,false,Rx,0,8,0A,FE,EB,FF,1E,A7,00,F0,
5114530,000001AE,false,Rx,0,2,F7,FF,00,00,00,00,00,00,
5116538,000000EF,false,Rx,0,8,10,FA,00,7D,21,00,7D,FF,
5116825,00000100,false,Rx,0,8,35,F5,7F,C0,5D,49,87,70,
5117105,000001A1,false,Rx,0,5,E1,CA,00,00,8A,00,00,00,
5119518,00000199,false,Rx,0,6,FF,FF,2E,7F,FF,3F,00,00,
5119724,0000019A,false,Rx,0,6,FF,FF,1E,7F,FF,3F,00,00,
5119923,0000019F,false,Rx,0,6,FF,FF,09,80,FF,2F,00,00,
5120122,00000254,false,Rx,0,8,FF,7F,FF,7F,FF,7F,FF,7F,
5120321,00000258,false,Rx,0,2,44,44,00,00,00,00,00,00,
5120521,00000239,false,Rx,0,8,3D,52,1D,B2,01,4B,FF,FF,
5120890,00000314,false,Rx,0,3,50,00,FF,00,00,00,00,00,
5121659,00000112,false,Rx,0,8,1A,20,90,0E,A6,71,55,5D,
5125638,00000197,false,Rx,0,4,0C,0D,0E,C0,00,00,00,00,
5126088,000000A9,false,Rx,0,8,20,78,00,90,F1,00,00,FF,
5126533,0000015F,false,Rx,0,8,77,FB,00,7D,00,EE,00,7D,
5126820,00000100,false,Rx,0,8,D2,F6,7F,C0,5D,49,87,70,
5128492,000000A5,false,Rx,0,8,DC,FB,FF,F7,7F,00,00,C1,
5128692,000000AC,false,Rx,0,2,00,F0,00,00,00,00,00,00,
5128900,000000D9,false,Rx,0,8,90,FB,00,10,00,F0,7F,C0,
5129180,000000F3,false,Rx,0,8,BE,0B,00,FF,F0,C0,FF,FF,
5129379,000002E8,false,Rx,0,8,C0,18,C5,FF,FF,F4,F3,83,
5129832,000003FD,false,Rx,0,5,28,08,00,00,FF,00,00,00,
5130030,00000108,false,Rx,0,8,71,7D,FF,1F,48,F2,FF,FF,
5130311,00000206,false,Rx,0,8,16,26,5F,FF,FF,FF,FF,FF,
5130510,00000163,false,Rx,0,8,FF,FF,F1,24,FF,FF,FF,FF,
5130799,00000173,false,Rx,0,8,E8,F6,00,0E,30,00,DE,10,
5130998,00000212,false,Rx,0,8,A4,F7,F9,FF,FF,FF,FF,FF,
5131279,000002DB,false,Rx,0,8,FF,FF,FF,FF,BF,FF,FF,FF,
5131478,000002F1,false,Rx,0,8,A2,0F,00,00,1B,DF,06,A0,
5131769,00000112,false,Rx,0,8,1A,20,90,0E,A6,71,55,5D,
5131968,0000032B,false,Rx,0,8,FF,FF,FF,FF,FF,FF,00,FF,
5132249,00000331,false,Rx,0,8,FF,FF,FF,EF,7F,FE,F7,FF,
5132448,000003E9,false,Rx,0,8,08,52,21,91,02,00,00,FE,
5133388,00000301,false,Rx,0,7,FF,FF,D9,7F,FF,FF,CF,00,
5133588,000002BB,false,Rx,0,5,91,FC,C4,09,F2,00,00,00,
5136090,000002A1,false,Rx,0,5,80,58,02,00,F0,00,00,00,
5136289,0000043C,false,Rx,0,8,FE,FE,FF,FF,FF,FF,FF,FF,
5136572,000000EF,false,Rx,0,8,4D,FB,00,7D,21,00,7D,FF,
5136778,00000100,false,Rx,0,8,8F,F7,7F,C0,5D,49,87,70,
5137058,000001A1,false,Rx,0,5,88,CC,00,00,8A,00,00,00,
5139554,00000199,false,Rx,0,6,FF,FF,42,7F,FF,3F,00,00,
5139761,0000019A,false,Rx,0,6,FF,FF,28,7F,FF,3F,00,00,
5139961,0000019F,false,Rx,0,6,FF,FF,03,80,FF,2F,00,00,
5140160,00000254,false,Rx,0,8,FF,7F,FF,7F,FF,7F,FF,7F,
5140277,00000258,false,Rx,0,2,44,44,00,00,00,00,00,00,
5140564,00000302,false,Rx,0,7,FF,FF,D4,7F,FC,FF,FF,00,
5141678,00000112,false,Rx,0,8,1A,20,90,0E,A6,71,55,5D,
5142619,000001E1,false,Rx,0,6,C2,F9,00,FF,FF,FF,00,00,
5143892,000007BD,false,Rx,0,8,00,00,00,40,FF,C0,01,08,
5144172,000007BE,false,Rx,0,8,05,00,00,00,00,00,00,E0,
5144698,0000036F,false,Rx,0,5,6F,F6,FE,FF,14,00,00,00,
5146573,0000015F,false,Rx,0,8,F9,FC,00,7D,00,EE,00,7D,
5146861,00000100,false,Rx,0,8,D3,F8,7F,C0,5D,49,87,70,
5148534,000000A5,false,Rx,0,8,52,FC,FF,F7,7F,00,00,C1,
5148651,000000AC,false,Rx,0,2,00,F0,00,00,00,00,00,00,
5148858,000000D9,false,Rx,0,8,1E,FC,00,10,00,F0,7F,C0,
5149138,000000F3,false,Rx,0,8,30,0C,00,FF,F0,C0,FF,FF,
5149851,00000201,false,Rx,0,8,D9,0E,D9,0E,FF,FF,FF,FF,
5151606,00000112,false,Rx,0,8,1A,20,90,0E,A6,71,55,5D,
5155665,00000197,false,Rx,0,4,80,0E,0E,C0,00,00,00,00,
5156035,000002B0,false,Rx,0,6,39,40,03,C9,FF,FF,00,00,
5172626,000000EF,false,Rx,0,8,C3,FC,00,7D,21,00,7D,FF,
5172712,00000100,false,Rx,0,8,8E,F9,7F,C0,5D,49,87,70,
5172805,000001A1,false,Rx,0,5,AF,CE,00,00,8A,00,00,00,
5172890,00000199,false,Rx,0,6,FF,FF,2E,7F,FF,3F,00,00,
5172976,0000019A,false,Rx,0,6,FF,FF,0A,7F,FF,3F,00,00,
5173061,0000019F,false,Rx,0,6,FF,FF,EB,7F,FF,2F,00,00,
5173146,00000254,false,Rx,0,8,FF,7F,FF,7F,FF,7F,FF,7F,
5173232,00000258,false,Rx,0,2,44,44,00,00,00,00,00,00,
5173317,00000112,false,Rx,0,8,1A,20,90,0E,A6,71,55,5D,
5173403,00000239,false,Rx,0,8,3D,52,1D,B2,01,4B,FF,FF,
5173488,000002F5,false,Rx,0,8,60,0F,7E,20,22,0A,06,10,
5173575,0000012F,false,Rx,0,8,A8,29,88,1D,F1,35,30,80,
5173661,0000015F,false,Rx,0,8,A4,FD,00,7D,00,EE,00,7D,
5173780,00000100,false,Rx,0,8,69,FA,7F,C0,5D,49,87,70,
5173865,000000A5,false,Rx,0,8,0F,FD,FF,F7,7F,00,00,C1,
5173951,000000AC,false,Rx,0,2,00,F0,00,00,00,00,00,00,
5174036,000000D9,false,Rx,0,8,43,FD,00,10,00,F0,7F,C0,
5174122,000000F3,false,Rx,0,8,6D,0D,00,FF,F0,C0,FF,FF,
5174207,00000206,false,Rx,0,8,4B,27,5F,FF,FF,FF,FF,FF,
5174293,00000540,false,Rx,0,8,00,00,00,00,FF,3B,FF,40,
5174378,00000349,false,Rx,0,5,FE,FF,12,1B,00,00,00,00,
5174463,00000112,false,Rx,0,8,1A,20,90,0E,A6,71,55,5D,
5174552,000000C0,false,Rx,0,2,F2,40,00,00,00,00,00,00,
5174637,0000003C,false,Rx,0,8,FF,5F,00,00,00,00,FF,FF,
5174730,00000560,false,Rx,0,8,00,00,00,00,FE,00,00,60,
5176565,000000EF,false,Rx,0,8,9E,FD,00,7D,21,00,7D,FF,
5176853,00000100,false,Rx,0,8,34,FB,7F,C0,5D,49,87,70,
5177132,000001A1,false,Rx,0,5,C7,C1,00,00,8A,00,00,00,
5179552,00000199,false,Rx,0,6,FF,FF,38,7F,FF,3F,00,00,
5179758,0000019A,false,Rx,0,6,FF,FF,3C,7F,FF,3F,00,00,
5179957,0000019F,false,Rx,0,6,FF,FF,07,80,FF,2F,00,00,
5180157,00000201,false,Rx,0,8,E0,0E,E0,0E,FF,FF,FF,FF,
5180437,00000254,false,Rx,0,8,FF,7F,FF,7F,FF,7F,FF,7F,
5180557,00000258,false,Rx,0,2,44,44,00,00,00,00,00,00,
5180763,00000302,false,Rx,0,7,FF,FF,D4,7F,FC,FF,FF,00,
5181615,00000112,false,Rx,0,8,1A,20,90,0E,A6,71,55,5D,
5183378,000002A7,false,Rx,0,5,34,FA,FE,FF,14,00,00,00,
5185629,00000197,false,Rx,0,4,89,00,0E,C0,00,00,00,00,
5186485,0000015F,false,Rx,0,8,43,FE,00,7D,00,EE,00,7D,
5186776,00000100,false,Rx,0,8,BA,FC,7F,C0,5D,49,87,70,
5188285,000000A5,false,Rx,0,8,E8,FE,FF,F7,7F,00,00,C1,
5188403,000000AC,false,Rx,0,2,00,F0,00,00,00,00,00,00,
5188685,000000D9,false,Rx,0,8,A4,FE,00,10,00,F0,7F,C0,
5188892,000000F3,false,Rx,0,8,8A,0E,00,FF,F0,C0,FF,FF,
5190810,00000337,false,Rx,0,2,FF,FF,00,00,00,00,00,00,
5191090,000003B4,false,Rx,0,8,0C,FF,71,F0,BA,FF,01,00,
5191615,00000112,false,Rx,0,8,1A,20,90,0E,A6,71,55,5D,
5193878,000007BD,false,Rx,0,8,01,2D,55,7F,49,5A,5A,00,
5194159,000007BE,false,Rx,0,8,0C,05,04,6A,00,00,00,00,
5195507,00000510,false,Rx,0,8,40,10,20,00,00,00,00,00,
5196533,000000EF,false,Rx,0,8,B7,FE,00,7D,21,FC,7C,FF,
5196740,00000100,false,Rx,0,8,E7,FD,7F,C0,5D,49,87,70,
5197020,000001A1,false,Rx,0,5,E0,C3,00,00,8A,00,00,00,
5198611,000002F2,false,Rx,0,6,00,00,00,00,FF,FF,00,00,
5198900,0000019D,false,Rx,0,8,A3,98,F5,05,FF,FF,FF,FF,
5199099,000001B3,false,Rx,0,8,FC,12,00,FA,00,78,8A,C1,
5199380,000002C5,false,Rx,0,7,11,FB,00,20,04,20,CA,00,
5199578,00000199,false,Rx,0,6,FF,FF,42,7F,FF,3F,00,00,
5199784,0000019A,false,Rx,0,6,FF,FF,32,7F,FF,3F,00,00,
5199983,0000019F,false,Rx,0,6,FF,FF,07,80,FF,2F,00,00,
5200263,00000201,false,Rx,0,8,E5,0E,E5,0E,FF,FF,FF,FF,
5200461,00000254,false,Rx,0,8,FF,7F,FF,7F,FF,7F,FF,7F,
5200580,00000258,false,Rx,0,2,44,44,00,00,00,00,00,00,
5200697,000002CA,false,Rx,0,2,68,69,00,00,00,00,00,00,
5200904,000002F7,false,Rx,0,6,03,E4,8B,13,22,F2,00,00,
5201674,00000112,false,Rx,0,8,1A,20,90,0E,A6,71,55,5D,
5201882,00000431,false,Rx,0,8,CA,FF,05,02,68,26,F3,4B,
5206546,0000015F,false,Rx,0,8,42,F0,00,7D,00,EE,00,7D,
5206752,00000100,false,Rx,0,8,00,FE,7F,C0,5D,49,87,70,
5208506,000002C4,false,Rx,0,8,00,00,FF,00,C8,64,FF,CF,
5208708,000000A5,false,Rx,0,8,E9,F0,FF,F7,7F,00,00,C1,
5208833,000000AC,false,Rx,0,2,00,F0,00,00,00,00,00,00,
5209126,000000D9,false,Rx,0,8,A5,F0,00,10,00,F0,7F,C0,
5209325,000000F3,false,Rx,0,8,8B,00,00,FF,F0,C0,FF,FF,
5209860,00000206,false,Rx,0,8,17,28,5F,FF,FF,FF,FF,FF,
5210710,000002A6,false,Rx,0,2,00,F4,00,00,00,00,00,00,
5211649,00000112,false,Rx,0,8,1A,20,90,0E,A6,71,55,5D,
5211856,00000432,false,Rx,0,8,CC,E8,10,A3,66,FF,00,FF,
5214513,000001AE,false,Rx,0,2,F7,FF,00,00,00,00,00,00,
5214977,00000297,false,Rx,0,7,03,E2,F0,E0,F2,92,EA,00,
5215665,00000197,false,Rx,0,4,06,01,0E,C0,00,00,00,00,
5216527,000000EF,false,Rx,0,8,78,F0,00,7D,21,00,7D,FF,
5216734,00000100,false,Rx,0,8,01,F0,7F,C0,5D,49,87,70,
5217013,000001A1,false,Rx,0,5,89,C5,00,00,8A,00,00,00,
5219508,00000199,false,Rx,0,6,FF,FF,4C,7F,FF,3F,00,00,
5219708,0000019A,false,Rx,0,6,FF,FF,1E,7F,FF,3F,00,00,
5219916,0000019F,false,Rx,0,6,FF,FF,EF,7F,FF,2F,00,00,
5220196,00000254,false,Rx,0,8,FF,7F,FF,7F,FF,7F,FF,7F,
5220314,00000258,false,Rx,0,2,44,44,00,00,00,00,00,00,
5220513,00000302,false,Rx,0,7,FF,FF,D4,7F,FC,FF,FF,00,
5220885,000003C3,false,Rx,0,8,71,04,0E,52,3C,01,73,38,
5221657,00000112,false,Rx,0,8,1A,20,90,0E,A6,71,55,5D,
5238470,0000036E,false,Rx,0,5,A0,F6,FE,FF,14,00,00,00,
5238558,000000A9,false,Rx,0,8,20,78,00,90,F1,00,00,FF,
5238644,0000015F,false,Rx,0,8,1F,F1,00,7D,00,EE,00,7D,
5238737,00000100,false,Rx,0,8,5C,F1,7F,C0,5D,49,87,70,
5238823,000000A5,false,Rx,0,8,B4,F1,FF,F7,7F,00,00,C1,
5238908,000000AC,false,Rx,0,2,00,F0,00,00,00,00,00,00,
5238993,000000D9,false,Rx,0,8,F8,F1,00,10,00,F0,7F,C0,
5239079,000000F3,false,Rx,0,8,D6,01,00,FF,F0,C0,FF,FF,
5239164,000002E8,false,Rx,0,8,C0,18,C5,FF,FF,F4,F4,D0,
5239250,000003FD,false,Rx,0,5,B5,09,00,00,FF,00,00,00,
5239335,00000108,false,Rx,0,8,71,7D,FF,1F,48,F2,FF,FF,
5239420,00000212,false,Rx,0,8,F8,F8,F9,FF,FF,FF,FF,FF,
5239540,00000163,false,Rx,0,8,FF,FF,F1,24,FF,FF,FF,FF,
5239625,00000173,false,Rx,0,8,66,F1,00,0E,30,00,DE,10,
5239751,00000272,false,Rx,0,8,6E,F2,01,11,FF,FF,FF,FF,
5239836,000002DB,false,Rx,0,8,FF,FF,FF,FF,BF,FF,FF,FF,
5239954,000002F1,false,Rx,0,8,A2,0F,00,00,1B,DF,06,A0,
5240040,00000112,false,Rx,0,8,1A,20,90,0E,A6,71,55,5D,
5240158,000002BB,false,Rx,0,5,B7,F7,C4,09,F2,00,00,00,
5240275,000002A1,false,Rx,0,5,80,58,02,00,F0,00,00,00,
5240360,000000EF,false,Rx,0,8,25,F1,00,7D,21,00,7D,FF,
5240446,00000100,false,Rx,0,8,BB,F2,7F,C0,5D,49,87,70,
5240533,000001A1,false,Rx,0,5,AE,C7,00,00,8A,00,00,00,
5240626,00000199,false,Rx,0,6,FF,FF,2E,7F,FF,3F,00,00,
5240711,0000019A,false,Rx,0,6,FF,FF,28,7F,FF,3F,00,00,
5240804,0000019F,false,Rx,0,6,FF,FF,14,80,FF,2F,00,00,
5240890,00000254,false,Rx,0,8,FF,7F,FF,7F,FF,7F,FF,7F,
5240975,00000258,false,Rx,0,2,44,44,00,00,00,00,00,00,
5241678,00000112,false,Rx,0,8,1A,20,90,0E,A6,71,55,5D,
5243937,000007BD,false,Rx,0,8,00,00,00,40,FF,C4,01,08,
5244135,000007BE,false,Rx,0,8,07,48,07,D3,06,67,00,00,
5245646,00000197,false,Rx,0,4,8A,02,0E,C0,00,00,00,00,
5246588,0000015F,false,Rx,0,8,F8,F2,00,7D,00,EE,00,7D,
5246795,00000100,false,Rx,0,8,E6,F3,7F,C0,5D,49,87,70,
5248305,000000A5,false,Rx,0,8,53,F2,FF,F7,7F,00,00,C1,
5248423,000000AC,false,Rx,0,2,00,F0,00,00,00,00,00,00,
5248704,000000D9,false,Rx,0,8,1F,F2,00,10,00,F0,7F,C0,
5248911,000000F3,false,Rx,0,8,31,02,00,FF,F0,C0,FF,FF,
5249518,00000350,false,Rx,0,6,F3,FF,FF,FF,FF,FF,00,00,
5249896,00000206,false,Rx,0,8,4A,29,5F,FF,FF,FF,FF,FF,
5250096,00000201,false,Rx,0,8,F1,0E,F1,0E,FF,FF,FF,FF,
5251607,00000112,false,Rx,0,8,1A,20,90,0E,A6,71,55,5D,
5254929,0000051A,false,Rx,0,8,00,00,00,00,50,00,00,1A,
5256113,000002B0,false,Rx,0,6,39,40,03,C9,FF,FF,00,00,
5256474,000000EF,false,Rx,0,8,C2,F2,00,7D,21,00,7D,FF,
5256765,00000100,false,Rx,0,8,68,F4,7F,C0,5D,49,87,70,
5257044,000001A1,false,Rx,0,5,5B,C9,00,00,8A,00,00,00,
5259546,00000199,false,Rx,0,6,FF,FF,42,7F,FF,3F,00,00,
5259752,0000019A,false,Rx,0,6,FF,FF,32,7F,FF,3F,00,00,
5259951,0000019F,false,Rx,0,6,FF,FF,FD,7F,FF,2F,00,00,
5260151,00000254,false,Rx,0,8,FF,7F,FF,7F,FF,7F,FF,7F,
5260267,00000258,false,Rx,0,2,44,44,00,00,00,00,00,00,
5260552,00000302,false,Rx,0,7,FF,FF,D4,7F,FC,FF,FF,00,
5261654,00000112,false,Rx,0,8,1A,20,90,0E,A6,71,55,5D,
5262105,000002F5,false,Rx,0,8,60,0F,7E,20,22,0A,06,10,
5262630,0000012F,false,Rx,0,8,4F,2A,88,1D,F1,35,30,80,
5263405,000002A7,false,Rx,0,5,A9,FB,FE,FF,14,00,00,00,
5266480,0000015F,false,Rx,0,8,A5,F3,00,7D,00,EE,00,7D,
5266770,00000100,false,Rx,0,8,35,F5,7F,C0,5D,49,87,70,
5268527,000000A5,false,Rx,0,8,0E,F3,FF,F7,7F,00,00,C1,
5268644,000000AC,false,Rx,0,2,00,F0,00,00,00,00,00,00,
5268932,000000D9,false,Rx,0,8,42,F3,00,10,00,F0,7F,C0,
5269131,000000F3,false,Rx,0,8,6C,03,00,FF,F0,C0,FF,FF,
5271633,00000112,false,Rx,0,8,1A,20,90,0E,A6,71,55,5D,
5272489,0000003C,false,Rx,0,8,FF,5F,00,00,00,00,FF,FF,
5275645,00000197,false,Rx,0,4,05,03,0E,C0,00,00,00,00,
5276585,000000EF,false,Rx,0,8,51,F3,00,7D,21,FC,7C,FF,
5276793,00000100,false,Rx,0,8,D2,F6,7F,C0,5D,49,87,70,
5277155,000001A1,false,Rx,0,5,7C,CB,00,00,8A,00,00,00,
5279568,00000199,false,Rx,0,6,FF,FF,2E,7F,FF,3F,00,00,
5279769,0000019A,false,Rx,0,6,FF,FF,28,7F,FF,3F,00,00,
5279968,0000019F,false,Rx,0,6,FF,FF,00,80,FF,2F,00,00,
5280248,00000254,false,Rx,0,8,FF,7F,FF,7F,FF,7F,FF,7F,
5280366,00000258,false,Rx,0,2,44,44,00,00,00,00,00,00,
5281224,00000314,false,Rx,0,3,50,00,FF,00,00,00,00,00,
5281669,00000112,false,Rx,0,8,1A,20,90,0E,A6,71,55,5D,
5286467,0000015F,false,Rx,0,8,2B,F4,00,7D,00,EE,00,7D,
5286756,00000100,false,Rx,0,8,8F,F7,7F,C0,5D,49,87,70,
5288264,000000A5,false,Rx,0,8,80,F4,FF,F7,7F,00,00,C1,
5288462,000000AC,false,Rx,0,2,00,F0,00,00,00,00,00,00,
5302251,000000D9,false,Rx,0,8,CC,F4,00,10,00,F0,7F,C0,
5302338,000000F3,false,Rx,0,8,E2,04,00,FF,F0,C0,FF,FF,
5302423,00000206,false,Rx,0,8,AD,2A,5F,FF,FF,FF,FF,FF,
5302509,000002A5,false,Rx,0,2,CE,FE,00,00,00,00,00,00,
5302595,00000112,false,Rx,0,8,1A,20,90,0E,A6,71,55,5D,
5302681,0000019B,false,Rx,0,8,F2,48,40,55,FD,FF,FF,FF,
5302774,000007BD,false,Rx,0,8,04,00,01,02,00,00,00,80,
5302859,000007BE,false,Rx,0,8,00,C0,FA,1C,12,00,00,00,
5302945,000000EF,false,Rx,0,8,11,F4,00,7D,21,00,7D,FF,
5303030,00000100,false,Rx,0,8,D3,F8,7F,C0,5D,49,87,70,
5303116,000001A1,false,Rx,0,5,15,CD,00,00,8A,00,00,00,
5303201,000002F2,false,Rx,0,6,00,00,00,00,FF,FF,00,00,
5303286,000001B3,false,Rx,0,8,FC,12,00,FB,00,78,8A,C2,
5303372,000002C5,false,Rx,0,7,DE,FC,00,20,04,20,CA,00,
5303457,00000362,false,Rx,0,7,C2,40,02,C2,40,02,EA,00,
5303546,00000199,false,Rx,0,6,FF,FF,38,7F,FF,3F,00,00,
5303632,0000019A,false,Rx,0,6,FF,FF,32,7F,FF,3F,00,00,
5303724,0000019F,false,Rx,0,6,FF,FF,14,80,FF,2F,00,00,
5303810,00000201,false,Rx,0,8,FC,0E,FC,0E,FF,FF,FF,FF,
5303895,00000254,false,Rx,0,8,FF,7F,FF,7F,FF,7F,FF,7F,
5303981,00000258,false,Rx,0,2,44,44,00,00,00,00,00,00,
5304066,00000302,false,Rx,0,7,FF,FF,D4,7F,FC,FF,FF,00,
5304151,00000112,false,Rx,0,8,1A,20,90,0E,A6,71,55,5D,
5304677,0000036F,false,Rx,0,5,F2,F7,FE,FF,14,00,00,00,
5305629,00000197,false,Rx,0,4,8F,04,0E,C0,00,00,00,00,
5306492,0000015F,false,Rx,0,8,76,F5,00,7D,00,EE,00,7D,
5306781,00000100,false,Rx,0,8,8E,F9,7F,C0,5D,49,87,70,
5308318,000002C4,false,Rx,0,8,00,00,FF,00,C8,64,FF,CF,
5308519,000000A5,false,Rx,0,8,DD,F5,FF,F7,7F,00,00,C1,
5308636,000000AC,false,Rx,0,2,00,F0,00,00,00,00,00,00,
5308924,000000D9,false,Rx,0,8,91,F5,00,10,00,F0,7F,C0,
5309123,000000F3,false,Rx,0,8,BF,05,00,FF,F0,C0,FF,FF,
5309323,00000304,false,Rx,0,6,FF,FF,F9,39,FF,FF,00,00,
5311660,00000112,false,Rx,0,8,1A,20,90,0E,A6,71,55,5D,
5314581,000001AE,false,Rx,0,2,F7,FF,00,00,00,00,00,00,
5316503,000000EF,false,Rx,0,8,82,F5,00,7D,21,FC,7C,FF,
5316704,00000100,false,Rx,0,8,69,FA,7F,C0,5D,49,87,70,
5317074,000001A1,false,Rx,0,5,5A,C0,00,00,8A,00,00,00,
5319486,00000199,false,Rx,0,6,FF,FF,38,7F,FF,3F,00,00,
5319686,0000019A,false,Rx,0,6,FF,FF,32,7F,FF,3F,00,00,
5319893,0000019F,false,Rx,0,6,FF,FF,ED,7F,FF,2F,00,00,
5320174,00000254,false,Rx,0,8,FF,7F,FF,7F,FF,7F,FF,7F,
5320291,00000258,false,Rx,0,2,44,44,00,00,00,00,00,00,
5321641,00000112,false,Rx,0,8,1A,20,90,0E,A6,71,55,5D,
5326114,000000A9,false,Rx,0,8,20,78,00,90,F1,00,00,FF,
5326476,0000015F,false,Rx,0,8,91,F6,00,7D,00,EE,00,7D,
5326764,00000100,false,Rx,0,8,34,FB,7F,C0,5D,49,87,70,
5328519,00000592,false,Rx,0,8,26,85,F5,02,0A,1A,FF,FF,
5328725,000000A5,false,Rx,0,8,3A,F6,FF,F7,7F,00,00,C1,
5328842,000000AC,false,Rx,0,2,00,F0,00,00,00,00,00,00,
5329123,000000D9,false,Rx,0,8,76,F6,00,10,00,F0,7F,C0,
5329322,000000F3,false,Rx,0,8,58,06,00,FF,F0,C0,FF,FF,
5329605,000002E8,false,Rx,0,8,C0,18,C5,FF,FF,F4,F5,CD,
5329812,000003FD,false,Rx,0,5,0F,0A,00,00,FF,00,00,00,
5330011,00000108,false,Rx,0,8,71,7D,FF,1F,48,F2,FF,FF,
5330292,00000206,false,Rx,0,8,F0,2B,5F,FF,FF,FF,FF,FF,
5330491,00000163,false,Rx,0,8,FF,FF,F1,24,FF,FF,FF,FF,
5330781,00000173,false,Rx,0,8,0E,FB,00,0E,30,00,DE,10,
5330981,00000212,false,Rx,0,8,A5,F9,F9,FF,FF,FF,FF,FF,
5331262,000002DB,false,Rx,0,8,FF,FF,FF,FF,BF,FF,FF,FF,
5331461,000002F1,false,Rx,0,8,A2,0F,00,00,1B,DF,06,A0,
5331752,00000112,false,Rx,0,8,1A,20,90,0E,A6,71,55,5D,
5331951,0000032B,false,Rx,0,8,FF,FF,FF,FF,FF,FF,00,FF,
5332232,00000331,false,Rx,0,8,FF,FF,FF,EF,7F,FE,F7,FF,
5332431,000003E9,false,Rx,0,8,08,52,21,91,02,00,00,FE,
5333454,00000301,false,Rx,0,7,FF,FF,D9,7F,FF,FF,CF,00,
5333575,000002BB,false,Rx,0,5,64,F2,C4,09,F2,00,00,00,
5335664,00000197,false,Rx,0,4,00,05,0E,C0,00,00,00,00,
5336033,000002A1,false,Rx,0,5,80,58,02,00,F0,00,00,00,
5336476,000000EF,false,Rx,0,8,AB,F6,00,7D,21,00,7D,FF,
5336765,00000100,false,Rx,0,8,BA,FC,7F,C0,5D,49,87,70,
5337044,000001A1,false,Rx,0,5,7D,C2,00,00,8A,00,00,00,
5339546,00000199,false,Rx,0,6,FF,FF,42,7F,FF,3F,00,00,
5339753,0000019A,false,Rx,0,6,FF,FF,1E,7F,FF,3F,00,00,
5339951,0000019F,false,Rx,0,6,FF,FF,E9,7F,FF,2F,00,00,
5340150,00000254,false,Rx,0,8,FF,7F,FF,7F,FF,7F,FF,7F,
5340267,00000258,false,Rx,0,2,44,44,00,00,00,00,00,00,
5340551,00000302,false,Rx,0,7,FF,FF,D4,7F,FC,FF,FF,00,
5341668,00000112,false,Rx,0,8,1A,20,90,0E,A6,71,55,5D,
5342608,000001E1,false,Rx,0,6,7C,FA,00,FF,FF,FF,00,00,
5343384,000002A7,false,Rx,0,5,5D,FC,FE,FF,14,00,00,00,
5343918,000007BD,false,Rx,0,8,00,00,00,40,FF,C8,01,08,
5344199,000007BE,false,Rx,0,8,05,00,00,00,00,00,00,E0,
5346616,0000015F,false,Rx,0,8,CC,F7,00,7D,00,EE,00,7D,
5346822,00000100,false,Rx,0,8,E7,FD,7F,C0,5D,49,87,70,
5348493,000000A5,false,Rx,0,8,67,F7,FF,F7,7F,00,00,C1,
5348612,000000AC,false,Rx,0,2,00,F0,00,00,00,00,00,00,
5348900,000000D9,false,Rx,0,8,2B,F7,00,10,00,F0,7F,C0,
5349099,000000F3,false,Rx,0,8,05,07,00,FF,F0,C0,FF,FF,
5349885,00000201,false,Rx,0,8,08,0F,08,0F,FF,FF,FF,FF,
5351644,00000112,false,Rx,0,8,1A,20,90,0E,A6,71,55,5D,
5351852,00000239,false,Rx,0,8,3D,52,1D,B2,01,4B,FF,FF,
5368298,000002B0,false,Rx,0,6,39,40,03,C9,FF,FF,00,00,
5368384,000000EF,false,Rx,0,8,F6,F7,00,7D,21,00,7D,FF,
5368470,00000100,false,Rx,0,8,00,FE,7F,C0,5D,49,87,70,
5368589,000001A1,false,Rx,0,5,14,C4,00,00,8A,00,00,00,
5368706,00000199,false,Rx,0,6,FF,FF,4C,7F,FF,3F,00,00,
5368799,0000019A,false,Rx,0,6,FF,FF,32,7F,FF,3F,00,00,
5368885,0000019F,false,Rx,0,6,FF,FF,08,80,FF,2F,00,00,
5369003,00000254,false,Rx,0,8,FF,7F,FF,7F,FF,7F,FF,7F,
5369088,00000258,false,Rx,0,2,44,44,00,00,00,00,00,00,
5369206,00000112,false,Rx,0,8,1A,20,90,0E,A6,71,55,5D,
5369291,000002F5,false,Rx,0,8,60,0F,7E,20,22,0A,06,10,
5369377,0000012F,false,Rx,0,8,12,2B,88,1D,F1,35,30,80,
5369462,00000197,false,Rx,0,4,8C,06,0E,C0,00,00,00,00,
5369552,0000015F,false,Rx,0,8,90,F8,00,7D,00,EE,00,7D,
5369637,00000100,false,Rx,0,8,01,F0,7F,C0,5D,49,87,70,
5369731,000000A5,false,Rx,0,8,3B,F8,FF,F7,7F,00,00,C1,
5369849,000000AC,false,Rx,0,2,00,F0,00,00,00,00,00,00,
5369934,000000D9,false,Rx,0,8,77,F8,00,10,00,F0,7F,C0,
5370020,000000F3,false,Rx,0,8,59,08,00,FF,F0,C0,FF,FF,
5370105,00000206,false,Rx,0,8,7E,2C,5F,FF,FF,FF,FF,FF,
5370884,00000349,false,Rx,0,5,FE,FF,12,1B,00,00,00,00,
5371654,00000112,false,Rx,0,8,1A,20,90,0E,A6,71,55,5D,
5373333,000000C0,false,Rx,0,2,F3,40,00,00,00,00,00,00,
5373618,0000003C,false,Rx,0,8,FF,5F,00,00,00,00,FF,FF,
5376613,000000EF,false,Rx,0,8,AA,F8,00,7D,21,00,7D,FF,
5376820,00000100,false,Rx,0,8,5C,F1,7F,C0,5D,49,87,70,
5377100,000001A1,false,Rx,0,5,33,C6,00,00,8A,00,00,00,
5379515,00000199,false,Rx,0,6,FF,FF,38,7F,FF,3F,00,00,
5379713,0000019A,false,Rx,0,6,FF,FF,28,7F,FF,3F,00,00,
5379919,0000019F,false,Rx,0,6,FF,FF,F3,7F,FF,2F,00,00,
5380200,00000254,false,Rx,0,8,FF,7F,FF,7F,FF,7F,FF,7F,
5380317,00000258,false,Rx,0,2,44,44,00,00,00,00,00,00,
5380518,00000302,false,Rx,0,7,FF,FF,D4,7F,FC,FF,FF,00,
5381620,00000112,false,Rx,0,8,1A,20,90,0E,A6,71,55,5D,
5383465,0000036E,false,Rx,0,5,3D,F7,FE,FF,14,00,00,00,
5386458,0000015F,false,Rx,0,8,CD,F9,00,7D,00,EE,00,7D,
5386749,00000100,false,Rx,0,8,BB,F2,7F,C0,5D,49,87,70,
5388339,000000A5,false,Rx,0,8,66,F9,FF,F7,7F,00,00,C1,
5388457,000000AC,false,Rx,0,2,00,F0,00,00,00,00,00,00,
5388659,000000D9,false,Rx,0,8,2A,F9,00,10,00,F0,7F,C0,
5388948,000000F3,false,Rx,0,8,04,09,00,FF,F0,C0,FF,FF,
5391037,000003B4,false,Rx,0,8,0C,FF,71,F0,BA,FF,01,00,
5391647,00000112,false,Rx,0,8,1A,20,90,0E,A6,71,55,5D,
5393905,000007BD,false,Rx,0,8,07,00,00,00,40,00,00,00,
5394186,000007BE,false,Rx,0,8,0B,00,00,00,00,00,00,00,
5395697,00000197,false,Rx,0,4,03,07,0E,C0,00,00,00,00,
5396557,000000EF,false,Rx,0,8,39,F9,00,7D,21,FC,7C,FF,
5396757,00000100,false,Rx,0,8,E6,F3,7F,C0,5D,49,87,70,
5397119,000001A1,false,Rx,0,5,C6,C8,00,00,8A,00,00,00,
5398659,000002F2,false,Rx,0,6,00,00,00,00,FF,FF,00,00,
5398866,000001B3,false,Rx,0,8,FC,12,00,FC,00,78,8A,C3,
5399065,000002C5,false,Rx,0,7,98,FD,00,20,04,20,CA,00,
5399591,00000199,false,Rx,0,6,FF,FF,2E,7F,FF,3F,00,00,
5399797,0000019A,false,Rx,0,6,FF,FF,14,7F,FF,3F,00,00,
5399996,0000019F,false,Rx,0,6,FF,FF,20,80,FF,2F,00,00,
5400276,00000201,false,Rx,0,8,14,0F,14,0F,FF,FF,FF,FF,
5400475,00000254,false,Rx,0,8,FF,7F,FF,7F,FF,7F,FF,7F,
5400676,00000258,false,Rx,0,2,44,44,00,00,00,00,00,00,
5401616,00000112,false,Rx,0,8,1A,20,90,0E,A6,71,55,5D,
5401906,00000431,false,Rx,0,8,CA,FF,05,02,68,26,F3,4B,
5406537,0000015F,false,Rx,0,8,2A,FA,00,7D,00,EE,00,7D,
5406743,00000100,false,Rx,0,8,68,F4,7F,C0,5D,49,87,70,
5408252,000002C4,false,Rx,0,8,00,00,FF,00,C8,64,FF,CF,
5408534,000000A5,false,Rx,0,8,81,FA,FF,F7,7F,00,00,C1,
5408651,000000AC,false,Rx,0,2,00,F0,00,00,00,00,00,00,
5408938,000000D9,false,Rx,0,8,CD,FA,00,10,00,F0,7F,C0,
5409137,000000F3,false,Rx,0,8,E3,0A,00,FF,F0,C0,FF,FF,
5409835,00000206,false,Rx,0,8,23,2D,5F,FF,FF,FF,FF,FF,
5411617,00000112,false,Rx,0,8,1A,20,90,0E,A6,71,55,5D,
5411906,00000432,false,Rx,0,8,CC,E8,10,A3,66,FF,00,FF,
5414590,000001AE,false,Rx,0,2,F7,FF,00,00,00,00,00,00,
5415041,00000297,false,Rx,0,7,45,E3,F0,E0,F2,92,EA,00,
5416468,000000EF,false,Rx,0,8,DE,FA,00,7D,21,FC,7C,FF,
5416758,00000100,false,Rx,0,8,35,F5,7F,C0,5D,49,87,70,
5417039,000001A1,false,Rx,0,5,E1,CA,00,00,8A,00,00,00,
5431128,00000199,false,Rx,0,6,FF,FF,4C,7F,FF,3F,00,00,
5431247,0000019A,false,Rx,0,6,FF,FF,32,7F,FF,3F,00,00,
5431333,0000019F,false,Rx,0,6,FF,FF,FD,7F,FF,2F,00,00,
5431450,00000254,false,Rx,0,8,FF,7F,FF,7F,FF,7F,FF,7F,
5431537,00000258,false,Rx,0,2,44,44,00,00,00,00,00,00,
5431623,00000302,false,Rx,0,7,FF,FF,D4,7F,FC,FF,FF,00,
5431749,00000112,false,Rx,0,8,1A,20,90,0E,A6,71,55,5D,
5431834,000002A7,false,Rx,0,5,C0,FD,FE,FF,14,00,00,00,
5431952,00000197,false,Rx,0,4,85,08,0E,C0,00,00,00,00,
5432038,000000A9,false,Rx,0,8,20,78,00,90,F1,00,00,FF,
5432123,0000015F,false,Rx,0,8,77,FB,00,7D,00,EE,00,7D,
5432209,00000100,false,Rx,0,8,D2,F6,7F,C0,5D,49,87,70,
5432294,000000A5,false,Rx,0,8,DC,FB,FF,F7,7F,00,00,C1,
5432379,000000AC,false,Rx,0,2,00,F0,00,00,00,00,00,00,
5432465,000000D9,false,Rx,0,8,90,FB,00,10,00,F0,7F,C0,
5432551,000000F3,false,Rx,0,8,BE,0B,00,FF,F0,C0,FF,FF,
5432637,000002E8,false,Rx,0,8,C0,18,C5,FF,FF,F4,F6,EA,
5432730,000003FD,false,Rx,0,5,92,0B,00,00,FF,00,00,00,
5432815,00000108,false,Rx,0,8,71,7D,FF,1F,48,F2,FF,FF,
5432901,00000201,false,Rx,0,8,1A,0F,1A,0F,FF,FF,FF,FF,
5432986,00000163,false,Rx,0,8,FF,FF,F1,24,FF,FF,FF,FF,
5433072,00000173,false,Rx,0,8,E8,F6,00,0E,30,00,DE,10,
5433157,00000212,false,Rx,0,8,42,FA,F9,FF,FF,FF,FF,FF,
5433243,00000272,false,Rx,0,8,33,F3,01,11,FF,FF,FF,FF,
5433328,000002DB,false,Rx,0,8,FF,FF,FF,FF,BF,FF,FF,FF,
5433414,00000112,false,Rx,0,8,1A,20,90,0E,A6,71,55,5D,
5433533,000002F1,false,Rx,0,8,A2,0F,00,00,1B,DF,06,A0,
5433619,000002BB,false,Rx,0,5,91,FC,C4,09,F2,00,00,00,
5436040,000002A1,false,Rx,0,5,80,58,02,00,F0,00,00,00,
5436483,000000EF,false,Rx,0,8,4D,FB,00,7D,21,00,7D,FF,
5436773,00000100,false,Rx,0,8,8F,F7,7F,C0,5D,49,87,70,
5437054,000001A1,false,Rx,0,5,88,CC,00,00,8A,00,00,00,
5439552,00000199,false,Rx,0,6,FF,FF,38,7F,FF,3F,00,00,
5439758,0000019A,false,Rx,0,6,FF,FF,28,7F,FF,3F,00,00,
5439956,0000019F,false,Rx,0,6,FF,FF,03,80,FF,2F,00,00,
5440155,00000254,false,Rx,0,8,FF,7F,FF,7F,FF,7F,FF,7F,
5440273,00000258,false,Rx,0,2,44,44,00,00,00,00,00,00,
5440901,00000314,false,Rx,0,3,50,00,FF,00,00,00,00,00,
5441678,00000112,false,Rx,0,8,1A,20,90,0E,A6,71,55,5D,
5443937,000007BD,false,Rx,0,8,00,00,00,40,FF,CC,01,08,
5444135,000007BE,false,Rx,0,8,0C,05,04,6A,00,00,00,00,
5446552,0000015F,false,Rx,0,8,F9,FC,00,7D,00,EE,00,7D,
5446839,00000100,false,Rx,0,8,D3,F8,7F,C0,5D,49,87,70,
5448268,000000A5,false,Rx,0,8,52,FC,FF,F7,7F,00,00,C1,
5448385,000000AC,false,Rx,0,2,00,F0,00,00,00,00,00,00,
5448667,000000D9,false,Rx,0,8,1E,FC,00,10,00,F0,7F,C0,
5448874,000000F3,false,Rx,0,8,30,0C,00,FF,F0,C0,FF,FF,
5449906,00000206,false,Rx,0,8,C4,2E,5F,FF,FF,FF,FF,FF,
5450104,00000201,false,Rx,0,8,1F,0F,1F,0F,FF,FF,FF,FF,
5451616,00000112,false,Rx,0,8,1A,20,90,0E,A6,71,55,5D,
5455678,00000197,false,Rx,0,4,0A,09,0E,C0,00,00,00,00,
5456048,000002B0,false,Rx,0,6,39,40,03,C9,FF,FF,00,00,
5456491,000000EF,false,Rx,0,8,C3,FC,00,7D,21,00,7D,FF,
5456780,00000100,false,Rx,0,8,8E,F9,7F,C0,5D,49,87,70,
5457061,000001A1,false,Rx,0,5,AF,CE,00,00,8A,00,00,00,
5459474,00000199,false,Rx,0,6,FF,FF,42,7F,FF,3F,00,00,
5459764,0000019A,false,Rx,0,6,FF,FF,1E,7F,FF,3F,00,00,
5459963,0000019F,false,Rx,0,6,FF,FF,FF,7F,FF,2F,00,00,
5460161,00000254,false,Rx,0,8,FF,7F,FF,7F,FF,7F,FF,7F,
5460278,00000258,false,Rx,0,2,44,44,00,00,00,00,00,00,
5460559,00000302,false,Rx,0,7,FF,FF,D4,7F,FC,FF,FF,00,
5461663,00000112,false,Rx,0,8,1A,20,90,0E,A6,71,55,5D,
5462114,000002F5,false,Rx,0,8,60,0F,7E,20,22,0A,06,10,
5462641,0000012F,false,Rx,0,8,9C,2C,88,1D,F1,35,30,80,
5464817,0000036F,false,Rx,0,5,9A,F8,FE,FF,14,00,00,00,
5466488,0000015F,false,Rx,0,8,A4,FD,00,7D,00,EE,00,7D,
5466779,00000100,false,Rx,0,8,69,FA,7F,C0,5D,49,87,70,
5468613,000000A5,false,Rx,0,8,0F,FD,FF,F7,7F,00,00,C1,
5468813,000000AC,false,Rx,0,2,00,F0,00,00,00,00,00,00,
5469012,000000D9,false,Rx,0,8,43,FD,00,10,00,F0,7F,C0,
5469293,000000F3,false,Rx,0,8,6D,0D,00,FF,F0,C0,FF,FF,
5471629,00000112,false,Rx,0,8,1A,20,90,0E,A6,71,55,5D,
5473472,0000003C,false,Rx,0,8,FF,5F,00,00,00,00,FF,FF,
5473844,00000338,false,Rx,0,8,12,00,0A,F0,00,FE,FE,FE,
5476587,000000EF,false,Rx,0,8,9E,FD,00,7D,21,00,7D,FF,
5476795,00000100,false,Rx,0,8,34,FB,7F,C0,5D,49,87,70,
5477156,000001A1,false,Rx,0,5,C7,C1,00,00,8A,00,00,00,
5479485,00000199,false,Rx,0,6,FF,FF,38,7F,FF,3F,00,00,
5479686,0000019A,false,Rx,0,6,FF,FF,1E,7F,FF,3F,00,00,
5479893,0000019F,false,Rx,0,6,FF,FF,F1,7F,FF,2F,00,00,
5480174,00000254,false,Rx,0,8,FF,7F,FF,7F,FF,7F,FF,7F,
5480290,00000258,false,Rx,0,2,44,44,00,00,00,00,00,00,
5495252,00000112,false,Rx,0,8,1A,20,90,0E,A6,71,55,5D,
5495339,00000197,false,Rx,0,4,86,0A,0E,C0,00,00,00,00,
5495424,0000015F,false,Rx,0,8,43,FE,00,7D,00,EE,00,7D,
5495510,00000100,false,Rx,0,8,BA,FC,7F,C0,5D,49,87,70,
5495596,000000A5,false,Rx,0,8,E8,FE,FF,F7,7F,00,00,C1,
5495682,000000AC,false,Rx,0,2,00,F0,00,00,00,00,00,00,
5495775,000000D9,false,Rx,0,8,A4,FE,00,10,00,F0,7F,C0,
5495861,000000F3,false,Rx,0,8,8A,0E,00,FF,F0,C0,FF,FF,
5495946,00000206,false,Rx,0,8,C5,20,5F,FF,FF,FF,FF,FF,
5496032,000002A5,false,Rx,0,2,CE,FE,00,00,00,00,00,00,
5496117,00000112,false,Rx,0,8,1A,20,90,0E,A6,71,55,5D,
5496202,00000348,false,Rx,0,8,B7,9D,0A,7F,FE,FA,59,3A,
5496288,0000019B,false,Rx,0,8,AF,49,40,55,FD,FF,FF,FF,
5496373,000007BD,false,Rx,0,8,07,00,00,00,40,00,00,00,
5496459,000007BE,false,Rx,0,8,00,C0,FA,1C,12,00,00,00,
5496576,000000EF,false,Rx,0,8,79,FE,00,7D,21,00,7D,FF,
5496782,00000100,false,Rx,0,8,E7,FD,7F,C0,5D,49,87,70,
5497062,000001A1,false,Rx,0,5,E0,C3,00,00,8A,00,00,00,
5498652,000002F2,false,Rx,0,6,00,00,00,00,FF,FF,00,00,
5498941,0000019D,false,Rx,0,8,A3,98,F5,05,FF,FF,FF,FF,
5499141,000001B3,false,Rx,0,8,FC,12,00,FD,00,78,8A,C4,
5499421,000002C5,false,Rx,0,7,52,FE,00,20,04,20,CA,00,
5499621,00000199,false,Rx,0,6,FF,FF,2E,7F,FF,3F,00,00,
5499828,0000019A,false,Rx,0,6,FF,FF,28,7F,FF,3F,00,00,
5500027,0000019F,false,Rx,0,6,FF,FF,FF,7F,FF,2F,00,00,
5500226,00000201,false,Rx,0,8,2B,0F,2B,0F,FF,FF,FF,FF,
5500507,00000254,false,Rx,0,8,FF,7F,FF,7F,FF,7F,FF,7F,
5500626,00000258,false,Rx,0,2,44,44,00,00,00,00,00,00,
5500832,00000302,false,Rx,0,7,FF,FF,D4,7F,FC,FF,FF,00,
5501113,00000362,false,Rx,0,7,C2,40,02,C2,40,02,EA,00,
5501641,00000112,false,Rx,0,8,1A,20,90,0E,A6,71,55,5D,
5503075,00000172,false,Rx,0,5,12,00,0A,60,F0,00,00,00,
5503437,000002A7,false,Rx,0,5,7A,FE,FE,FF,14,00,00,00,
5506513,0000015F,false,Rx,0,8,42,F0,00,7D,00,EE,00,7D,
5506802,00000100,false,Rx,0,8,00,FE,7F,C0,5D,49,87,70,
5508312,000002C4,false,Rx,0,8,00,00,FF,00,C8,64,FF,CF,
5508511,000000A5,false,Rx,0,8,E9,F0,FF,F7,7F,00,00,C1,
5508711,000000AC,false,Rx,0,2,00,F0,00,00,00,00,00,00,
5508917,000000D9,false,Rx,0,8,A5,F0,00,10,00,F0,7F,C0,
5509197,000000F3,false,Rx,0,8,8B,00,00,FF,F0,C0,FF,FF,
5509396,00000304,false,Rx,0,6,FF,FF,F9,39,FF,FF,00,00,
5511651,00000112,false,Rx,0,8,1A,20,90,0E,A6,71,55,5D,
5513527,0000043D,false,Rx,0,8,0A,FE,EB,FF,1E,A7,00,F0,
5514550,000001AE,false,Rx,0,2,F7,FF,00,00,00,00,00,00,
5515665,00000197,false,Rx,0,4,09,0B,0E,C0,00,00,00,00,
5516524,000000EF,false,Rx,0,8,78,F0,00,7D,21,00,7D,FF,
5516813,00000100,false,Rx,0,8,01,F0,7F,C0,5D,49,87,70,
5517093,000001A1,false,Rx,0,5,89,C5,00,00,8A,00,00,00,
5519505,00000199,false,Rx,0,6,FF,FF,4C,7F,FF,3F,00,00,
5519706,0000019A,false,Rx,0,6,FF,FF,1E,7F,FF,3F,00,00,
5519913,0000019F,false,Rx,0,6,FF,FF,02,80,FF,2F,00,00,
5520193,00000254,false,Rx,0,8,FF,7F,FF,7F,FF,7F,FF,7F,
5520311,00000258,false,Rx,0,2,44,44,00,00,00,00,00,00,
5520509,000003CD,false,Rx,0,8,B6,18,58,06,00,00,00,00,
5521696,00000112,false,Rx,0,8,1A,20,90,0E,A6,71,55,5D,
5526089,000000A9,false,Rx,0,8,20,78,00,90,F1,00,00,FF,
5526616,0000015F,false,Rx,0,8,1F,F1,00,7D,00,EE,00,7D,
5526823,00000100,false,Rx,0,8,5C,F1,7F,C0,5D,49,87,70,
5528495,000000A5,false,Rx,0,8,B4,F1,FF,F7,7F,00,00,C1,
5528695,000000AC,false,Rx,0,2,00,F0,00,00,00,00,00,00,
5528903,000000D9,false,Rx,0,8,F8,F1,00,10,00,F0,7F,C0,
5529102,000000F3,false,Rx,0,8,D6,01,00,FF,F0,C0,FF,FF,
5529382,000002E8,false,Rx,0,8,C0,18,C5,FF,FF,F4,F7,F7,
5529836,000003FD,false,Rx,0,5,66,0C,00,00,FF,00,00,00,
5530035,00000108,false,Rx,0,8,71,7D,FF,1F,48,F2,FF,FF,
5530316,00000206,false,Rx,0,8,98,21,5F,FF,FF,FF,FF,FF,
5530516,00000163,false,Rx,0,8,FF,FF,F1,24,FF,FF,FF,FF,
5530804,00000173,false,Rx,0,8,66,F1,00,0E,30,00,DE,10,
5531002,00000212,false,Rx,0,8,1F,FB,F9,FF,FF,FF,FF,FF,
5531283,000002DB,false,Rx,0,8,FF,FF,FF,FF,BF,FF,FF,FF,
5531564,000002F1,false,Rx,0,8,A2,0F,00,00,1B,DF,06,A0,
5531772,00000112,false,Rx,0,8,1A,20,90,0E,A6,71,55,5D,
5531971,0000032B,false,Rx,0,8,FF,FF,FF,FF,FF,FF,00,FF,
5532252,00000331,false,Rx,0,8,FF,FF,FF,EF,7F,FE,F7,FF,
5532451,000003E9,false,Rx,0,8,08,52,21,91,02,00,00,FE,
5533147,0000038E,false,Rx,0,8,00,00,0D,0D,89,0C,B8,F7,
5533428,00000301,false,Rx,0,7,FF,FF,D9,7F,FF,FF,CF,00,
5533628,000002BB,false,Rx,0,5,B7,F7,C4,09,F2,00,00,00,
5533834,0000043C,false,Rx,0,8,FE,FE,FF,FF,FF,FF,FF,FF,
5536004,000002A1,false,Rx,0,5,80,58,02,00,F0,00,00,00,
5536530,000000EF,false,Rx,0,8,EB,F1,00,7D,21,FC,7C,FF,
5536737,00000100,false,Rx,0,8,BB,F2,7F,C0,5D,49,87,70,
5537018,000001A1,false,Rx,0,5,AE,C7,00,00,8A,00,00,00,
5539511,00000199,false,Rx,0,6,FF,FF,38,7F,FF,3F,00,00,
5539711,0000019A,false,Rx,0,6,FF,FF,28,7F,FF,3F,00,00,
5539918,0000019F,false,Rx,0,6,FF,FF,08,80,FF,2F,00,00,
5540198,00000254,false,Rx,0,8,FF,7F,FF,7F,FF,7F,FF,7F,
5540315,00000258,false,Rx,0,2,44,44,00,00,00,00,00,00,
5540513,00000302,false,Rx,0,7,FF,FF,D4,7F,FC,FF,FF,00,
5541639,00000112,false,Rx,0,8,1A,20,90,0E,A6,71,55,5D,
5542659,000001E1,false,Rx,0,6,16,FB,00,FF,FF,FF,00,00,
5543435,0000036E,false,Rx,0,5,55,F8,FE,FF,14,00,00,00,
5543887,000007BD,false,Rx,0,8,00,00,00,40,FF,C0,01,08,
5544167,000007BE,false,Rx,0,8,05,00,00,00,00,00,00,E0,
5561749,00000197,false,Rx,0,4,83,0C,0E,C0,00,00,00,00,
5561840,0000015F,false,Rx,0,8,F8,F2,00,7D,00,EE,00,7D,
5561926,00000100,false,Rx,0,8,E6,F3,7F,C0,5D,49,87,70,
5562011,000000A5,false,Rx,0,8,53,F2,FF,F7,7F,00,00,C1,
5562130,000000AC,false,Rx,0,2,00,F0,00,00,00,00,00,00,
5562215,000000D9,false,Rx,0,8,1F,F2,00,10,00,F0,7F,C0,
5562300,000000F3,false,Rx,0,8,31,02,00,FF,F0,C0,FF,FF,
5562386,00000201,false,Rx,0,8,37,0F,37,0F,FF,FF,FF,FF,
5562471,00000112,false,Rx,0,8,1A,20,90,0E,A6,71,55,5D,
5562559,00000239,false,Rx,0,8,3D,52,1D,B2,01,4B,FF,FF,
5562677,000002B0,false,Rx,0,6,39,40,03,C9,FF,FF,00,00,
5562771,000000EF,false,Rx,0,8,C2,F2,00,7D,21,00,7D,FF,
5562856,00000100,false,Rx,0,8,68,F4,7F,C0,5D,49,87,70,
5562942,000001A1,false,Rx,0,5,5B,C9,00,00,8A,00,00,00,
5563027,00000199,false,Rx,0,6,FF,FF,24,7F,FF,3F,00,00,
5563112,0000019A,false,Rx,0,6,FF,FF,3C,7F,FF,3F,00,00,
5563198,0000019F,false,Rx,0,6,FF,FF,09,80,FF,2F,00,00,
5563283,00000254,false,Rx,0,8,FF,7F,FF,7F,FF,7F,FF,7F,
5563369,00000258,false,Rx,0,2,44,44,00,00,00,00,00,00,
5563454,00000112,false,Rx,0,8,1A,20,90,0E,A6,71,55,5D,
5563543,000002F5,false,Rx,0,8,60,0F,7E,20,22,0A,06,10,
5563628,0000012F,false,Rx,0,8,C1,2D,88,1D,F1,35,30,80,
5566455,0000015F,false,Rx,0,8,A5,F3,00,7D,00,EE,00,7D,
5566748,00000100,false,Rx,0,8,35,F5,7F,C0,5D,49,87,70,
5568502,000000A5,false,Rx,0,8,0E,F3,FF,F7,7F,00,00,C1,
5568702,000000AC,false,Rx,0,2,00,F0,00,00,00,00,00,00,
5568908,000000D9,false,Rx,0,8,42,F3,00,10,00,F0,7F,C0,
5569107,000000F3,false,Rx,0,8,6C,03,00,FF,F0,C0,FF,FF,
5569388,000003CA,false,Rx,0,8,68,20,17,06,06,7D,FF,FF,
5569841,00000206,false,Rx,0,8,7F,22,5F,FF,FF,FF,FF,FF,
5570944,00000349,false,Rx,0,5,FE,FF,12,1B,00,00,00,00,
5571632,00000112,false,Rx,0,8,1A,20,90,0E,A6,71,55,5D,
5573311,000000C0,false,Rx,0,2,F4,40,00,00,00,00,00,00,
5573593,0000003C,false,Rx,0,8,FF,5F,00,00,00,00,FF,FF,
5575681,00000197,false,Rx,0,4,0C,0D,0E,C0,00,00,00,00,
5576621,000000EF,false,Rx,0,8,9F,F3,00,7D,21,00,7D,FF,
5576828,00000100,false,Rx,0,8,D2,F6,7F,C0,5D,49,87,70,
5577108,000001A1,false,Rx,0,5,7C,CB,00,00,8A,00,00,00,
5579527,00000199,false,Rx,0,6,FF,FF,38,7F,FF,3F,00,00,
5579734,0000019A,false,Rx,0,6,FF,FF,32,7F,FF,3F,00,00,
5579934,0000019F,false,Rx,0,6,FF,FF,1C,80,FF,2F,00,00,
5580214,00000254,false,Rx,0,8,FF,7F,FF,7F,FF,7F,FF,7F,
5580330,00000258,false,Rx,0,2,44,44,00,00,00,00,00,00,
5580533,00000302,false,Rx,0,7,FF,FF,D4,7F,FC,FF,FF,00,
5581638,00000112,false,Rx,0,8,1A,20,90,0E,A6,71,55,5D,
5583398,000002A7,false,Rx,0,5,8F,F0,FE,FF,14,00,00,00,
5586147,000003D8,false,Rx,0,8,07,FF,FF,FF,FF,FF,FF,FF,
5586508,0000015F,false,Rx,0,8,2B,F4,00,7D,00,EE,00,7D,
5586709,00000100,false,Rx,0,8,8F,F7,7F,C0,5D,49,87,70,
5588307,000000A5,false,Rx,0,8,80,F4,FF,F7,7F,00,00,C1,
5588423,000000AC,false,Rx,0,2,00,F0,00,00,00,00,00,00,
5588705,000000D9,false,Rx,0,8,CC,F4,00,10,00,F0,7F,C0,
5588913,000000F3,false,Rx,0,8,E2,04,00,FF,F0,C0,FF,FF,
5591163,000003B4,false,Rx,0,8,0C,FF,71,F0,BA,FF,01,00,
5591688,00000112,false,Rx,0,8,1A,20,90,0E,A6,71,55,5D,
5593864,000007BD,false,Rx,0,8,07,00,00,00,40,00,00,00,
5594143,000007BE,false,Rx,0,8,0B,00,00,00,00,00,00,00,
5595408,000003A5,false,Rx,0,5,E1,D5,FF,FF,FF,00,00,00,
5596511,000000EF,false,Rx,0,8,DF,F4,00,7D,21,FC,7C,FF,
5596799,00000100,false,Rx,0,8,D3,F8,7F,C0,5D,49,87,70,
5597079,000001A1,false,Rx,0,5,15,CD,00,00,8A,00,00,00,
5598672,000002F2,false,Rx,0,6,00,00,00,00,FF,FF,00,00,
5598960,000001B3,false,Rx,0,8,FC,12,00,FE,00,78,8A,C5,
5599160,000002C5,false,Rx,0,7,D1,F0,00,20,04,20,CA,00,
5599524,00000199,false,Rx,0,6,FF,FF,42,7F,FF,3F,00,00,
5599732,0000019A,false,Rx,0,6,FF,FF,14,7F,FF,3F,00,00,
5599931,0000019F,false,Rx,0,6,FF,FF,07,80,FF,2F,00,00,
5600211,00000201,false,Rx,0,8,43,0F,43,0F,FF,FF,FF,FF,
5600410,00000254,false,Rx,0,8,FF,7F,FF,7F,FF,7F,FF,7F,
5600530,00000258,false,Rx,0,2,44,44,00,00,00,00,00,00,
5601062,00000314,false,Rx,0,3,50,00,FF,00,00,00,00,00,
5601670,00000112,false,Rx,0,8,1A,20,90,0E,A6,71,55,5D,
5601877,00000431,false,Rx,0,8,CA,FF,05,02,68,26,F3,4B,
5604779,000003A7,false,Rx,0,7,48,F4,0A,00,4F,11,F0,00,
5604905,000003E6,false,Rx,0,2,79,1D,00,00,00,00,00,00,
5605674,00000197,false,Rx,0,4,80,0E,0E,C0,00,00,00,00,
5606533,0000015F,false,Rx,0,8,76,F5,00,7D,00,EE,00,7D,
5606739,00000100,false,Rx,0,8,8E,F9,7F,C0,5D,49,87,70,
