Time Stamp,ID,Extended,Bus,LEN,D1,D2,D3,D4,D5,D6,D7,D8
000000000,00000540,false,0,8,00,00,00,00,0D,34,FF,40
000000001,000001D6,false,0,2,F0,CC,00,00,00,00,00,00
000000002,000001EE,false,0,2,00,FC,00,00,00,00,00,00
000000003,000002A6,false,0,2,00,CA,00,00,00,00,00,00
000000004,000002CF,false,0,2,FA,FF,00,00,00,00,00,00
000000005,000002FC,false,0,8,81,15,00,FF,FF,FF,FF,FF
000000006,00000314,false,0,3,FF,FF,FF,00,00,00,00,00
000000007,00000349,false,0,5,FE,FF,F4,1A,00,00,00,00
000000008,000003AC,false,0,2,FE,CF,00,00,00,00,00,00
000000009,000003BE,false,0,3,1C,F0,00,00,00,00,00,00
000000010,0000012F,false,0,8,5D,28,86,1A,F1,31,30,00
000000011,000001E1,false,0,6,93,F7,45,FF,FF,FF,00,00
000000012,000001EE,false,0,2,00,FC,00,00,00,00,00,00
000000013,0000012F,false,0,8,F5,29,86,1A,F1,B1,30,C0
000000014,000003A0,false,0,8,FF,FF,C0,FF,FF,FF,FF,FD
000000015,000003A5,false,0,5,E1,D5,FF,FF,FF,00,00,00
000000016,00000510,false,0,8,40,10,20,00,00,00,00,00
000000017,0000012F,false,0,8,73,2A,86,1C,F1,B1,30,C0
000000018,000002C5,false,0,7,23,FF,00,60,C6,20,CA,00
000000019,000002CA,false,0,2,80,81,00,00,00,00,00,00
000000020,000002F7,false,0,6,0E,D8,49,09,11,F1,00,00
000000021,000002F8,false,0,8,0B,2F,2F,17,57,E5,07,F5
000000022,00000328,false,0,6,08,36,2E,0B,86,1E,00,00
000000023,00000330,false,0,8,FE,2E,01,02,00,FF,7C,09
000000024,00000356,false,0,8,6F,F0,06,FF,FF,FF,FF,FF
000000025,00000373,false,0,6,73,F0,06,28,F0,FF,00,00
000000026,00000393,false,0,4,FF,FF,FF,FF,00,00,00,00
000000027,0000012F,false,0,8,94,2B,86,1C,F2,B1,30,C0
000000028,00000336,false,0,7,00,00,00,FE,FF,FE,FF,00
000000029,000005E0,false,0,8,11,04,00,03,06,28,D5,01
000000030,000007BE,false,0,8,06,01,20,00,00,01,83,00
000000031,000000A9,false,0,8,00,7D,00,90,F1,00,00,FF
000000032,000001AE,false,0,2,F7,FF,00,00,00,00,00,00
000000033,000000C0,false,0,2,FD,40,00,00,00,00,00,00
000000034,0000003C,false,0,8,FF,5F,00,00,00,00,FF,FF
000000035,000002A1,false,0,5,80,58,02,00,FA,00,00,00
000000036,0000012F,false,0,8,1A,2C,86,1C,F2,B1,30,C0
000000037,00000397,false,0,7,00,2A,00,54,14,77,01,00
000000038,000002B0,false,0,6,3C,44,00,C3,FF,FF,00,00
000000039,000002A6,false,0,2,00,CA,00,00,00,00,00,00
000000040,000003AC,false,0,2,FE,CF,00,00,00,00,00,00
000000041,000002FC,false,0,8,81,15,00,FF,FF,FF,FF,FF
000000042,00000314,false,0,3,FF,FF,FF,00,00,00,00,00
000000043,000003BE,false,0,3,47,F0,00,00,00,00,00,00
000000044,000002C5,false,0,7,C3,F0,00,70,C6,20,CA,00
000000045,00000337,false,0,2,FF,FF,00,00,00,00,00,00
000000046,000003B4,false,0,8,00,FF,30,F0,B8,FF,00,FD
000000047,00000540,false,0,8,00,00,00,00,0D,34,FF,40
000000048,00000364,false,0,5,00,A0,FC,FF,FF,00,00,00
000000049,000003CA,false,0,8,81,70,37,04,04,80,FF,FF
000000050,000007BD,false,0,8,00,00,00,C0,FF,40,01,01
000000051,00000197,false,0,4,64,E0,9E,C0,00,00,00,00
000000052,000003D2,false,0,2,F3,FF,00,00,00,00,00,00
000000053,00000510,false,0,8,40,10,20,00,00,00,00,00
000000054,000002C3,false,0,5,FF,FF,FF,FF,FF,00,00,00
000000055,00000197,false,0,4,06,01,0E,C0,00,00,00,00
000000056,00000272,false,0,8,CF,F1,00,11,FF,FF,FF,FF
000000057,00000390,false,0,4,00,00,00,00,00,00,00,00
000000058,000001D0,false,0,8,6C,F0,DF,FF,FF,FF,FF,FF
000000059,000002C4,false,0,8,FF,FF,FF,64,64,64,FF,FF
000000060,000000A5,false,0,8,4A,F0,FF,F7,7F,FF,FF,FF
000000061,000000AC,false,0,2,FF,F7,00,00,00,00,00,00
000000062,000000D9,false,0,8,64,F0,FF,FF,FF,EF,7F,FF
000000063,000000F3,false,0,8,85,F0,FF,FF,F0,FF,FF,FF
000000064,00000304,false,0,6,FF,FF,FF,FF,FF,FF,00,00
000000065,000003F9,false,0,8,8A,F0,FF,F3,30,30,CF,FF
000000066,00000340,false,0,2,FC,FF,00,00,00,00,00,00
000000067,00000389,false,0,2,FF,F0,00,00,00,00,00,00
000000068,00000592,false,0,8,01,00,00,FF,FF,FF,FF,FF
000000069,000001B9,false,0,5,FF,FF,FF,00,FF,00,00,00
000000070,000003B3,false,0,7,0F,00,00,00,00,F0,08,00
000000071,000003F9,false,0,8,35,F1,80,C0,A6,30,C0,FF
000000072,000003B4,false,0,8,00,FF,31,F0,B8,FF,00,FD
000000073,00000509,false,0,8,00,00,00,00,6E,32,00,09
000000074,000001EE,false,0,2,00,FC,00,00,00,00,00,00
000000075,0000015F,false,0,8,1F,F1,00,7D,00,EE,00,7D
000000076,00000254,false,0,8,FF,7F,FF,7F,FF,7F,FF,7F
000000077,00000173,false,0,8,2F,F1,00,0E,E0,00,DE,00
000000078,00000163,false,0,8,FF,FF,00,85,FF,FF,FF,FF
000000079,00000258,false,0,2,44,44,00,00,00,00,00,00
000000080,00000302,false,0,7,FF,FF,FF,7F,F8,FF,FF,00
000000081,000002ED,false,0,3,C3,01,00,00,00,00,00,00
000000082,00000199,false,0,6,FF,FF,F3,7E,FF,8F,00,00
000000083,0000019A,false,0,6,FF,FF,F3,7E,FF,8F,00,00
000000084,0000019F,false,0,6,FF,FF,00,80,FF,8F,00,00
000000085,00000301,false,0,7,FF,FF,FF,7F,FF,FF,8F,00
000000086,000002BB,false,0,5,9A,F6,00,00,F2,00,00,00
000000087,000002F5,false,0,8,00,0F,0A,20,40,0B,D4,1E
000000088,000000A9,false,0,8,50,78,00,90,F1,00,00,FF
000000089,000001F9,false,0,2,FD,FF,00,00,00,00,00,00
000000090,00000108,false,0,8,00,00,FF,00,00,F0,FF,FF
000000091,000003FD,false,0,5,29,01,00,00,FF,00,00,00
000000092,00000201,false,0,8,00,00,00,00,FF,FF,FF,FF
000000093,00000206,false,0,8,98,21,5F,FF,FF,FF,FF,FF
000000094,000001AE,false,0,2,F7,FF,00,00,00,00,00,00
000000095,00000212,false,0,8,31,F1,F8,FF,FF,FF,FF,FF
000000096,000000A5,false,0,8,B4,F1,FF,F7,7F,00,00,C1
000000097,000000AC,false,0,2,00,F0,00,00,00,00,00,00
000000098,000000D9,false,0,8,10,F1,00,10,00,F0,7F,C8
000000099,000000EF,false,0,8,25,F1,00,7D,21,00,7D,FF
000000100,000000F3,false,0,8,D6,01,00,FF,F0,C0,FF,FF
000000101,00000197,false,0,4,8A,02,0E,C0,00,00,00,00
000000102,000001A1,false,0,5,09,C6,00,00,88,00,00,00
000000103,000002DB,false,0,8,FF,FF,FF,FF,3F,FF,FF,FF
000000104,000002F1,false,0,8,00,00,00,00,00,00,00,00
000000105,000002FA,false,0,8,00,00,00,FF,FF,FF,FF,FF
000000106,0000032B,false,0,8,00,00,00,00,00,00,00,FF
000000107,00000331,false,0,8,FF,FF,FF,0F,00,FE,F7,FF
000000108,0000038C,false,0,2,FC,FF,00,00,00,00,00,00
000000109,000003AD,false,0,8,00,F0,FF,FF,FF,FF,FF,F0
000000110,000003E5,false,0,3,FC,FF,FF,00,00,00,00,00
000000111,000003E8,false,0,2,F0,FF,00,00,00,00,00,00
000000112,000003E9,false,0,8,00,00,00,00,00,00,00,00
000000113,00000100,false,0,8,31,F2,7F,C0,5D,00,00,00
000000114,00000112,false,0,8,FF,FF,FF,FF,FF,7F,F5,FF
000000115,00000512,false,0,8,00,00,00,00,00,00,00,12
000000116,00000592,false,0,8,41,00,00,00,00,00,00,00
000000117,0000003C,false,0,8,FF,5F,00,00,00,00,FF,FF
000000118,000002A1,false,0,5,80,58,02,00,FA,00,00,00
000000119,0000036F,false,0,5,7F,F1,38,00,14,00,00,00
000000120,0000012F,false,0,8,47,2D,86,1C,F2,B1,30,C0
000000121,00000254,false,0,8,FF,7F,FF,7F,FF,7F,FF,7F
000000122,0000015F,false,0,8,F8,F2,00,7D,00,EE,00,7D
000000123,00000258,false,0,2,44,44,00,00,00,00,00,00
000000124,000001D0,false,0,8,31,F1,DF,FF,FF,FF,FF,FF
000000125,000001B9,false,0,5,FF,FF,FF,00,FF,00,00,00
000000126,00000199,false,0,6,FF,FF,F3,7E,FF,8F,00,00
000000127,00000100,false,0,8,6C,F3,7F,C0,5D,00,00,00
000000128,00000112,false,0,8,FF,FF,FF,FF,FF,7F,F5,FF
000000129,0000019A,false,0,6,FF,FF,F3,7E,FF,8F,00,00
000000130,0000019F,false,0,6,FF,FF,00,80,FF,8F,00,00
000000131,000003CB,false,0,4,DE,AD,C8,AB,00,00,00,00
000000132,000002C5,false,0,7,25,F1,00,70,06,20,CA,00
000000133,000003A5,false,0,5,E1,D5,FF,FF,FF,00,00,00
000000134,000000A5,false,0,8,53,F2,FF,F7,7F,00,00,C1
000000135,000000D9,false,0,8,F7,F2,00,10,00,F0,7F,C8
000000136,000000AC,false,0,2,00,F0,00,00,00,00,00,00
000000137,000000EF,false,0,8,C2,F2,00,7D,21,00,7D,FF
000000138,000000F3,false,0,8,31,02,00,FF,F0,C0,FF,FF
000000139,000001A1,false,0,5,FC,C8,00,00,88,00,00,00
000000140,00000349,false,0,5,FE,FF,F4,1A,00,00,00,00
000000141,00000369,false,0,5,FF,F0,FF,FF,FF,00,00,00
000000142,000003B3,false,0,7,1F,00,FF,0F,00,F3,08,00
000000143,00000100,false,0,8,E2,F4,7F,C0,5D,00,00,00
000000144,00000112,false,0,8,FF,FF,FF,FF,FF,7F,F5,FF
000000145,000002B0,false,0,6,3C,44,00,C3,FF,FF,00,00
000000146,0000012F,false,0,8,C9,2E,86,1C,F4,B1,30,C0
000000147,000001E1,false,0,6,EF,F8,45,FF,FF,FF,00,00
000000148,00000254,false,0,8,FF,7F,FF,7F,FF,7F,FF,7F
000000149,0000015F,false,0,8,A5,F3,00,7D,00,EE,00,7D
000000150,00000197,false,0,4,05,03,0E,C0,00,00,00,00
000000151,00000258,false,0,2,44,44,00,00,00,00,00,00
000000152,00000302,false,0,7,FF,FF,FF,7F,F8,FF,FF,00
000000153,000003F9,false,0,8,D8,F2,80,C0,A6,3C,C0,FF
000000154,00000100,false,0,8,BF,F5,7F,C0,5D,00,00,00
000000155,00000112,false,0,8,FF,FF,FF,FF,FF,7F,F5,FF
000000156,00000199,false,0,6,FF,FF,F3,7E,FF,8F,00,00
000000157,0000019A,false,0,6,FF,FF,F3,7E,FF,8F,00,00
000000158,0000019F,false,0,6,FF,FF,00,80,FF,8F,00,00
000000159,00000431,false,0,8,FE,FF,FF,FF,FF,FF,FF,00
000000160,00000540,false,0,8,00,00,00,00,FE,31,FF,40
000000161,00000206,false,0,8,7F,22,5F,FF,FF,FF,FF,FF
000000162,000007BD,false,0,8,00,00,00,C0,FF,40,01,01
000000163,000007BE,false,0,8,05,00,00,00,00,00,00,E0
000000164,1FFFFFFF,true,0,1,00,00,00,00,00,00,00,00
000000165,0000019F,false,0,6,FF,FF,FC,7F,FF,AF,00,00
000000166,000002F5,false,0,8,70,0F,90,21,23,0A,06,10
000000167,000002FA,false,0,8,FD,FF,05,FF,FF,FF,FF,FF
000000168,00000337,false,0,2,FF,FF,00,00,00,00,00,00
000000169,000003B4,false,0,8,10,FF,71,F0,B9,FF,01,00
000000170,00000201,false,0,8,73,00,FF,FF,FF,FF,FF,FF
000000171,1FFFFFFF,true,0,1,00,00,00,00,00,00,00,00
000000172,00000272,false,0,8,41,F6,00,11,FF,FF,FF,FF
000000173,0000012F,false,0,8,25,5E,8A,DD,F4,35,30,88
000000174,000000EF,false,0,8,4C,F5,00,7D,21,00,7D,FF
000000175,00000338,false,0,8,19,01,10,F0,54,2F,32,30
000000176,000000A5,false,0,8,DD,F5,FF,F7,7F,00,00,C1
000000177,000000AC,false,0,2,00,F0,00,00,00,00,00,00
000000178,000000D9,false,0,8,91,F5,00,10,00,F0,7F,C0
000000179,000000F3,false,0,8,BF,05,00,FF,F0,C0,FF,FF
000000180,000001A1,false,0,5,DA,CD,00,00,81,00,00,00
000000181,000002C4,false,0,8,00,00,FF,00,C8,64,FF,CF
000000182,00000304,false,0,6,FF,FF,00,30,FF,FF,00,00
000000183,000003F9,false,0,8,01,F6,80,E0,42,3C,C3,FF
000000184,000003CA,false,0,8,81,70,37,04,04,81,FF,FF
000000185,00000100,false,0,8,FF,FA,7F,C0,5D,AD,87,70
000000186,00000112,false,0,8,EC,1F,53,0F,61,73,05,62
000000187,00000239,false,0,8,FF,C8,45,00,00,FF,FF,FF
000000188,00000581,false,0,8,40,4D,00,29,FF,FF,FF,FF
000000189,00000201,false,0,8,98,00,FF,FF,FF,FF,FF,FF
000000190,00000163,false,0,8,FF,FF,06,A5,FF,FF,FF,FF
000000191,00000173,false,0,8,1A,FA,00,0E,E0,00,DE,00
000000192,0000015F,false,0,8,91,F6,00,7D,00,EE,00,7D
000000193,00000197,false,0,4,00,05,0E,C0,00,00,00,00
000000194,00000254,false,0,8,FF,7F,FF,7F,FF,7F,FF,7F
000000195,00000258,false,0,2,44,44,00,00,00,00,00,00
000000196,00000302,false,0,7,FF,FF,BC,80,F1,FF,FF,00
000000197,0000013A,false,0,8,DE,F3,00,00,00,0E,FF,FF
000000198,000002ED,false,0,3,61,03,02,00,00,00,00,00
000000199,00000560,false,0,8,00,00,00,00,FE,00,00,60
000000200,00000301,false,0,7,FF,FF,A4,80,FF,FF,2F,00
000000201,000007BD,false,0,8,04,00,00,00,00,00,00,80
000000202,000007BE,false,0,8,0B,00,00,00,00,00,00,00
000000203,00000100,false,0,8,A2,FB,7F,C0,5D,AD,87,70
000000204,00000199,false,0,6,FF,FF,9A,7E,FF,BF,00,00
000000205,00000112,false,0,8,EC,1F,54,0F,61,73,05,62
000000206,0000019A,false,0,6,FF,FF,93,7E,FF,2F,00,00
000000207,0000019F,false,0,6,FF,FF,FC,7F,FF,AF,00,00
000000208,000002BB,false,0,5,F3,F0,00,00,F2,00,00,00
000000209,000000A9,false,0,8,50,78,00,90,F1,00,00,FF
000000210,000001F9,false,0,2,FD,FF,00,00,00,00,00,00
000000211,000003FD,false,0,5,56,0C,20,00,FF,00,00,00
000000212,00000108,false,0,8,00,7D,FF,FF,07,F1,FF,FF
000000213,00000201,false,0,8,A0,00,FF,FF,FF,FF,FF,FF
000000214,000002F5,false,0,8,60,0F,00,20,23,0A,06,10
000000215,00000206,false,0,8,F0,2B,5F,FF,FF,FF,FF,FF
000000216,000001AE,false,0,2,F7,FF,00,00,00,00,00,00
000000217,00000212,false,0,8,91,FC,F9,FF,FF,FF,FF,FF
000000218,000000EF,false,0,8,AB,F6,00,7D,21,00,7D,FF
000000219,000002DB,false,0,8,FF,FF,FF,FF,BF,FF,FF,FF
000000220,00000096,false,0,8,58,00,68,96,01,FF,FF,FF
000000221,000000A5,false,0,8,3A,F6,FF,F7,7F,00,00,C1
000000222,000000AC,false,0,2,00,F0,00,00,00,00,00,00
000000223,000000D9,false,0,8,76,F6,00,10,00,F0,7F,C0
000000224,000000F3,false,0,8,58,06,00,FF,F0,C0,FF,FF
000000225,000001A1,false,0,5,95,C0,00,00,81,00,00,00
000000226,000002E8,false,0,8,C0,47,C4,FF,FF,F0,FB,AD
000000227,000002F1,false,0,8,B3,0F,00,00,00,00,00,A0
000000228,000002FA,false,0,8,FD,FF,05,FF,FF,FF,FF,FF
000000229,0000032B,false,0,8,00,00,00,00,00,00,00,FF
000000230,00000331,false,0,8,FF,FF,FF,EF,7F,FE,F7,FF
000000231,000003AD,false,0,8,00,F0,FF,FF,FF,FF,FF,F1
000000232,000003E8,false,0,2,F1,FF,00,00,00,00,00,00
000000233,000003E9,false,0,8,08,52,41,00,00,00,00,00
000000234,0000031E,false,0,8,10,44,45,FF,78,FF,FF,FF
000000235,00000100,false,0,8,2C,FC,7F,C0,5D,AD,87,70
000000236,00000112,false,0,8,ED,1F,54,0F,61,73,05,62
000000237,000002A7,false,0,5,5D,FC,FE,FF,14,00,00,00
000000238,000002A1,false,0,5,80,58,02,00,FA,00,00,00
000000239,0000003C,false,0,8,FF,7F,00,00,00,00,FF,FF
000000240,0000015F,false,0,8,CC,F7,00,7D,00,EE,00,7D
000000241,00000254,false,0,8,FF,7F,FF,7F,FF,7F,FF,7F
000000242,00000258,false,0,2,44,44,00,00,00,00,00,00
000000243,0000013A,false,0,8,50,F4,00,00,00,0E,FF,FF
000000244,00000287,false,0,5,01,0C,FE,80,00,00,00,00
000000245,000001D0,false,0,8,D6,F2,DF,FF,FF,FF,FF,FF
000000246,000001B9,false,0,5,FF,FF,FF,14,FF,00,00,00
000000247,00000100,false,0,8,71,FD,7F,C0,5D,AD,87,70
000000248,00000112,false,0,8,ED,1F,54,0F,61,73,05,62
000000249,00000199,false,0,6,FF,FF,AE,7E,FF,BF,00,00
000000250,0000019A,false,0,6,FF,FF,93,7E,FF,2F,00,00
000000251,0000019F,false,0,6,FF,FF,0E,80,FF,2F,00,00
000000252,000000EF,false,0,8,F6,F7,00,7D,21,00,7D,FF
000000253,000000A5,false,0,8,67,F7,FF,F7,7F,00,00,C1
000000254,000000AC,false,0,2,00,F0,00,00,00,00,00,00
000000255,000000D9,false,0,8,2B,F7,00,10,00,F0,7F,C0
000000256,000000F3,false,0,8,05,07,00,FF,F0,C0,FF,FF
000000257,00000197,false,0,4,8C,06,0E,C0,00,00,00,00
000000258,000001A1,false,0,5,B2,C2,00,00,81,00,00,00
000000259,00000349,false,0,5,FE,FF,F4,1A,00,00,00,00
000000260,000002C5,false,0,7,6C,FC,00,70,06,20,CA,00
000000261,00000100,false,0,8,96,FE,7F,C0,5D,AD,87,70
000000262,00000112,false,0,8,ED,1F,54,0F,61,73,05,62
000000263,00000289,false,0,8,C8,F7,E0,E0,E1,00,E0,01
000000264,000002B0,false,0,6,3C,44,00,C6,FF,FF,00,00
000000265,000001E1,false,0,6,30,FD,45,FF,FF,FF,00,00
000000266,0000021A,false,0,3,00,3C,F7,00,00,00,00,00
000000267,00000096,false,0,8,58,00,68,96,01,FF,FF,FF
000000268,00000254,false,0,8,FF,7F,FF,7F,FF,7F,FF,7F
000000269,0000015F,false,0,8,90,F8,00,7D,00,EE,00,7D
000000270,00000258,false,0,2,44,44,00,00,00,00,00,00
000000271,00000302,false,0,7,FF,FF,BC,80,F1,FF,FF,00
000000272,0000036A,false,0,2,F5,FF,00,00,00,00,00,00
000000273,0000013A,false,0,8,0D,F5,00,00,00,0E,FF,FF
000000274,0000028C,false,0,4,FE,0E,10,F0,00,00,00,00
000000275,00000338,false,0,8,19,01,10,F0,55,32,32,FE
000000276,00000100,false,0,8,97,F0,7F,C0,5D,AD,87,70
000000277,00000112,false,0,8,ED,1F,54,0F,61,73,05,62
000000278,00000199,false,0,6,FF,FF,AE,7E,FF,BF,00,00
000000279,0000019A,false,0,6,FF,FF,6B,7E,FF,2F,00,00
000000280,0000019F,false,0,6,FF,FF,FC,7F,FF,2F,00,00
000000281,00000431,false,0,8,D6,FF,FF,FF,FF,4E,F4,4B
000000282,00000297,false,0,7,C3,E9,F0,E0,F2,92,EA,00
000000283,00000206,false,0,8,87,2C,60,FF,FF,FF,FF,FF
000000284,00000201,false,0,8,BC,00,FF,FF,FF,FF,FF,FF
000000285,000000EF,false,0,8,AA,F8,00,7D,21,00,7D,FF
000000286,000000A5,false,0,8,3B,F8,FF,F7,7F,00,00,C1
000000287,000000AC,false,0,2,00,F0,00,00,00,00,00,00
000000288,000000D9,false,0,8,77,F8,00,10,00,F0,7F,C0
000000289,000000F3,false,0,8,59,08,00,FF,F0,C0,FF,FF
000000290,000001A1,false,0,5,DB,C4,00,00,81,00,00,00
000000291,0000055E,false,0,8,00,00,00,00,00,00,00,5E
000000292,000007BD,false,0,8,00,00,00,C0,FF,C0,01,09
000000293,000007BE,false,0,8,05,00,00,00,00,00,00,E0
000000294,00000100,false,0,8,CA,F1,7F,C0,5D,AD,87,70
000000295,00000112,false,0,8,EE,1F,54,0F,61,73,05,62
000000296,00000432,false,0,8,8C,F5,10,B1,C8,FF,00,FF
000000297,0000036E,false,0,5,30,F7,66,02,14,00,00,00
000000298,00000300,false,0,8,13,12,19,90,65,40,96,01
000000299,0000030C,false,0,5,94,F4,FE,FF,14,00,00,00
000000300,000002A5,false,0,2,FE,FE,00,00,00,00,00,00
000000301,00000254,false,0,8,FF,7F,FF,7F,FF,7F,FF,7F
000000302,0000015F,false,0,8,CD,F9,00,7D,00,EE,00,7D
000000303,00000197,false,0,4,03,07,0E,C0,00,00,00,00
000000304,00000258,false,0,2,44,44,00,00,00,00,00,00
000000305,0000013A,false,0,8,EA,F6,00,00,00,0E,FF,FF
000000306,00000100,false,0,8,2D,F2,7F,C0,5D,AD,87,70
000000307,00000112,false,0,8,EE,1F,54,0F,61,73,05,62
000000308,00000199,false,0,6,FF,FF,AE,7E,FF,BF,00,00
000000309,0000019A,false,0,6,FF,FF,9D,7E,FF,2F,00,00
000000310,0000019F,false,0,6,FF,FF,14,80,FF,2F,00,00
000000311,0000030D,false,0,5,D2,F4,FE,FF,14,00,00,00
000000312,000003C3,false,0,8,73,10,08,82,20,09,92,24
000000313,000000EF,false,0,8,F7,F9,00,7D,21,00,7D,FF
000000314,000000A5,false,0,8,66,F9,FF,F7,7F,00,00,C1
000000315,000000AC,false,0,2,00,F0,00,00,00,00,00,00
000000316,00000096,false,0,8,58,00,68,96,01,FF,FF,FF
000000317,000000D9,false,0,8,2A,F9,00,10,00,F0,7F,C0
000000318,000000F3,false,0,8,04,09,00,FF,F0,C0,FF,FF
000000319,000001A1,false,0,5,FC,C6,00,00,81,00,00,00
000000320,000002AE,false,0,8,FF,FF,FF,FF,FF,FF,FF,00
000000321,000002F9,false,0,7,00,37,00,08,AA,C0,F0,00
000000322,000001B3,false,0,8,FC,19,01,F9,12,78,80,D0
000000323,00000100,false,0,8,70,F3,7F,C0,5D,AD,87,70
000000324,00000112,false,0,8,EE,1F,54,0F,61,73,05,62
000000325,000001FA,false,0,8,41,69,45,F0,43,45,43,43
000000326,00000581,false,0,8,40,B5,00,29,FF,FF,FF,FF
000000327,000003A7,false,0,7,1A,F2,00,00,1F,11,F0,00
000000328,000003E6,false,0,2,82,00,00,00,00,00,00,00
000000329,000002F2,false,0,6,00,00,00,00,FF,FF,00,00
000000330,00000254,false,0,8,FF,7F,FF,7F,FF,7F,FF,7F
000000331,0000015F,false,0,8,2A,FA,00,7D,00,EE,00,7D
000000332,00000258,false,0,2,44,44,00,00,00,00,00,00
000000333,00000302,false,0,7,FF,FF,BC,80,F1,FF,FF,00
000000334,0000013A,false,0,8,B7,F7,00,00,00,0E,FF,FF
000000335,00000100,false,0,8,FE,F4,7F,C0,5D,AD,87,70
000000336,00000112,false,0,8,EE,1F,54,0F,61,73,05,62
000000337,00000199,false,0,6,FF,FF,C2,7E,FF,BF,00,00
000000338,0000019A,false,0,6,FF,FF,9D,7E,FF,2F,00,00
000000339,0000019F,false,0,6,FF,FF,FE,7F,FF,2F,00,00
000000340,0000019B,false,0,8,14,45,40,55,FD,FF,FF,FF
000000341,00000297,false,0,7,09,EA,F0,E0,F2,92,EA,00
000000342,00000363,false,0,8,D5,14,09,09,FF,FF,FF,FF
000000343,00000206,false,0,8,23,2D,5F,FF,FF,FF,FF,FF
000000344,0000012F,false,0,8,24,50,8A,DD,F4,35,30,88
000000345,000000EF,false,0,8,10,FA,00,7D,21,00,7D,FF
000000346,000002C4,false,0,8,00,00,FF,00,C8,64,FF,CF
000000347,000000A5,false,0,8,81,FA,FF,F7,7F,00,00,C1
000000348,000000AC,false,0,2,00,F0,00,00,00,00,00,00
000000349,000000D9,false,0,8,CD,FA,00,10,00,F0,7F,C0
000000350,000000F3,false,0,8,E3,0A,00,FF,F0,C0,FF,FF
000000351,00000197,false,0,4,85,08,0E,C0,00,00,00,00
000000352,000001A1,false,0,5,09,C8,00,00,81,00,00,00
000000353,00000314,false,0,3,50,00,FF,00,00,00,00,00
000000354,00000239,false,0,8,81,BD,45,00,00,FF,FF,FF
000000355,00000351,false,0,5,10,00,FF,FF,FF,00,00,00
000000356,00000100,false,0,8,A3,F5,7F,C0,5D,AD,87,70
000000357,00000112,false,0,8,EE,1F,54,0F,61,73,05,62
000000358,00000431,false,0,8,DA,FF,FF,FF,FF,4E,F4,4B
000000359,000002A7,false,0,5,C0,FD,FE,FF,14,00,00,00
000000360,00000201,false,0,8,DE,00,FF,FF,FF,FF,FF,FF
000000361,00000338,false,0,8,19,01,12,F0,50,2B,31,39
000000362,00000096,false,0,8,58,00,68,96,01,FF,FF,FF
000000363,00000163,false,0,8,FF,FF,07,A5,FF,FF,FF,FF
000000364,0000015F,false,0,8,77,FB,00,7D,00,EE,00,7D
000000365,00000173,false,0,8,46,F5,00,0E,E0,00,DE,00
000000366,00000254,false,0,8,FF,7F,FF,7F,FF,7F,FF,7F
000000367,00000258,false,0,2,44,44,00,00,00,00,00,00
000000368,0000013A,false,0,8,EB,F8,00,00,00,0E,FF,FF
000000369,000007BE,false,0,8,0C,0F,04,68,00,00,00,00
000000370,00000100,false,0,8,44,F6,7F,C0,5D,AD,87,70
000000371,00000199,false,0,6,FF,FF,B8,7E,FF,BF,00,00
000000372,00000112,false,0,8,EE,1F,54,0F,61,73,05,62
000000373,0000019A,false,0,6,FF,FF,7F,7E,FF,2F,00,00
000000374,0000019F,false,0,6,FF,FF,05,80,FF,2F,00,00
000000375,000002BB,false,0,5,48,FA,00,00,F2,00,00,00
000000376,000002E8,false,0,8,C0,51,C4,FF,FF,F0,FC,63
000000377,000000A9,false,0,8,50,78,00,90,F1,00,00,FF
000000378,000002F5,false,0,8,60,0F,00,20,23,0A,06,10
000000379,00000108,false,0,8,00,7D,FF,FF,07,F1,FF,FF
000000380,000003FD,false,0,5,CB,0D,20,00,FF,00,00,00
000000381,00000212,false,0,8,CC,FD,F9,FF,FF,FF,FF,FF
000000382,0000030D,false,0,5,68,F7,FE,FF,14,00,00,00
000000383,00000201,false,0,8,09,02,FF,FF,FF,FF,FF,FF
000000384,000003B4,false,0,8,10,FF,71,F0,B9,FF,01,00
000000385,000000EF,false,0,8,9F,F3,00,7D,21,00,7D,FF
000000386,000000A5,false,0,8,0E,F3,FF,F7,7F,00,00,C1
000000387,00000096,false,0,8,58,00,68,96,01,FF,FF,FF
000000388,000000AC,false,0,2,00,F0,00,00,00,00,00,00
000000389,000000D9,false,0,8,42,F3,00,10,00,F0,7F,C0
000000390,000000F3,false,0,8,6C,03,00,FF,F0,C0,FF,FF
000000391,000001A1,false,0,5,94,C9,00,00,81,00,00,00
000000392,000007BD,false,0,8,00,00,00,C0,FF,C0,01,09
000000393,000007BE,false,0,8,0B,00,00,00,00,00,00,00
000000394,00000100,false,0,8,44,F6,7F,C0,5D,AD,87,70
000000395,00000112,false,0,8,EF,1F,54,0F,60,73,C5,62
000000396,0000037B,false,0,6,40,00,FF,FF,FF,00,00,00
000000397,000002F9,false,0,7,00,37,00,08,82,C0,F0,00
000000398,0000037B,false,0,6,40,00,00,FF,FF,00,00,00
000000399,00000254,false,0,8,FF,7F,FF,7F,FF,7F,FF,7F
000000400,0000015F,false,0,8,2B,F4,00,7D,00,EE,00,7D
000000401,00000258,false,0,2,44,44,00,00,00,00,00,00
000000402,00000302,false,0,7,FF,FF,BC,80,F1,FF,FF,00
000000403,0000013A,false,0,8,64,F1,00,00,00,0E,FF,FF
000000404,000003C3,false,0,8,76,1C,49,02,00,00,00,00
000000405,00000100,false,0,8,19,F7,7F,C0,5D,AD,87,70
000000406,00000112,false,0,8,EF,1F,54,0F,60,73,C5,62
000000407,00000199,false,0,6,FF,FF,9A,7E,FF,BF,00,00
000000408,0000019A,false,0,6,FF,FF,93,7E,FF,2F,00,00
000000409,0000019F,false,0,6,FF,FF,01,80,FF,2F,00,00
000000410,00000206,false,0,8,AD,2A,5F,FF,FF,FF,FF,FF
000000411,000000EF,false,0,8,11,F4,00,7D,21,00,7D,FF
000000412,000000A5,false,0,8,80,F4,FF,F7,7F,00,00,C1
000000413,000000AC,false,0,2,00,F0,00,00,00,00,00,00
000000414,000000D9,false,0,8,CC,F4,00,10,00,F0,7F,C0
000000415,000000F3,false,0,8,E2,04,00,FF,F0,C0,FF,FF
000000416,00000197,false,0,4,0A,09,0E,C0,00,00,00,00
000000417,000001A1,false,0,5,B3,CB,00,00,81,00,00,00
000000418,000002AE,false,0,8,FF,FF,FF,FF,FF,FF,FF,00
000000419,00000314,false,0,3,50,00,FF,00,00,00,00,00
000000420,000001B3,false,0,8,FC,19,01,FE,12,78,80,D5
000000421,00000100,false,0,8,45,F8,7F,C0,5D,AD,87,70
000000422,00000112,false,0,8,EF,1F,54,0F,60,73,C5,62
000000423,000002A7,false,0,5,C1,F4,FE,FF,14,00,00,00
000000424,000002F2,false,0,6,00,00,00,00,FF,FF,00,00
000000425,00000096,false,0,8,58,00,68,96,01,FF,FF,FF
000000426,0000015F,false,0,8,76,F5,00,7D,00,EE,00,7D
000000427,00000254,false,0,8,FF,7F,FF,7F,FF,7F,FF,7F
000000428,00000258,false,0,2,44,44,00,00,00,00,00,00
000000429,0000013A,false,0,8,83,F2,00,00,00,0E,FF,FF
000000430,00000100,false,0,8,18,F9,7F,C0,5D,AD,87,70
000000431,00000112,false,0,8,EE,1F,54,0F,60,73,C5,62
000000432,00000199,false,0,6,FF,FF,AE,7E,FF,BF,00,00
000000433,0000019A,false,0,6,FF,FF,89,7E,FF,2F,00,00
000000434,0000019F,false,0,6,FF,FF,F6,7F,FF,2F,00,00
000000435,0000012F,false,0,8,10,55,8A,DD,F4,35,30,88
000000436,00000272,false,0,8,1D,F9,00,11,FF,FF,FF,FF
000000437,000000EF,false,0,8,4C,F5,00,7D,21,00,7D,FF
000000438,000002C4,false,0,8,00,00,FF,00,C8,64,FF,CF
000000439,000000A5,false,0,8,DD,F5,FF,F7,7F,00,00,C1
000000440,000000AC,false,0,2,00,F0,00,00,00,00,00,00
000000441,000000D9,false,0,8,91,F5,00,10,00,F0,7F,C0
000000442,000000F3,false,0,8,BF,05,00,FF,F0,C0,FF,FF
000000443,000001A1,false,0,5,DA,CD,00,00,81,00,00,00
000000444,00000304,false,0,6,FF,FF,9D,34,FF,FF,00,00
000000445,00000338,false,0,8,19,01,10,F0,54,2F,32,30
000000446,00000100,false,0,8,FF,FA,7F,C0,5D,AD,87,70
000000447,00000112,false,0,8,EE,1F,54,0F,60,73,C5,62
000000448,00000239,false,0,8,31,A1,45,00,00,FF,FF,FF
000000449,00000201,false,0,8,2B,02,2B,02,FF,FF,FF,FF
000000450,00000356,false,0,8,71,F0,06,FF,FF,FF,FF,FF
000000451,00000163,false,0,8,FF,FF,0A,A5,FF,FF,FF,FF
000000452,00000173,false,0,8,1A,FA,00,0E,E0,00,DE,00
000000453,0000015F,false,0,8,91,F6,00,7D,00,EE,00,7D
000000454,00000197,false,0,4,86,0A,0E,C0,00,00,00,00
000000455,00000254,false,0,8,FF,7F,FF,7F,FF,7F,FF,7F
000000456,00000258,false,0,2,44,44,00,00,00,00,00,00
000000457,00000302,false,0,7,FF,FF,BC,80,F1,FF,FF,00
000000458,000005E0,false,0,8,11,03,00,02,09,28,D5,01
000000459,0000013A,false,0,8,DE,F3,00,00,00,0E,FF,FF
000000460,00000301,false,0,7,FF,FF,A3,80,FF,FF,2F,00
000000461,00000100,false,0,8,A2,FB,7F,C0,5D,AD,87,70
000000462,00000199,false,0,6,FF,FF,A4,7E,FF,BF,00,00
000000463,00000112,false,0,8,EE,1F,54,0F,60,73,C5,62
000000464,0000019A,false,0,6,FF,FF,89,7E,FF,2F,00,00
000000465,0000019F,false,0,6,FF,FF,05,80,FF,2F,00,00
000000466,000002BB,false,0,5,F3,F0,00,00,F2,00,00,00
000000467,000002F5,false,0,8,60,0F,00,20,23,0A,06,10
000000468,000000A9,false,0,8,50,78,00,90,F1,00,00,FF
000000469,000002E8,false,0,8,C0,83,C4,FF,FF,F0,F2,AD
000000470,00000108,false,0,8,00,7D,FF,FF,07,F1,FF,FF
000000471,000003FD,false,0,5,3E,03,20,00,FF,00,00,00
000000472,00000206,false,0,8,F0,2B,5F,FF,FF,FF,FF,FF
000000473,00000212,false,0,8,CD,F3,F9,FF,FF,FF,FF,FF
000000474,000001AE,false,0,2,F7,FF,00,00,00,00,00,00
000000475,000002DB,false,0,8,FF,FF,FF,FF,BF,FF,FF,FF
000000476,000000EF,false,0,8,AB,F6,00,7D,21,00,7D,FF
000000477,00000096,false,0,8,58,00,68,96,01,FF,FF,FF
000000478,000002F1,false,0,8,A2,0F,00,00,00,00,00,A0
000000479,000000A5,false,0,8,3A,F6,FF,F7,7F,00,00,C1
000000480,000000AC,false,0,2,00,F0,00,00,00,00,00,00
000000481,000000D9,false,0,8,76,F6,00,10,00,F0,7F,C0
000000482,000000F3,false,0,8,58,06,00,FF,F0,C0,FF,FF
000000483,000001A1,false,0,5,95,C0,00,00,81,00,00,00
000000484,0000032B,false,0,8,00,00,00,00,00,00,00,FF
000000485,00000331,false,0,8,FF,FF,FF,EF,7F,FE,F7,FF
000000486,000003E9,false,0,8,08,52,41,00,00,00,00,00
000000487,00000100,false,0,8,2C,FC,7F,C0,5D,AD,87,70
000000488,00000112,false,0,8,EE,1F,54,0F,60,73,C5,62
000000489,000002A1,false,0,5,80,58,02,00,FA,00,00,00
000000490,0000036F,false,0,5,20,FB,FE,FF,14,00,00,00
000000491,0000003C,false,0,8,FF,7F,00,00,00,00,FF,FF
000000492,0000015F,false,0,8,CC,F7,00,7D,00,EE,00,7D
000000493,00000254,false,0,8,FF,7F,FF,7F,FF,7F,FF,7F
000000494,00000258,false,0,2,44,44,00,00,00,00,00,00
000000495,0000013A,false,0,8,50,F4,00,00,00,0E,FF,FF
000000496,00000100,false,0,8,71,FD,7F,C0,5D,AD,87,70
000000497,00000112,false,0,8,EE,1F,54,0F,60,73,C5,62
000000498,00000199,false,0,6,FF,FF,B8,7E,FF,BF,00,00
000000499,0000019A,false,0,6,FF,FF,9D,7E,FF,2F,00,00
000000500,0000019F,false,0,6,FF,FF,09,80,FF,2F,00,00
000000501,000000EF,false,0,8,F6,F7,00,7D,21,00,7D,FF
000000502,000000A5,false,0,8,67,F7,FF,F7,7F,00,00,C1
000000503,000000AC,false,0,2,00,F0,00,00,00,00,00,00
000000504,000000D9,false,0,8,2B,F7,00,10,00,F0,7F,C0
000000505,000000F3,false,0,8,05,07,00,FF,F0,C0,FF,FF
000000506,00000197,false,0,4,09,0B,0E,C0,00,00,00,00
000000507,000001A1,false,0,5,B2,C2,00,00,81,00,00,00
000000508,00000112,false,0,8,ED,1F,53,0F,60,73,C5,62
000000509,000005F8,false,0,8,6E,0C,00,FC,FF,FF,FF,FF
000000510,00000096,false,0,8,58,00,68,96,01,FF,FF,FF
000000511,00000254,false,0,8,FF,7F,FF,7F,FF,7F,FF,7F
000000512,0000015F,false,0,8,43,FE,00,7D,00,EE,00,7D
000000513,00000258,false,0,2,44,44,00,00,00,00,00,00
000000514,00000302,false,0,7,FF,FF,BC,80,F1,FF,FF,00
000000515,0000013A,false,0,8,0C,FB,00,00,00,0E,FF,FF
000000516,00000100,false,0,8,2C,FC,7F,C0,5D,AD,87,70
000000517,00000112,false,0,8,ED,1F,53,0F,60,73,C5,62
000000518,00000199,false,0,6,FF,FF,CC,7E,FF,BF,00,00
000000519,0000019A,false,0,6,FF,FF,89,7E,FF,2F,00,00
000000520,0000019F,false,0,6,FF,FF,FA,7F,FF,2F,00,00
000000521,00000206,false,0,8,C5,20,5F,FF,FF,FF,FF,FF
000000522,000000EF,false,0,8,79,FE,00,7D,21,00,7D,FF
000000523,000000A5,false,0,8,E8,FE,FF,F7,7F,00,00,C1
000000524,000000AC,false,0,2,00,F0,00,00,00,00,00,00
000000525,000000D9,false,0,8,A4,FE,00,10,00,F0,7F,C0
000000526,000000F3,false,0,8,8A,0E,00,FF,F0,C0,FF,FF
000000527,000001A1,false,0,5,08,C1,00,00,81,00,00,00
000000528,000002AE,false,0,8,FF,FF,FF,FF,FF,FF,FF,00
000000529,00000314,false,0,3,50,00,FF,00,00,00,00,00
000000530,000001B3,false,0,8,FC,19,01,F7,12,78,80,CE
000000531,00000100,false,0,8,71,FD,7F,C0,5D,AD,87,70
000000532,00000112,false,0,8,ED,1F,53,0F,60,73,C5,62
000000533,000002A7,false,0,5,7A,FE,FE,FF,14,00,00,00
000000534,000002F2,false,0,6,00,00,00,00,FF,FF,00,00
000000535,00000254,false,0,8,FF,7F,FF,7F,FF,7F,FF,7F
000000536,0000015F,false,0,8,42,F0,00,7D,00,EE,00,7D
000000537,00000197,false,0,4,8C,06,0E,C0,00,00,00,00
000000538,00000258,false,0,2,44,44,00,00,00,00,00,00
000000539,0000013A,false,0,8,82,FC,00,00,00,0E,FF,FF
000000540,00000378,false,0,3,11,F6,21,00,00,00,00,00
000000541,00000100,false,0,8,96,FE,7F,C0,5D,AD,87,70
000000542,00000112,false,0,8,ED,1F,53,0F,60,73,C5,62
000000543,00000199,false,0,6,FF,FF,AE,7E,FF,BF,00,00
000000544,0000019A,false,0,6,FF,FF,9D,7E,FF,2F,00,00
000000545,0000019F,false,0,6,FF,FF,F9,7F,FF,2F,00,00
000000546,0000012F,false,0,8,C2,5D,8A,DD,F4,35,30,88
000000547,00000272,false,0,8,32,FD,01,11,FF,FF,FF,FF
000000548,000000EF,false,0,8,78,F0,00,7D,21,00,7D,FF
000000549,000000A5,false,0,8,E9,F0,FF,F7,7F,00,00,C1
000000550,00000096,false,0,8,58,00,68,96,01,FF,FF,FF
000000551,000000AC,false,0,2,00,F0,00,00,00,00,00,00
000000552,000000D9,false,0,8,A5,F0,00,10,00,F0,7F,C0
000000553,000000F3,false,0,8,8B,00,00,FF,F0,C0,FF,FF
000000554,000001A1,false,0,5,2F,C3,00,00,81,00,00,00
000000555,000002C4,false,0,8,00,00,FF,00,C8,64,FF,CF
000000556,00000304,false,0,6,FF,FF,C2,38,FF,FF,00,00
000000557,000003CA,false,0,8,89,70,37,0B,0B,71,FF,FF
000000558,00000100,false,0,8,97,F0,7F,C0,5D,AD,87,70
000000559,00000112,false,0,8,ED,1F,53,0F,60,73,C5,62
000000560,00000239,false,0,8,31,A1,45,00,00,FF,FF,FF
000000561,00000201,false,0,8,66,04,66,04,FF,FF,FF,FF
000000562,000005E0,false,0,8,11,03,00,07,09,28,D4,01
000000563,00000163,false,0,8,FF,FF,0C,A5,FF,FF,FF,FF
000000564,00000173,false,0,8,AB,F0,00,02,20,00,D2,10
000000565,0000015F,false,0,8,1F,F1,00,7D,00,EE,00,7D
000000566,00000254,false,0,8,FF,7F,FF,7F,FF,7F,FF,7F
000000567,00000258,false,0,2,44,44,00,00,00,00,00,00
000000568,00000302,false,0,7,FF,FF,BC,80,F1,FF,FF,00
000000569,0000013A,false,0,8,DF,FD,00,00,00,0E,FF,FF
000000570,000007BE,false,0,8,00,C0,FA,1C,02,00,00,00
000000571,00000301,false,0,7,FF,FF,A4,80,FF,FF,2F,00
000000572,00000100,false,0,8,CA,F1,7F,C0,5D,AD,87,70
000000573,00000112,false,0,8,ED,1F,53,0F,60,73,C5,62
000000574,00000199,false,0,6,FF,FF,CC,7E,FF,BF,00,00
000000575,0000019A,false,0,6,FF,FF,7F,7E,FF,2F,00,00
000000576,0000019F,false,0,6,FF,FF,FF,7F,FF,2F,00,00
000000577,000002F5,false,0,8,60,0F,00,20,22,0A,06,10
000000578,000002BB,false,0,5,20,F5,00,00,F2,00,00,00
000000579,000000A9,false,0,8,50,78,00,90,F1,00,00,FF
000000580,000002E8,false,0,8,C0,D3,C4,FF,FF,F0,FA,01
000000581,00000108,false,0,8,00,7D,FF,FF,07,F1,FF,FF
000000582,000003FD,false,0,5,A2,0B,20,00,FF,00,00,00
000000583,00000206,false,0,8,98,21,5F,FF,FF,FF,FF,FF
000000584,00000212,false,0,8,1F,FB,F9,FF,FF,FF,FF,FF
000000585,000001AE,false,0,2,F7,FF,00,00,00,00,00,00
000000586,000002DB,false,0,8,FF,FF,FF,FF,BF,FF,FF,FF
000000587,000000EF,false,0,8,25,F1,00,7D,21,00,7D,FF
000000588,000002F1,false,0,8,A2,0F,00,00,00,00,00,A0
000000589,0000032B,false,0,8,00,00,00,00,00,00,00,FF
000000590,000000A5,false,0,8,B4,F1,FF,F7,7F,00,00,C1
000000591,000000AC,false,0,2,00,F0,00,00,00,00,00,00
000000592,000000D9,false,0,8,F8,F1,00,10,00,F0,7F,C0
000000593,000000F3,false,0,8,D6,01,00,FF,F0,C0,FF,FF
000000594,00000197,false,0,4,03,07,0E,C0,00,00,00,00
000000595,000001A1,false,0,5,46,C5,00,00,81,00,00,00
000000596,00000331,false,0,8,FF,FF,FF,EF,7F,FE,F7,FF
000000597,000003E9,false,0,8,08,52,41,00,00,00,00,00
000000598,00000100,false,0,8,2D,F2,7F,C0,5D,AD,87,70
000000599,00000112,false,0,8,ED,1F,53,0F,60,73,C5,62
000000600,000002A1,false,0,5,80,58,02,00,FA,00,00,00
000000601,0000036F,false,0,5,9B,F1,FE,FF,14,00,00,00
000000602,00000334,false,0,2,0F,00,00,00,00,00,00,00
000000603,0000003C,false,0,8,FF,7F,00,00,00,00,FF,FF
000000604,0000015F,false,0,8,F8,F2,00,7D,00,EE,00,7D
000000605,00000096,false,0,8,58,00,68,96,01,FF,FF,FF
000000606,00000254,false,0,8,FF,7F,FF,7F,FF,7F,FF,7F
000000607,00000258,false,0,2,44,44,00,00,00,00,00,00
000000608,0000013A,false,0,8,38,FE,00,00,00,0E,FF,FF
000000609,00000100,false,0,8,70,F3,7F,C0,5D,AD,87,70
000000610,00000112,false,0,8,ED,1F,53,0F,60,73,C5,62
000000611,00000199,false,0,6,FF,FF,AE,7E,FF,BF,00,00
000000612,0000019A,false,0,6,FF,FF,89,7E,FF,2F,00,00
000000613,0000019F,false,0,6,FF,FF,EF,7F,FF,2F,00,00
000000614,000000EF,false,0,8,C2,F2,00,7D,21,00,7D,FF
000000615,000000A5,false,0,8,53,F2,FF,F7,7F,00,00,C1
000000616,000000AC,false,0,2,00,F0,00,00,00,00,00,00
000000617,000000D9,false,0,8,1F,F2,00,10,00,F0,7F,C0
000000618,000000F3,false,0,8,31,02,00,FF,F0,C0,FF,FF
000000619,000001A1,false,0,5,61,C7,00,00,81,00,00,00
000000620,00000349,false,0,5,FE,FF,FE,1A,00,00,00,00
000000621,00000327,false,0,5,55,40,40,C1,E4,00,00,00
000000622,00000198,false,0,8,FF,A3,02,50,FE,FE,00,FF
000000623,00000098,false,0,8,7E,02,00,00,00,FB,FF,FF
000000624,000002C5,false,0,7,A3,FB,00,70,06,20,CA,00
000000625,00000100,false,0,8,FE,F4,7F,C0,5D,AD,87,70
000000626,00000112,false,0,8,ED,1F,53,0F,60,73,C5,62
000000627,0000059A,false,0,8,11,00,00,03,06,28,2A,01
000000628,00000289,false,0,8,95,F6,E0,E0,E1,00,E0,01
000000629,000002B0,false,0,6,3C,44,06,C6,FF,FF,00,00
000000630,000001E1,false,0,6,47,F5,45,FF,FF,FF,00,00
000000631,00000254,false,0,8,FF,7F,FF,7F,FF,7F,FF,7F
000000632,0000015F,false,0,8,A5,F3,00,7D,00,EE,00,7D
000000633,00000197,false,0,4,85,08,0E,C0,00,00,00,00
000000634,1FFFFFFF,true,0,1,00,00,00,00,00,00,00,00
000000635,000002A7,false,0,5,C1,F4,FE,FF,14,00,00,00
000000636,1FFFFFFF,true,0,1,00,00,00,00,00,00,00,00
000000637,00000112,false,0,8,F0,1F,54,0F,60,73,C5,62
000000638,00000199,false,0,6,FF,FF,A4,7E,FF,BF,00,00
000000639,0000019A,false,0,6,FF,FF,89,7E,FF,2F,00,00
000000640,0000019F,false,0,6,FF,FF,FA,7F,FF,2F,00,00
000000641,1FFFFFFF,true,0,1,00,00,00,00,00,00,00,00
000000642,00000100,false,0,8,2C,FC,7F,C0,5D,AD,87,70
000000643,00000112,false,0,8,F0,1F,54,0F,60,73,C5,62
000000644,1FFFFFFF,true,0,1,00,00,00,00,00,00,00,00
000000645,00000100,false,0,8,96,FE,7F,C0,5D,AD,87,70
000000646,00000112,false,0,8,F0,1F,54,0F,60,73,C5,62
000000647,000002C5,false,0,7,0F,FD,00,60,06,20,CA,00
000000648,00000289,false,0,8,C8,F7,E0,E0,E1,00,E0,01
000000649,000002B0,false,0,6,3C,44,06,C6,FF,FF,00,00
000000650,000001E1,false,0,6,30,FD,45,FF,FF,FF,00,00
000000651,00000254,false,0,8,FF,7F,FF,7F,FF,7F,FF,7F
000000652,0000015F,false,0,8,90,F8,00,7D,00,EE,00,7D
000000653,00000258,false,0,2,44,44,00,00,00,00,00,00
000000654,00000302,false,0,7,FF,FF,BC,80,F1,FF,FF,00
000000655,0000013A,false,0,8,0D,F5,00,00,00,0E,FF,FF
000000656,00000100,false,0,8,97,F0,7F,C0,5D,AD,87,70
000000657,00000112,false,0,8,F0,1F,54,0F,60,73,C5,62
000000658,00000199,false,0,6,FF,FF,B8,7E,FF,BF,00,00
000000659,0000019A,false,0,6,FF,FF,9D,7E,FF,2F,00,00
000000660,0000019F,false,0,6,FF,FF,10,80,FF,2F,00,00
000000661,00000431,false,0,8,DA,FF,FF,FF,FF,7B,F3,4B
000000662,00000206,false,0,8,7E,2C,5F,FF,FF,FF,FF,FF
000000663,00000201,false,0,8,C8,08,C8,08,FF,FF,FF,FF
000000664,000000EF,false,0,8,AA,F8,00,7D,21,00,7D,FF
000000665,000000A5,false,0,8,3B,F8,FF,F7,7F,00,00,C1
000000666,000000AC,false,0,2,00,F0,00,00,00,00,00,00
000000667,000000D9,false,0,8,77,F8,00,10,00,F0,7F,C0
000000668,000000F3,false,0,8,59,08,00,FF,F0,C0,FF,FF
000000669,000001A1,false,0,5,DB,C4,00,00,81,00,00,00
000000670,00000100,false,0,8,CA,F1,7F,C0,5D,AD,87,70
000000671,00000112,false,0,8,F0,1F,54,0F,60,73,C5,62
000000672,00000432,false,0,8,8C,F5,10,B1,C8,FF,00,FF
000000673,000007BD,false,0,8,00,00,00,C0,FF,C0,01,09
000000674,000002A7,false,0,5,5C,F5,FE,FF,14,00,00,00
000000675,000007BE,false,0,8,05,00,00,00,00,00,00,E0
000000676,00000254,false,0,8,FF,7F,FF,7F,FF,7F,FF,7F
000000677,0000015F,false,0,8,CD,F9,00,7D,00,EE,00,7D
000000678,00000197,false,0,4,8A,02,0E,C0,00,00,00,00
000000679,00000258,false,0,2,44,44,00,00,00,00,00,00
000000680,0000013A,false,0,8,EA,F6,00,00,00,0E,FF,FF
000000681,00000100,false,0,8,2D,F2,7F,C0,5D,AD,87,70
000000682,00000112,false,0,8,F0,1F,54,0F,60,73,C5,62
000000683,00000199,false,0,6,FF,FF,B8,7E,FF,BF,00,00
000000684,0000019A,false,0,6,FF,FF,93,7E,FF,2F,00,00
000000685,0000019F,false,0,6,FF,FF,10,80,FF,2F,00,00
000000686,000000EF,false,0,8,F7,F9,00,7D,21,00,7D,FF
000000687,000000A5,false,0,8,66,F9,FF,F7,7F,00,00,C1
000000688,000000AC,false,0,2,00,F0,00,00,00,00,00,00
000000689,000000D9,false,0,8,2A,F9,00,10,00,F0,7F,C0
000000690,000000F3,false,0,8,04,09,00,FF,F0,C0,FF,FF
000000691,000001A1,false,0,5,FC,C6,00,00,81,00,00,00
000000692,000002F0,false,0,3,35,DD,F0,00,00,00,00,00
000000693,000002F9,false,0,7,00,00,00,08,82,C0,F3,00
000000694,00000100,false,0,8,70,F3,7F,C0,5D,AD,87,70
000000695,00000112,false,0,8,F0,1F,54,0F,60,73,C5,62
000000696,000001FA,false,0,8,41,65,45,F0,43,45,43,43
000000697,000003A7,false,0,7,D5,F5,00,00,1F,11,F0,00
000000698,000003E6,false,0,2,82,00,00,00,00,00,00,00
000000699,00000254,false,0,8,FF,7F,FF,7F,FF,7F,FF,7F
000000700,0000015F,false,0,8,2A,FA,00,7D,00,EE,00,7D
000000701,00000258,false,0,2,44,44,00,00,00,00,00,00
000000702,00000302,false,0,7,FF,FF,BC,80,F1,FF,FF,00
000000703,0000013A,false,0,8,B7,F7,00,00,00,0E,FF,FF
000000704,00000100,false,0,8,FE,F4,7F,C0,5D,AD,87,70
000000705,00000112,false,0,8,F0,1F,54,0F,60,73,C5,62
000000706,00000199,false,0,6,FF,FF,C2,7E,FF,BF,00,00
000000707,0000019A,false,0,6,FF,FF,9D,7E,FF,2F,00,00
000000708,0000019F,false,0,6,FF,FF,F1,7F,FF,2F,00,00
000000709,0000019B,false,0,8,14,45,40,55,FD,FF,FF,FF
000000710,00000363,false,0,8,D5,14,09,09,FF,FF,FF,FF
000000711,00000297,false,0,7,4F,EB,F0,E0,F2,92,EA,00
000000712,00000206,false,0,8,DA,2D,60,FF,FF,FF,FF,FF
000000713,000000EF,false,0,8,10,FA,00,7D,21,00,7D,FF
000000714,000002C4,false,0,8,00,00,FF,00,C8,64,FF,CF
000000715,000000A5,false,0,8,81,FA,FF,F7,7F,00,00,C1
000000716,000000AC,false,0,2,00,F0,00,00,00,00,00,00
000000717,000000D9,false,0,8,CD,FA,00,10,00,F0,7F,C0
000000718,000000F3,false,0,8,E3,0A,00,FF,F0,C0,FF,FF
000000719,00000197,false,0,4,05,03,0E,C0,00,00,00,00
000000720,000001A1,false,0,5,09,C8,00,00,81,00,00,00
000000721,00000100,false,0,8,A3,F5,7F,C0,5D,AD,87,70
000000722,00000112,false,0,8,F0,1F,54,0F,60,73,C5,62
000000723,00000300,false,0,8,17,5E,59,96,65,59,96,65
000000724,0000036E,false,0,5,EF,FB,FE,FF,14,00,00,00
000000725,0000030C,false,0,5,46,F8,FE,FF,14,00,00,00
000000726,00000201,false,0,8,E7,08,E7,08,FF,FF,FF,FF
000000727,00000163,false,0,8,FF,FF,0D,A5,FF,FF,FF,FF
000000728,00000173,false,0,8,0F,F5,00,0E,30,00,DE,10
000000729,0000015F,false,0,8,77,FB,00,7D,00,EE,00,7D
000000730,00000254,false,0,8,FF,7F,FF,7F,FF,7F,FF,7F
000000731,00000258,false,0,2,44,44,00,00,00,00,00,00
000000732,0000013A,false,0,8,EB,F8,00,00,00,0E,FF,FF
000000733,00000100,false,0,8,44,F6,7F,C0,5D,AD,87,70
000000734,00000112,false,0,8,F0,1F,53,0F,60,73,C5,62
000000735,00000199,false,0,6,FF,FF,B8,7E,FF,BF,00,00
000000736,0000019A,false,0,6,FF,FF,9D,7E,FF,2F,00,00
000000737,0000019F,false,0,6,FF,FF,10,80,FF,2F,00,00
000000738,000007BE,false,0,8,0C,41,04,68,00,00,00,00
000000739,000002F5,false,0,8,60,0F,00,20,22,0A,06,10
000000740,000002BB,false,0,5,48,FA,00,00,F2,00,00,00
000000741,000000A9,false,0,8,50,78,00,90,F1,00,00,FF
000000742,000002E8,false,0,8,C0,18,C5,FF,FF,F4,FC,38
000000743,0000030D,false,0,5,00,F8,FE,FF,14,00,00,00
000000744,00000108,false,0,8,00,7D,FF,FF,07,F1,FF,FF
000000745,000003FD,false,0,5,CB,0D,20,00,FF,00,00,00
000000746,0000012F,false,0,8,BE,2B,86,6C,F4,35,30,00
000000747,00000212,false,0,8,CC,FD,F9,FF,FF,FF,FF,FF
000000748,000001AE,false,0,2,F7,FF,00,00,00,00,00,00
000000749,000002DB,false,0,8,FF,FF,FF,FF,BF,FF,FF,FF
000000750,000000EF,false,0,8,4D,FB,00,7D,21,00,7D,FF
000000751,000002F1,false,0,8,A2,0F,00,00,00,00,00,A0
000000752,000000A5,false,0,8,DC,FB,FF,F7,7F,00,00,C1
000000753,000000AC,false,0,2,00,F0,00,00,00,00,00,00
000000754,000000D9,false,0,8,90,FB,00,10,00,F0,7F,C0
000000755,000000F3,false,0,8,BE,0B,00,FF,F0,C0,FF,FF
000000756,000001A1,false,0,5,2E,CA,00,00,81,00,00,00
000000757,00000100,false,0,8,19,F7,7F,C0,5D,AD,87,70
000000758,00000112,false,0,8,F0,1F,53,0F,60,73,C5,62
000000759,000002A1,false,0,5,80,58,02,00,FA,00,00,00
000000760,000000C0,false,0,2,F4,40,00,00,00,00,00,00
000000761,0000003C,false,0,8,FF,5F,00,04,00,00,FF,FF
000000762,0000015F,false,0,8,F9,FC,00,7D,00,EE,00,7D
000000763,00000254,false,0,8,FF,7F,FF,7F,FF,7F,FF,7F
000000764,00000197,false,0,4,8F,04,0E,C0,00,00,00,00
000000765,00000258,false,0,2,44,44,00,00,00,00,00,00
000000766,00000302,false,0,7,FF,FF,BC,80,F1,FF,FF,00
000000767,0000013A,false,0,8,B6,F9,00,00,00,0E,FF,FF
000000768,00000100,false,0,8,45,F8,7F,C0,5D,AD,87,70
000000769,00000112,false,0,8,F0,1F,53,0F,60,73,C5,62
000000770,00000199,false,0,6,FF,FF,AE,7E,FF,BF,00,00
000000771,0000019A,false,0,6,FF,FF,9D,7E,FF,2F,00,00
000000772,0000019F,false,0,6,FF,FF,03,80,FF,2F,00,00
000000773,00000206,false,0,8,C4,2E,5F,FF,FF,FF,FF,FF
000000774,000000EF,false,0,8,C3,FC,00,7D,21,00,7D,FF
000000775,000000A5,false,0,8,52,FC,FF,F7,7F,00,00,C1
000000776,000000D9,false,0,8,1E,FC,00,10,00,F0,7F,C0
000000777,000000AC,false,0,2,00,F0,00,00,00,00,00,00
000000778,000000F3,false,0,8,30,0C,00,FF,F0,C0,FF,FF
000000779,000001A1,false,0,5,47,CC,00,00,81,00,00,00
000000780,00000314,false,0,3,50,00,FF,00,00,00,00,00
000000781,00000100,false,0,8,18,F9,7F,C0,5D,AD,87,70
000000782,00000112,false,0,8,F0,1F,53,0F,60,73,C5,62
000000783,000002C5,false,0,7,C5,FE,00,60,06,20,CA,00
000000784,00000289,false,0,8,94,F8,E0,E0,E1,00,E0,01
000000785,000002A7,false,0,5,E6,F6,FE,FF,14,00,00,00
000000786,000002B0,false,0,6,3C,44,06,C6,FF,FF,00,00
000000787,0000031C,false,0,8,70,24,00,FF,FF,FF,FF,FF
000000788,0000033B,false,0,6,7B,F4,F8,FF,FF,FF,00,00
000000789,00000254,false,0,8,FF,7F,FF,7F,FF,7F,FF,7F
000000790,0000015F,false,0,8,A4,FD,00,7D,00,EE,00,7D
000000791,00000258,false,0,2,44,44,00,00,00,00,00,00
000000792,0000013A,false,0,8,51,FA,00,00,00,0E,FF,FF
000000793,1FFFFFFF,true,0,1,00,00,00,00,00,00,00,00
000000794,000000EF,false,0,8,10,FA,00,7D,21,00,7D,FF
000000795,000002C4,false,0,8,00,00,FF,00,C8,64,FF,CF
000000796,000000A5,false,0,8,81,FA,FF,F7,7F,00,00,C1
000000797,000000AC,false,0,2,00,F0,00,00,00,00,00,00
000000798,000000D9,false,0,8,CD,FA,00,10,00,F0,7F,C0
000000799,000000F3,false,0,8,E3,0A,00,FF,F0,C0,FF,FF
000000800,00000197,false,0,4,05,03,0E,C0,00,00,00,00
000000801,000001A1,false,0,5,09,C8,00,00,81,00,00,00
000000802,00000304,false,0,6,FF,FF,E9,38,FF,FF,00,00
000000803,000003F9,false,0,8,BA,FA,80,E0,42,3C,C3,FF
000000804,1FFFFFFF,true,0,1,00,00,00,00,00,00,00,00
000000805,00000112,false,0,8,F1,1F,54,0F,60,73,C5,62
000000806,00000300,false,0,8,1D,7A,59,96,65,59,96,65
000000807,00000432,false,0,8,8C,F5,10,B1,C8,FF,00,FF
000000808,000005F8,false,0,8,64,05,00,00,00,00,00,06
000000809,0000036E,false,0,5,EE,F2,FE,FF,14,00,00,00
000000810,000007BD,false,0,8,00,00,00,C0,FF,C0,01,08
000000811,000007BE,false,0,8,05,00,00,00,00,00,00,E0
000000812,0000030C,false,0,5,2F,FE,FE,FF,14,00,00,00
000000813,00000254,false,0,8,FF,7F,FF,7F,FF,7F,FF,7F
000000814,0000015F,false,0,8,43,FE,00,7D,00,EE,00,7D
000000815,00000258,false,0,2,44,44,00,00,00,00,00,00
000000816,0000013A,false,0,8,0C,FB,00,00,00,0E,FF,FF
000000817,00000100,false,0,8,2C,FC,7F,C0,5D,AD,87,70
000000818,00000112,false,0,8,F1,1F,54,0F,60,73,C5,62
000000819,00000199,false,0,6,FF,FF,AE,7E,FF,BF,00,00
000000820,0000019A,false,0,6,FF,FF,7F,7E,FF,2F,00,00
000000821,0000019F,false,0,6,FF,FF,F9,7F,FF,2F,00,00
000000822,0000024D,false,0,2,C0,FF,00,00,00,00,00,00
000000823,0000030D,false,0,5,69,FE,FE,FF,14,00,00,00
000000824,000000EF,false,0,8,79,FE,00,7D,21,00,7D,FF
000000825,000000A5,false,0,8,E8,FE,FF,F7,7F,00,00,C1
000000826,000000AC,false,0,2,00,F0,00,00,00,00,00,00
000000827,000000D9,false,0,8,A4,FE,00,10,00,F0,7F,C0
000000828,000000F3,false,0,8,8A,0E,00,FF,F0,C0,FF,FF
000000829,000001A1,false,0,5,08,C1,00,00,81,00,00,00
000000830,000002F9,false,0,7,00,00,00,08,82,C0,F3,00
000000831,00000100,false,0,8,71,FD,7F,C0,5D,AD,87,70
000000832,00000112,false,0,8,F1,1F,54,0F,60,73,C5,62
000000833,000005F8,false,0,8,64,07,00,00,00,00,00,08
000000834,000001FA,false,0,8,41,65,45,F0,43,45,43,43
000000835,000003A7,false,0,7,1F,F6,00,00,1F,11,F0,00
000000836,000003E6,false,0,2,82,00,00,00,00,00,00,00
000000837,00000254,false,0,8,FF,7F,FF,7F,FF,7F,FF,7F
000000838,0000015F,false,0,8,42,F0,00,7D,00,EE,00,7D
000000839,00000197,false,0,4,8C,06,0E,C0,00,00,00,00
000000840,00000258,false,0,2,44,44,00,00,00,00,00,00
000000841,00000302,false,0,7,FF,FF,BC,80,F1,FF,FF,00
000000842,0000013A,false,0,8,82,FC,00,00,00,0E,FF,FF
000000843,000005E3,false,0,8,08,02,00,FE,FF,FF,FF,FF
000000844,00000100,false,0,8,96,FE,7F,C0,5D,AD,87,70
000000845,00000112,false,0,8,F1,1F,54,0F,60,73,C5,62
000000846,00000199,false,0,6,FF,FF,AE,7E,FF,BF,00,00
000000847,0000019A,false,0,6,FF,FF,93,7E,FF,2F,00,00
000000848,0000019F,false,0,6,FF,FF,F1,7F,FF,2F,00,00
000000849,00000363,false,0,8,D5,14,09,09,FF,FF,FF,FF
000000850,00000297,false,0,7,B2,E3,F0,FC,F2,92,EA,00
000000851,00000206,false,0,8,17,28,5F,FF,FF,FF,FF,FF
000000852,000000EF,false,0,8,78,F0,00,7D,21,00,7D,FF
000000853,000000A5,false,0,8,E9,F0,FF,F7,7F,00,00,C1
000000854,000000AC,false,0,2,00,F0,00,00,00,00,00,00
000000855,000000D9,false,0,8,A5,F0,00,10,00,F0,7F,C0
000000856,000000F3,false,0,8,8B,00,00,FF,F0,C0,FF,FF
000000857,000001A1,false,0,5,2F,C3,00,00,81,00,00,00
000000858,000002C4,false,0,8,00,00,FF,00,C8,64,FF,CF
000000859,00000314,false,0,3,50,00,FF,00,00,00,00,00
000000860,00000100,false,0,8,97,F0,7F,C0,5D,AD,87,70
000000861,00000112,false,0,8,F1,1F,54,0F,60,73,C5,62
000000862,000005F8,false,0,8,64,0A,00,00,00,00,00,0B
000000863,000005E0,false,0,8,11,03,00,04,13,00,D4,7F
000000864,000002A7,false,0,5,35,F3,FE,FF,14,00,00,00
000000865,00000201,false,0,8,4D,0B,4D,0B,FF,FF,FF,FF
000000866,00000163,false,0,8,FF,FF,0E,A5,FF,FF,FF,FF
000000867,00000173,false,0,8,3B,F0,00,0E,30,00,DE,10
000000868,0000015F,false,0,8,1F,F1,00,7D,00,EE,00,7D
000000869,00000254,false,0,8,FF,7F,FF,7F,FF,7F,FF,7F
000000870,00000258,false,0,2,44,44,00,00,00,00,00,00
000000871,0000013A,false,0,8,DF,FD,00,00,00,0E,FF,FF
000000872,00000100,false,0,8,CA,F1,7F,C0,5D,AD,87,70
000000873,00000112,false,0,8,F1,1F,54,0F,60,73,C5,62
000000874,00000199,false,0,6,FF,FF,AE,7E,FF,BF,00,00
000000875,0000019A,false,0,6,FF,FF,93,7E,FF,2F,00,00
000000876,0000019F,false,0,6,FF,FF,07,80,FF,2F,00,00
000000877,000007BD,false,0,8,03,00,00,00,00,00,01,06
000000878,000002F5,false,0,8,60,0F,00,20,22,0A,06,10
000000879,000002BB,false,0,5,20,F5,00,00,F2,00,00,00
000000880,000007BE,false,0,8,0B,00,00,00,00,00,00,00
000000881,000000A9,false,0,8,50,78,00,90,F1,00,00,FF
000000882,000003FD,false,0,5,18,08,20,00,FF,00,00,00
000000883,00000108,false,0,8,00,7D,FF,FF,07,F1,FF,FF
000000884,00000212,false,0,8,F8,F8,F9,FF,FF,FF,FF,FF
000000885,0000012F,false,0,8,2A,27,86,5C,F4,35,30,00
000000886,000002DB,false,0,8,FF,FF,FF,FF,BF,FF,FF,FF
000000887,000001AE,false,0,2,F7,FF,00,00,00,00,00,00
000000888,000002E8,false,0,8,C0,18,C5,FF,FF,F4,F7,F7
000000889,000000EF,false,0,8,25,F1,00,7D,21,00,7D,FF
000000890,000002F1,false,0,8,A2,0F,00,00,00,00,00,A0
000000891,000000A5,false,0,8,B4,F1,FF,F7,7F,00,00,C1
000000892,000000AC,false,0,2,00,F0,00,00,00,00,00,00
000000893,000000D9,false,0,8,F8,F1,00,10,00,F0,7F,C0
000000894,000000F3,false,0,8,D6,01,00,FF,F0,C0,FF,FF
000000895,00000197,false,0,4,03,07,0E,C0,00,00,00,00
000000896,000001A1,false,0,5,46,C5,00,00,81,00,00,00
000000897,00000100,false,0,8,2D,F2,7F,C0,5D,AD,87,70
000000898,00000112,false,0,8,F1,1F,54,0F,60,73,C5,62
000000899,000005F8,false,0,8,64,0C,00,00,00,00,00,0D
000000900,000002A1,false,0,5,80,58,02,00,FA,00,00,00
000000901,000000C0,false,0,2,F9,40,00,00,00,00,00,00
000000902,0000003C,false,0,8,FF,5F,00,04,00,00,FF,FF
000000903,0000015F,false,0,8,F8,F2,00,7D,00,EE,00,7D
000000904,00000254,false,0,8,FF,7F,FF,7F,FF,7F,FF,7F
000000905,00000258,false,0,2,44,44,00,00,00,00,00,00
000000906,00000302,false,0,7,FF,FF,BC,80,F1,FF,FF,00
000000907,0000013A,false,0,8,38,FE,00,00,00,0E,FF,FF
000000908,00000100,false,0,8,70,F3,7F,C0,5D,AD,87,70
000000909,00000112,false,0,8,F1,1F,54,0F,60,73,C5,62
000000910,00000199,false,0,6,FF,FF,B8,7E,FF,BF,00,00
000000911,0000019A,false,0,6,FF,FF,7F,7E,FF,2F,00,00
000000912,0000019F,false,0,6,FF,FF,F4,7F,FF,2F,00,00
000000913,00000206,false,0,8,4A,29,5F,FF,FF,FF,FF,FF
000000914,000000EF,false,0,8,C2,F2,00,7D,21,00,7D,FF
000000915,000000A5,false,0,8,53,F2,FF,F7,7F,00,00,C1
000000916,000000D9,false,0,8,1F,F2,00,10,00,F0,7F,C0
000000917,000000AC,false,0,2,00,F0,00,00,00,00,00,00
000000918,000000F3,false,0,8,31,02,00,FF,F0,C0,FF,FF
000000919,000001A1,false,0,5,61,C7,00,00,81,00,00,00
000000920,00000100,false,0,8,FE,F4,7F,C0,5D,AD,87,70
000000921,00000112,false,0,8,F1,1F,54,0F,60,73,C5,62
000000922,000002C5,false,0,7,0A,F9,00,60,06,20,CA,00
000000923,00000289,false,0,8,A1,F3,E0,E0,E1,00,E0,01
000000924,000002B0,false,0,6,3C,44,06,C6,FF,FF,00,00
000000925,0000036F,false,0,5,BC,F3,FE,FF,14,00,00,00
000000926,0000031C,false,0,8,96,29,00,FF,FF,FF,FF,FF
000000927,0000033B,false,0,6,D3,F9,F8,FF,FF,FF,00,00
000000928,00000254,false,0,8,FF,7F,FF,7F,FF,7F,FF,7F
000000929,0000015F,false,0,8,A5,F3,00,7D,00,EE,00,7D
000000930,00000197,false,0,4,85,08,0E,C0,00,00,00,00
000000931,00000258,false,0,2,44,44,00,00,00,00,00,00
000000932,0000013A,false,0,8,39,F0,00,00,00,0E,FF,FF
000000933,00000100,false,0,8,A3,F5,7F,C0,5D,AD,87,70
000000934,00000112,false,0,8,F1,1F,54,0F,60,73,C5,62
000000935,00000199,false,0,6,FF,FF,AE,7E,FF,BF,00,00
000000936,0000019A,false,0,6,FF,FF,93,7E,FF,2F,00,00
000000937,0000019F,false,0,6,FF,FF,09,80,FF,2F,00,00
000000938,000003D2,false,0,2,F3,FF,00,00,00,00,00,00
000000939,00000201,false,0,8,6C,0B,6C,0B,FF,FF,FF,FF
000000940,000000EF,false,0,8,9F,F3,00,7D,21,00,7D,FF
000000941,000000A5,false,0,8,0E,F3,FF,F7,7F,00,00,C1
000000942,000000AC,false,0,2,00,F0,00,00,00,00,00,00
000000943,000000D9,false,0,8,42,F3,00,10,00,F0,7F,C0
000000944,000000F3,false,0,8,6C,03,00,FF,F0,C0,FF,FF
000000945,000001A1,false,0,5,94,C9,00,00,81,00,00,00
000000946,000003B4,false,0,8,10,FF,71,F0,B9,FF,01,00
000000947,00000100,false,0,8,44,F6,7F,C0,5D,AD,87,70
000000948,00000112,false,0,8,F1,1F,54,0F,60,73,C5,62
000000949,000007BD,false,0,8,00,00,00,C0,FF,C0,01,08
000000950,00000200,false,0,8,07,01,31,00,69,00,FA,FF
000000951,00000254,false,0,8,FF,7F,FF,7F,FF,7F,FF,7F
000000952,0000015F,false,0,8,2B,F4,00,7D,00,EE,00,7D
000000953,00000258,false,0,2,44,44,00,00,00,00,00,00
000000954,00000302,false,0,7,FF,FF,BC,80,F1,FF,FF,00
000000955,0000013A,false,0,8,64,F1,00,00,00,0E,FF,FF
000000956,00000100,false,0,8,19,F7,7F,C0,5D,AD,87,70
000000957,00000112,false,0,8,F1,1F,54,0F,60,73,C5,62
000000958,00000199,false,0,6,FF,FF,B8,7E,FF,BF,00,00
000000959,0000019A,false,0,6,FF,FF,7F,7E,FF,2F,00,00
000000960,0000019F,false,0,6,FF,FF,06,80,FF,2F,00,00
000000961,00000540,false,0,8,00,00,00,00,FC,32,FF,40
000000962,00000206,false,0,8,AD,2A,5F,FF,FF,FF,FF,FF
000000963,000000EF,false,0,8,11,F4,00,7D,21,00,7D,FF
000000964,000000A5,false,0,8,80,F4,FF,F7,7F,00,00,C1
000000965,000000AC,false,0,2,00,F0,00,00,00,00,00,00
000000966,000000D9,false,0,8,CC,F4,00,10,00,F0,7F,C0
000000967,000000F3,false,0,8,E2,04,00,FF,F0,C0,FF,FF
000000968,00000197,false,0,4,0A,09,0E,C0,00,00,00,00
000000969,000001A1,false,0,5,B3,CB,00,00,81,00,00,00
000000970,000001EE,false,0,2,00,FC,00,00,00,00,00,00
000000971,00000246,false,0,5,3F,FB,00,FF,FF,00,00,00
000000972,00000299,false,0,6,FF,FF,FF,FF,FF,00,00,00
000000973,00000340,false,0,2,FC,FF,00,00,00,00,00,00
000000974,00000100,false,0,8,45,F8,7F,C0,5D,AD,87,70
000000975,00000112,false,0,8,F1,1F,54,0F,60,73,C5,62
000000976,000002A7,false,0,5,C1,F4,FE,FF,14,00,00,00
000000977,00000254,false,0,8,FF,7F,FF,7F,FF,7F,FF,7F
000000978,0000015F,false,0,8,76,F5,00,7D,00,EE,00,7D
000000979,00000258,false,0,2,44,44,00,00,00,00,00,00
000000980,0000013A,false,0,8,83,F2,00,00,00,0E,FF,FF
000000981,0000012F,false,0,8,98,28,86,4C,F4,35,30,00
000000982,00000100,false,0,8,18,F9,7F,C0,5D,AD,87,70
000000983,00000112,false,0,8,F1,1F,54,0F,60,73,C5,62
000000984,00000199,false,0,6,FF,FF,AE,7E,FF,BF,00,00
000000985,0000019A,false,0,6,FF,FF,89,7E,FF,2F,00,00
000000986,0000019F,false,0,6,FF,FF,01,80,FF,2F,00,00
000000987,00000510,false,0,8,40,10,20,00,00,04,00,00
000000988,000000EF,false,0,8,4C,F5,00,7D,21,00,7D,FF
000000989,000002C4,false,0,8,00,00,FF,00,C8,64,FF,CF
000000990,000000A5,false,0,8,DD,F5,FF,F7,7F,00,00,C1
000000991,000000AC,false,0,2,00,F0,00,00,00,00,00,00
000000992,000000D9,false,0,8,91,F5,00,10,00,F0,7F,C0
000000993,000000F3,false,0,8,BF,05,00,FF,F0,C0,FF,FF
000000994,000001A1,false,0,5,DA,CD,00,00,81,00,00,00
000000995,00000304,false,0,6,FF,FF,EA,38,FF,FF,00,00
000000996,00000272,false,0,8,6F,FC,01,11,FF,FF,FF,FF
000000997,00000100,false,0,8,FF,FA,7F,C0,5D,AD,87,70
000000998,00000112,false,0,8,F1,1F,54,0F,60,73,C5,62
000000999,00000239,false,0,8,31,9B,45,00,00,FF,FF,FF
000001000,000003A6,false,0,8,4C,08,30,F0,C0,FF,FF,FF
000001001,00000201,false,0,8,8A,0B,8A,0B,FF,FF,FF,FF
000001002,00000163,false,0,8,FF,FF,0E,A5,FF,FF,FF,FF
000001003,00000173,false,0,8,53,FA,00,0E,30,00,DE,10
000001004,0000015F,false,0,8,91,F6,00,7D,00,EE,00,7D
000001005,00000197,false,0,4,86,0A,0E,C0,00,00,00,00
000001006,00000254,false,0,8,FF,7F,FF,7F,FF,7F,FF,7F
000001007,00000258,false,0,2,44,44,00,00,00,00,00,00
000001008,00000302,false,0,7,FF,FF,BC,80,F1,FF,FF,00
000001009,0000013A,false,0,8,DE,F3,00,00,00,0E,FF,FF
000001010,00000301,false,0,7,FF,FF,A4,80,FF,FF,2F,00
000001011,00000100,false,0,8,A2,FB,7F,C0,5D,AD,87,70
000001012,00000199,false,0,6,FF,FF,CC,7E,FF,BF,00,00
000001013,00000112,false,0,8,F1,1F,53,0F,60,73,C5,62
000001014,0000019A,false,0,6,FF,FF,9D,7E,FF,2F,00,00
000001015,0000019F,false,0,6,FF,FF,0B,80,FF,2F,00,00
000001016,000002BB,false,0,5,F3,F0,00,00,F2,00,00,00
000001017,000002E8,false,0,8,C0,18,C5,FF,FF,F4,F8,4C
000001018,000000A9,false,0,8,50,78,00,90,F1,00,00,FF
000001019,000002F5,false,0,8,60,0F,00,20,22,0A,06,10
000001020,00000108,false,0,8,00,7D,FF,FF,07,F1,FF,FF
000001021,000003FD,false,0,5,85,09,20,00,FF,00,00,00
000001022,0000012F,false,0,8,C5,29,86,4C,F4,35,30,00
000001023,00000100,false,0,8,2C,FC,7F,C0,5D,AD,87,70
000001024,00000112,false,0,8,F2,1F,54,0F,60,73,C5,62
000001025,00000199,false,0,6,FF,FF,A4,7E,FF,BF,00,00
000001026,0000019A,false,0,6,FF,FF,93,7E,FF,2F,00,00
000001027,0000019F,false,0,6,FF,FF,1A,80,FF,2F,00,00
000001028,000000EF,false,0,8,79,FE,00,7D,21,00,7D,FF
000001029,000000A5,false,0,8,E8,FE,FF,F7,7F,00,00,C1
000001030,000000AC,false,0,2,00,F0,00,00,00,00,00,00
000001031,000000D9,false,0,8,A4,FE,00,10,00,F0,7F,C0
000001032,000000F3,false,0,8,8A,0E,00,FF,F0,C0,FF,FF
000001033,000001A1,false,0,5,08,C1,00,00,81,00,00,00
000001034,00000100,false,0,8,71,FD,7F,C0,5D,AD,87,70
000001035,00000112,false,0,8,F2,1F,54,0F,60,73,C5,62
000001036,00000254,false,0,8,FF,7F,FF,7F,FF,7F,FF,7F
000001037,0000015F,false,0,8,42,F0,00,7D,00,EE,00,7D
000001038,00000197,false,0,4,09,0B,0E,C0,00,00,00,00
000001039,00000258,false,0,2,44,44,00,00,00,00,00,00
000001040,00000302,false,0,7,FF,FF,BC,80,F1,FF,FF,00
000001041,0000013A,false,0,8,82,FC,00,00,00,0E,FF,FF
000001042,00000100,false,0,8,96,FE,7F,C0,5D,AD,87,70
000001043,00000112,false,0,8,F2,1F,54,0F,60,73,C5,62
000001044,00000199,false,0,6,FF,FF,B8,7E,FF,BF,00,00
000001045,0000019A,false,0,6,FF,FF,9D,7E,FF,2F,00,00
000001046,0000019F,false,0,6,FF,FF,FB,7F,FF,2F,00,00
000001047,00000297,false,0,7,F1,E6,F0,FC,F2,92,EA,00
000001048,00000206,false,0,8,17,28,5F,FF,FF,FF,FF,FF
000001049,000000EF,false,0,8,78,F0,00,7D,21,00,7D,FF
000001050,000002C4,false,0,8,00,00,FF,00,C8,64,FF,CF
000001051,000000A5,false,0,8,E9,F0,FF,F7,7F,00,00,C1
000001052,000000AC,false,0,2,00,F0,00,00,00,00,00,00
000001053,000000D9,false,0,8,A5,F0,00,10,00,F0,7F,C0
000001054,000000F3,false,0,8,8B,00,00,FF,F0,C0,FF,FF
000001055,000001A1,false,0,5,2F,C3,00,00,81,00,00,00
000001056,00000239,false,0,8,71,A8,45,00,00,FF,FF,FF
000001057,00000100,false,0,8,97,F0,7F,C0,5D,AD,87,70
000001058,00000112,false,0,8,F2,1F,54,0F,60,73,C5,62
000001059,00000300,false,0,8,12,16,18,96,65,18,86,61
000001060,0000036E,false,0,5,A0,F6,FE,FF,14,00,00,00
000001061,0000030C,false,0,5,60,F3,FE,FF,14,00,00,00
000001062,00000201,false,0,8,B5,0C,B5,0C,FF,FF,FF,FF
000001063,00000163,false,0,8,FF,FF,0E,A5,FF,FF,FF,FF
000001064,00000173,false,0,8,3B,F0,00,0E,30,00,DE,10
000001065,0000015F,false,0,8,1F,F1,00,7D,00,EE,00,7D
000001066,00000254,false,0,8,FF,7F,FF,7F,FF,7F,FF,7F
000001067,00000258,false,0,2,44,44,00,00,00,00,00,00
000001068,0000013A,false,0,8,DF,FD,00,00,00,0E,FF,FF
000001069,00000100,false,0,8,CA,F1,7F,C0,5D,AD,87,70
000001070,00000112,false,0,8,F2,1F,54,0F,60,73,C5,62
000001071,00000199,false,0,6,FF,FF,AE,7E,FF,BF,00,00
000001072,0000019A,false,0,6,FF,FF,7F,7E,FF,2F,00,00
000001073,0000019F,false,0,6,FF,FF,FF,7F,FF,2F,00,00
000001074,000007BE,false,0,8,0B,00,00,00,00,00,00,00
000001075,000002F5,false,0,8,60,0F,00,20,22,0A,06,10
000001076,000002BB,false,0,5,20,F5,00,00,F2,00,00,00
000001077,000000A9,false,0,8,50,78,00,90,F1,00,00,FF
000001078,000002E8,false,0,8,C0,18,C5,FF,FF,F4,FD,25
000001079,0000030D,false,0,5,26,F3,FE,FF,14,00,00,00
000001080,00000108,false,0,8,00,7D,FF,FF,07,F1,FF,FF
000001081,000003FD,false,0,5,71,0E,20,00,FF,00,00,00
000001082,0000012F,false,0,8,4B,2E,86,4C,F4,35,30,00
000001083,00000212,false,0,8,2B,FE,F9,FF,FF,FF,FF,FF
000001084,000001AE,false,0,2,F7,FF,00,00,00,00,00,00
000001085,000002DB,false,0,8,FF,FF,FF,FF,BF,FF,FF,FF
000001086,000000EF,false,0,8,25,F1,00,7D,21,00,7D,FF
000001087,000002F1,false,0,8,A2,0F,00,00,00,00,00,A0
000001088,000000A5,false,0,8,B4,F1,FF,F7,7F,00,00,C1
000001089,000000AC,false,0,2,00,F0,00,00,00,00,00,00
000001090,000000D9,false,0,8,F8,F1,00,10,00,F0,7F,C0
000001091,000000F3,false,0,8,D6,01,00,FF,F0,C0,FF,FF
000001092,00000197,false,0,4,83,0C,0E,C0,00,00,00,00
000001093,000001A1,false,0,5,46,C5,00,00,81,00,00,00
000001094,00000100,false,0,8,2D,F2,7F,C0,5D,AD,87,70
000001095,00000112,false,0,8,F2,1F,54,0F,60,73,C5,62
000001096,000002A1,false,0,5,80,58,02,00,FA,00,00,00
000001097,000000C0,false,0,2,FC,40,00,00,00,00,00,00
000001098,0000003C,false,0,8,FF,5F,00,04,00,00,FF,FF
000001099,0000015F,false,0,8,F8,F2,00,7D,00,EE,00,7D
000001100,00000254,false,0,8,FF,7F,FF,7F,FF,7F,FF,7F
000001101,00000258,false,0,2,44,44,00,00,00,00,00,00
000001102,00000302,false,0,7,FF,FF,BC,80,F1,FF,FF,00
000001103,0000013A,false,0,8,38,FE,00,00,00,0E,FF,FF
000001104,00000100,false,0,8,70,F3,7F,C0,5D,AD,87,70
000001105,00000112,false,0,8,F2,1F,54,0F,60,73,C5,62
000001106,00000199,false,0,6,FF,FF,C2,7E,FF,BF,00,00
000001107,0000019A,false,0,6,FF,FF,9D,7E,FF,2F,00,00
000001108,0000019F,false,0,6,FF,FF,F9,7F,FF,2F,00,00
000001109,00000206,false,0,8,4A,29,5F,FF,FF,FF,FF,FF
000001110,000000EF,false,0,8,C2,F2,00,7D,21,00,7D,FF
000001111,000000A5,false,0,8,53,F2,FF,F7,7F,00,00,C1
000001112,000000D9,false,0,8,1F,F2,00,10,00,F0,7F,C0
000001113,000000AC,false,0,2,00,F0,00,00,00,00,00,00
000001114,000000F3,false,0,8,31,02,00,FF,F0,C0,FF,FF
000001115,000001A1,false,0,5,61,C7,00,00,81,00,00,00
000001116,00000314,false,0,3,50,00,FF,00,00,00,00,00
000001117,00000100,false,0,8,FE,F4,7F,C0,5D,AD,87,70
000001118,00000112,false,0,8,F2,1F,54,0F,60,73,C5,62
000001119,000002C5,false,0,7,46,F0,00,60,06,20,CA,00
000001120,00000289,false,0,8,C9,F9,E0,E0,E1,00,E0,01
000001121,000002A7,false,0,5,A9,FB,FE,FF,14,00,00,00
000001122,000002B0,false,0,6,3C,44,06,C7,FF,FF,00,00
000001123,0000031C,false,0,8,A2,2C,00,FF,FF,FF,FF,FF
000001124,0000033B,false,0,6,0C,FC,F8,FF,FF,FF,00,00
000001125,00000254,false,0,8,FF,7F,FF,7F,FF,7F,FF,7F
000001126,0000015F,false,0,8,A5,F3,00,7D,00,EE,00,7D
000001127,00000197,false,0,4,0C,0D,0E,C0,00,00,00,00
000001128,00000258,false,0,2,44,44,00,00,00,00,00,00
000001129,0000013A,false,0,8,39,F0,00,00,00,0E,FF,FF
000001130,00000100,false,0,8,A3,F5,7F,C0,5D,AD,87,70
000001131,00000112,false,0,8,F2,1F,54,0F,60,73,C5,62
000001132,00000199,false,0,6,FF,FF,AE,7E,FF,BF,00,00
000001133,0000019A,false,0,6,FF,FF,89,7E,FF,2F,00,00
000001134,0000019F,false,0,6,FF,FF,ED,7F,FF,2F,00,00
000001135,00000201,false,0,8,D3,0C,D3,0C,FF,FF,FF,FF
000001136,000000EF,false,0,8,9F,F3,00,7D,21,00,7D,FF
000001137,000000A5,false,0,8,0E,F3,FF,F7,7F,00,00,C1
000001138,000000AC,false,0,2,00,F0,00,00,00,00,00,00
000001139,000000D9,false,0,8,42,F3,00,10,00,F0,7F,C0
000001140,000000F3,false,0,8,6C,03,00,FF,F0,C0,FF,FF
000001141,000001A1,false,0,5,94,C9,00,00,81,00,00,00
000001142,000003B4,false,0,8,10,FF,71,F0,B9,FF,01,00
000001143,00000100,false,0,8,44,F6,7F,C0,5D,AD,87,70
000001144,00000112,false,0,8,F2,1F,54,0F,60,73,C5,62
000001145,000007BD,false,0,8,00,00,00,C0,FF,C0,01,08
000001146,00000201,false,0,8,D9,0C,D9,0C,FF,FF,FF,FF
000001147,00000254,false,0,8,FF,7F,FF,7F,FF,7F,FF,7F
000001148,0000015F,false,0,8,2B,F4,00,7D,00,EE,00,7D
000001149,000001A1,false,0,5,FC,C6,00,00,81,00,00,00
000001150,00000100,false,0,8,70,F3,7F,C0,5D,AD,87,70
000001151,00000112,false,0,8,F2,1F,54,0F,60,73,C5,62
000001152,00000254,false,0,8,FF,7F,FF,7F,FF,7F,FF,7F
000001153,0000015F,false,0,8,2A,FA,00,7D,00,EE,00,7D
000001154,00000258,false,0,2,44,44,00,00,00,00,00,00
000001155,00000302,false,0,7,FF,FF,BC,80,F1,FF,FF,00
000001156,0000013A,false,0,8,B7,F7,00,00,00,0E,FF,FF
000001157,00000100,false,0,8,FE,F4,7F,C0,5D,AD,87,70
000001158,00000112,false,0,8,F3,1F,54,0F,60,73,C5,62
000001159,00000199,false,0,6,FF,FF,AE,7E,FF,BF,00,00
000001160,0000019A,false,0,6,FF,FF,7F,7E,FF,2F,00,00
000001161,0000019F,false,0,6,FF,FF,F9,7F,FF,2F,00,00
000001162,00000297,false,0,7,FE,EA,F0,FC,F2,92,EA,00
000001163,00000206,false,0,8,23,2D,5F,FF,FF,FF,FF,FF
000001164,000000EF,false,0,8,10,FA,00,7D,21,00,7D,FF
000001165,000002C4,false,0,8,00,00,FF,00,C8,64,FF,CF
000001166,000000A5,false,0,8,81,FA,FF,F7,7F,00,00,C1
000001167,000000AC,false,0,2,00,F0,00,00,00,00,00,00
000001168,000000D9,false,0,8,CD,FA,00,10,00,F0,7F,C0
000001169,000000F3,false,0,8,E3,0A,00,FF,F0,C0,FF,FF
000001170,00000197,false,0,4,85,08,0E,C0,00,00,00,00
000001171,000001A1,false,0,5,09,C8,00,00,81,00,00,00
000001172,00000239,false,0,8,81,B3,45,00,00,FF,FF,FF
000001173,00000100,false,0,8,A3,F5,7F,C0,5D,AD,87,70
000001174,00000112,false,0,8,F3,1F,54,0F,60,73,C5,62
000001175,00000300,false,0,8,17,06,09,A0,10,8D,50,08
000001176,0000036E,false,0,5,EF,FB,FE,FF,14,00,00,00
000001177,0000030C,false,0,5,46,F8,FE,FF,14,00,00,00
000001178,00000201,false,0,8,82,0E,82,0E,FF,FF,FF,FF
000001179,00000163,false,0,8,FF,FF,0E,A5,FF,FF,FF,FF
000001180,0000015F,false,0,8,77,FB,00,7D,00,EE,00,7D
000001181,00000173,false,0,8,0F,F5,00,0E,30,00,DE,10
000001182,00000254,false,0,8,FF,7F,FF,7F,FF,7F,FF,7F
000001183,00000258,false,0,2,44,44,00,00,00,00,00,00
000001184,0000013A,false,0,8,EB,F8,00,00,00,0E,FF,FF
000001185,00000100,false,0,8,44,F6,7F,C0,5D,AD,87,70
000001186,00000112,false,0,8,F3,1F,54,0F,60,73,C5,62
000001187,00000199,false,0,6,FF,FF,B8,7E,FF,BF,00,00
000001188,0000019A,false,0,6,FF,FF,7F,7E,FF,2F,00,00
000001189,0000019F,false,0,6,FF,FF,FF,7F,FF,2F,00,00
000001190,000007BE,false,0,8,0C,41,04,68,00,00,00,00
000001191,000002F5,false,0,8,60,0F,00,20,22,0A,06,10
000001192,000002BB,false,0,5,48,FA,00,00,F2,00,00,00
000001193,000000A9,false,0,8,50,78,00,90,F1,00,00,FF
000001194,000002E8,false,0,8,C0,18,C5,FF,FF,F4,F6,EA
000001195,0000030D,false,0,5,00,F8,FE,FF,14,00,00,00
000001196,00000108,false,0,8,00,7D,FF,FF,07,F1,FF,FF
000001197,000003FD,false,0,5,70,07,20,00,FF,00,00,00
000001198,0000012F,false,0,8,28,28,86,3C,F4,35,30,00
000001199,00000201,false,0,8,87,0E,87,0E,FF,FF,FF,FF
000001200,000001AE,false,0,2,F7,FF,00,00,00,00,00,00
000001201,00000212,false,0,8,A4,F7,F9,FF,FF,FF,FF,FF
000001202,000000EF,false,0,8,4D,FB,00,7D,21,00,7D,FF
000001203,000002DB,false,0,8,FF,FF,FF,FF,BF,FF,FF,FF
000001204,000002F1,false,0,8,A2,0F,00,00,00,00,00,A0
000001205,000000A5,false,0,8,DC,FB,FF,F7,7F,00,00,C1
000001206,000000AC,false,0,2,00,F0,00,00,00,00,00,00
000001207,000000D9,false,0,8,90,FB,00,10,00,F0,7F,C0
000001208,000000F3,false,0,8,BE,0B,00,FF,F0,C0,FF,FF
000001209,000001A1,false,0,5,2E,CA,00,00,81,00,00,00
000001210,00000100,false,0,8,19,F7,7F,C0,5D,AD,87,70
000001211,00000112,false,0,8,F2,1F,54,0F,60,73,C5,62
000001212,000002A1,false,0,5,80,58,02,00,FA,00,00,00
000001213,000000C0,false,0,2,F1,40,00,00,00,00,00,00
000001214,0000003C,false,0,8,FF,5F,00,04,00,00,FF,FF
000001215,0000015F,false,0,8,F9,FC,00,7D,00,EE,00,7D
000001216,00000254,false,0,8,FF,7F,FF,7F,FF,7F,FF,7F
000001217,00000197,false,0,4,0A,09,0E,C0,00,00,00,00
000001218,00000258,false,0,2,44,44,00,00,00,00,00,00
000001219,00000302,false,0,7,FF,FF,BC,80,F1,FF,FF,00
000001220,0000013A,false,0,8,B6,F9,00,00,00,0E,FF,FF
000001221,00000100,false,0,8,45,F8,7F,C0,5D,AD,87,70
000001222,00000112,false,0,8,F3,1F,54,0F,60,73,C5,62
000001223,00000199,false,0,6,FF,FF,C2,7E,FF,BF,00,00
000001224,0000019A,false,0,6,FF,FF,7F,7E,FF,2F,00,00
000001225,0000019F,false,0,6,FF,FF,0A,80,FF,2F,00,00
000001226,00000206,false,0,8,C4,2E,5F,FF,FF,FF,FF,FF
000001227,000000EF,false,0,8,C3,FC,00,7D,21,00,7D,FF
000001228,000000A5,false,0,8,52,FC,FF,F7,7F,00,00,C1
000001229,000000AC,false,0,2,00,F0,00,00,00,00,00,00
000001230,000000D9,false,0,8,1E,FC,00,10,00,F0,7F,C0
000001231,000000F3,false,0,8,30,0C,00,FF,F0,C0,FF,FF
000001232,000001A1,false,0,5,47,CC,00,00,81,00,00,00
000001233,00000314,false,0,3,50,00,FF,00,00,00,00,00
000001234,0000051A,false,0,8,00,00,00,00,50,00,00,1A
000001235,00000100,false,0,8,18,F9,7F,C0,5D,AD,87,70
000001236,00000112,false,0,8,F2,1F,54,0F,60,73,C5,62
000001237,000002C5,false,0,7,4C,F8,00,60,06,20,CA,00
000001238,00000289,false,0,8,FC,F2,E0,E0,E1,00,E0,01
000001239,000002A7,false,0,5,E6,F6,FE,FF,14,00,00,00
000001240,000002B0,false,0,6,3C,44,06,C6,FF,FF,00,00
000001241,0000031C,false,0,8,44,21,00,FF,FF,FF,FF,FF
000001242,0000033B,false,0,6,A4,F1,F8,FF,FF,FF,00,00
000001243,00000254,false,0,8,FF,7F,FF,7F,FF,7F,FF,7F
000001244,0000015F,false,0,8,A4,FD,00,7D,00,EE,00,7D
000001245,00000258,false,0,2,44,44,00,00,00,00,00,00
000001246,0000013A,false,0,8,51,FA,00,00,00,0E,FF,FF
000001247,00000100,false,0,8,FF,FA,7F,C0,5D,AD,87,70
000001248,00000112,false,0,8,F3,1F,54,0F,60,73,C5,62
000001249,00000199,false,0,6,FF,FF,B8,7E,FF,BF,00,00
000001250,0000019A,false,0,6,FF,FF,89,7E,FF,2F,00,00
000001251,0000019F,false,0,6,FF,FF,FA,7F,FF,2F,00,00
000001252,00000201,false,0,8,9E,0E,9E,0E,FF,FF,FF,FF
000001253,000000EF,false,0,8,9E,FD,00,7D,21,00,7D,FF
000001254,000000A5,false,0,8,0F,FD,FF,F7,7F,00,00,C1
000001255,000000D9,false,0,8,43,FD,00,10,00,F0,7F,C0
000001256,000000AC,false,0,2,00,F0,00,00,00,00,00,00
000001257,000000F3,false,0,8,6D,0D,00,FF,F0,C0,FF,FF
000001258,00000197,false,0,4,86,0A,0E,C0,00,00,00,00
000001259,000001A1,false,0,5,60,CE,00,00,81,00,00,00
000001260,000003B4,false,0,8,10,FF,71,F0,B9,FF,01,00
000001261,00000100,false,0,8,A2,FB,7F,C0,5D,AD,87,70
000001262,00000112,false,0,8,F3,1F,54,0F,60,73,C5,62
000001263,000007BD,false,0,8,00,00,00,C0,FF,C0,01,08
000001264,000007BE,false,0,8,00,C0,FA,1C,02,00,00,00
000001265,00000254,false,0,8,FF,7F,FF,7F,FF,7F,FF,7F
000001266,0000015F,false,0,8,43,FE,00,7D,00,EE,00,7D
000001267,00000258,false,0,2,44,44,00,00,00,00,00,00
000001268,00000302,false,0,7,FF,FF,BC,80,F1,FF,FF,00
000001269,0000013A,false,0,8,0C,FB,00,00,00,0E,FF,FF
000001270,00000100,false,0,8,2C,FC,7F,C0,5D,AD,87,70
000001271,00000112,false,0,8,F3,1F,54,0F,60,73,C5,62
000001272,00000199,false,0,6,FF,FF,AE,7E,FF,BF,00,00
000001273,0000019A,false,0,6,FF,FF,A7,7E,FF,2F,00,00
000001274,0000019F,false,0,6,FF,FF,F9,7F,FF,2F,00,00
000001275,1FFFFFFF,true,0,1,00,00,00,00,00,00,00,00
000001276,000000EF,false,0,8,78,F0,00,7D,21,00,7D,FF
000001277,000000A5,false,0,8,E9,F0,FF,F7,7F,00,00,C1
000001278,000000AC,false,0,2,00,F0,00,00,00,00,00,00
000001279,000000D9,false,0,8,A5,F0,00,10,00,F0,7F,C0
000001280,000000F3,false,0,8,8B,00,00,FF,F0,C0,FF,FF
000001281,000001A1,false,0,5,2F,C3,00,00,81,00,00,00
000001282,000002C4,false,0,8,00,00,FF,00,C8,64,FF,CF
000001283,1FFFFFFF,true,0,1,00,00,00,00,00,00,00,00
000001284,000002C5,false,0,7,0A,F9,00,60,06,20,CA,00
000001285,00000289,false,0,8,A1,F3,E0,E0,E1,00,E0,01
000001286,000002A7,false,0,5,A9,FB,FE,FF,14,00,00,00
000001287,000002B0,false,0,6,3C,44,06,C7,FF,FF,00,00
000001288,0000031C,false,0,8,96,29,00,FF,FF,FF,FF,FF
000001289,0000033B,false,0,6,D3,F9,F8,FF,FF,FF,00,00
000001290,1FFFFFFF,true,0,1,00,00,00,00,00,00,00,00
000001291,00000592,false,0,8,26,85,F5,02,0A,1A,FF,FF
000001292,00000254,false,0,8,FF,7F,FF,7F,FF,7F,FF,7F
000001293,0000015F,false,0,8,76,F5,00,7D,00,EE,00,7D
000001294,00000258,false,0,2,44,44,00,00,00,00,00,00
000001295,1FFFFFFF,true,0,1,00,00,00,00,00,00,00,00
000001296,000007BD,false,0,8,10,00,00,00,00,00,00,00
000001297,000002F5,false,0,8,60,0F,00,20,22,0A,06,10
000001298,000002BB,false,0,5,F3,F0,00,00,F2,00,00,00
000001299,000000A9,false,0,8,50,78,00,90,F1,00,00,FF
000001300,000003FD,false,0,5,85,09,20,00,FF,00,00,00
000001301,00000108,false,0,8,00,7D,FF,FF,07,F1,FF,FF
000001302,00000206,false,0,8,F0,2B,5F,FF,FF,FF,FF,FF
000001303,0000012F,false,0,8,80,2C,86,1C,F4,35,30,00
000001304,00000212,false,0,8,A5,F9,F9,FF,FF,FF,FF,FF
000001305,000001AE,false,0,2,F7,FF,00,00,00,00,00,00
000001306,000002DB,false,0,8,FF,FF,FF,FF,BF,FF,FF,FF
000001307,000000EF,false,0,8,AB,F6,00,7D,21,00,7D,FF
000001308,000002E8,false,0,8,C0,18,C5,FF,FF,F4,F8,4C
000001309,000000A5,false,0,8,3A,F6,FF,F7,7F,00,00,C1
000001310,000000AC,false,0,2,00,F0,00,00,00,00,00,00
000001311,000000D9,false,0,8,76,F6,00,10,00,F0,7F,C0
000001312,000000F3,false,0,8,58,06,00,FF,F0,C0,FF,FF
000001313,000001A1,false,0,5,95,C0,00,00,81,00,00,00
000001314,000002F1,false,0,8,A2,0F,00,00,00,00,00,A0
000001315,0000032B,false,0,8,FF,FF,FF,FF,FF,FF,00,FF
000001316,00000331,false,0,8,FF,FF,FF,EF,7F,FE,F7,FF
000001317,000003E9,false,0,8,08,52,41,00,00,00,00,00
000001318,0000021F,false,0,8,00,00,00,00,00,EE,F8,FF
000001319,00000100,false,0,8,2C,FC,7F,C0,5D,AD,87,70
000001320,00000112,false,0,8,F4,1F,54,0F,60,73,B5,62
000001321,000002A7,false,0,5,5D,FC,FE,FF,14,00,00,00
000001322,000002A1,false,0,5,80,58,02,00,FA,00,00,00
000001323,0000003C,false,0,8,FF,5F,00,00,00,00,FF,FF
000001324,0000015F,false,0,8,CC,F7,00,7D,00,EE,00,7D
000001325,00000254,false,0,8,FF,7F,FF,7F,FF,7F,FF,7F
000001326,00000258,false,0,2,44,44,00,00,00,00,00,00
000001327,0000013A,false,0,8,50,F4,00,00,00,0E,FF,FF
000001328,00000100,false,0,8,71,FD,7F,C0,5D,AD,87,70
000001329,00000112,false,0,8,F4,1F,54,0F,60,73,B5,62
000001330,00000199,false,0,6,FF,FF,A4,7E,FF,BF,00,00
000001331,0000019A,false,0,6,FF,FF,9D,7E,FF,2F,00,00
000001332,0000019F,false,0,6,FF,FF,FC,7F,FF,2F,00,00
000001333,000000EF,false,0,8,F6,F7,00,7D,21,00,7D,FF
000001334,000000A5,false,0,8,67,F7,FF,F7,7F,00,00,C1
000001335,000000D9,false,0,8,2B,F7,00,10,00,F0,7F,C0
000001336,000000AC,false,0,2,00,F0,00,00,00,00,00,00
000001337,000000F3,false,0,8,05,07,00,FF,F0,C0,FF,FF
000001338,00000197,false,0,4,8C,06,0E,C0,00,00,00,00
000001339,000001A1,false,0,5,B2,C2,00,00,81,00,00,00
000001340,00000349,false,0,5,FE,FF,F4,1A,00,00,00,00
000001341,00000100,false,0,8,96,FE,7F,C0,5D,AD,87,70
000001342,00000112,false,0,8,F4,1F,54,0F,60,73,B5,62
000001343,000002C5,false,0,7,C0,FA,00,60,06,20,CA,00
000001344,00000289,false,0,8,2F,F4,E0,E0,E1,00,E0,01
000001345,000002B0,false,0,6,3C,44,06,C6,FF,FF,00,00
000001346,000001E1,false,0,6,2D,F4,45,FF,FF,FF,00,00
000001347,00000254,false,0,8,FF,7F,FF,7F,FF,7F,FF,7F
000001348,0000015F,false,0,8,90,F8,00,7D,00,EE,00,7D
000001349,00000258,false,0,2,44,44,00,00,00,00,00,00
000001350,00000302,false,0,7,FF,FF,BC,80,F1,FF,FF,00
000001351,0000013A,false,0,8,0D,F5,00,00,00,0E,FF,FF
000001352,00000100,false,0,8,97,F0,7F,C0,5D,AD,87,70
000001353,00000112,false,0,8,F4,1F,54,0F,60,73,B5,62
000001354,00000199,false,0,6,FF,FF,B8,7E,FF,BF,00,00
000001355,0000019A,false,0,6,FF,FF,89,7E,FF,2F,00,00
000001356,0000019F,false,0,6,FF,FF,16,80,FF,2F,00,00
000001357,00000431,false,0,8,DA,FF,FF,FF,FF,7B,F3,4B
000001358,00000206,false,0,8,7E,2C,5F,FF,FF,FF,FF,FF
000001359,00000201,false,0,8,42,12,42,12,FF,FF,FF,FF
000001360,000000EF,false,0,8,AA,F8,00,7D,21,00,7D,FF
000001361,000000A5,false,0,8,3B,F8,FF,F7,7F,00,00,C1
000001362,000000AC,false,0,2,00,F0,00,00,00,00,00,00
000001363,000000D9,false,0,8,77,F8,00,10,00,F0,7F,C0
000001364,000000F3,false,0,8,59,08,00,FF,F0,C0,FF,FF
000001365,000001A1,false,0,5,DB,C4,00,00,81,00,00,00
000001366,00000100,false,0,8,CA,F1,7F,C0,5D,AD,87,70
000001367,00000112,false,0,8,F4,1F,54,0F,60,73,B5,62
000001368,00000432,false,0,8,8C,F5,10,B1,C8,FF,00,FF
000001369,000007BD,false,0,8,00,00,00,C0,FF,C0,01,08
000001370,0000036E,false,0,5,3D,F7,FE,FF,14,00,00,00
000001371,000007BE,false,0,8,05,00,00,00,00,00,00,E0
000001372,0000030C,false,0,5,94,F4,FE,FF,14,00,00,00
000001373,00000201,false,0,8,47,12,47,12,FF,FF,FF,FF
000001374,00000254,false,0,8,FF,7F,FF,7F,FF,7F,FF,7F
000001375,0000015F,false,0,8,CD,F9,00,7D,00,EE,00,7D
000001376,00000197,false,0,4,03,07,0E,C0,00,00,00,00
000001377,00000258,false,0,2,44,44,00,00,00,00,00,00
000001378,0000013A,false,0,8,EA,F6,00,00,00,0E,FF,FF
000001379,00000100,false,0,8,2D,F2,7F,C0,5D,AD,87,70
000001380,00000112,false,0,8,F4,1F,54,0F,60,73,B5,62
000001381,000003C3,false,0,8,70,04,0E,52,3C,01,73,38
000001382,00000199,false,0,6,FF,FF,A4,7E,FF,BF,00,00
000001383,0000019A,false,0,6,FF,FF,9D,7E,FF,2F,00,00
000001384,0000019F,false,0,6,FF,FF,07,80,FF,2F,00,00
000001385,0000030D,false,0,5,D2,F4,FE,FF,14,00,00,00
000001386,000000EF,false,0,8,F7,F9,00,7D,21,00,7D,FF
000001387,000000A5,false,0,8,66,F9,FF,F7,7F,00,00,C1
000001388,000000AC,false,0,2,00,F0,00,00,00,00,00,00
000001389,000000D9,false,0,8,2A,F9,00,10,00,F0,7F,C0
000001390,000000F3,false,0,8,04,09,00,FF,F0,C0,FF,FF
000001391,000001A1,false,0,5,FC,C6,00,00,81,00,00,00
000001392,000002A6,false,0,2,00,A2,00,00,00,00,00,00
000001393,00000100,false,0,8,70,F3,7F,C0,5D,AD,87,70
000001394,00000112,false,0,8,F4,1F,54,0F,60,73,B5,62
000001395,000003D8,false,0,8,03,FF,FF,FF,FF,FF,FF,FF
000001396,00000254,false,0,8,FF,7F,FF,7F,FF,7F,FF,7F
000001397,0000015F,false,0,8,2A,FA,00,7D,00,EE,00,7D
000001398,00000258,false,0,2,44,44,00,00,00,00,00,00
000001399,00000302,false,0,7,FF,FF,BC,80,F1,FF,FF,00
000001400,0000013A,false,0,8,B7,F7,00,00,00,0E,FF,FF
000001401,00000100,false,0,8,FE,F4,7F,C0,5D,AD,87,70
000001402,00000112,false,0,8,F4,1F,54,0F,60,73,B5,62
000001403,00000199,false,0,6,FF,FF,C2,7E,FF,BF,00,00
000001404,0000019A,false,0,6,FF,FF,93,7E,FF,2F,00,00
000001405,0000019F,false,0,6,FF,FF,03,80,FF,2F,00,00
000001406,00000297,false,0,7,7D,E4,F0,FC,F2,92,EA,00
000001407,00000206,false,0,8,23,2D,5F,FF,FF,FF,FF,FF
000001408,000000EF,false,0,8,10,FA,00,7D,21,00,7D,FF
000001409,000002C4,false,0,8,00,00,FF,00,C8,64,FF,CF
000001410,000000A5,false,0,8,81,FA,FF,F7,7F,00,00,C1
000001411,000000AC,false,0,2,00,F0,00,00,00,00,00,00
000001412,000000D9,false,0,8,CD,FA,00,10,00,F0,7F,C0
000001413,000000F3,false,0,8,E3,0A,00,FF,F0,C0,FF,FF
000001414,00000197,false,0,4,85,08,0E,C0,00,00,00,00
000001415,000001A1,false,0,5,09,C8,00,00,81,00,00,00
000001416,00000314,false,0,3,50,00,FF,00,00,00,00,00
000001417,00000100,false,0,8,A3,F5,7F,C0,5D,AD,87,70
000001418,00000112,false,0,8,F4,1F,54,0F,60,73,B5,62
000001419,000002A7,false,0,5,C0,FD,FE,FF,14,00,00,00
000001420,00000201,false,0,8,5B,12,5B,12,FF,FF,FF,FF
000001421,00000163,false,0,8,FF,FF,0E,A5,FF,FF,FF,FF
000001422,0000015F,false,0,8,77,FB,00,7D,00,EE,00,7D
000001423,00000173,false,0,8,0F,F5,00,0E,30,00,DE,10
000001424,00000254,false,0,8,FF,7F,FF,7F,FF,7F,FF,7F
000001425,00000258,false,0,2,44,44,00,00,00,00,00,00
000001426,00000100,false,0,8,44,F6,7F,C0,5D,AD,87,70
000001427,00000112,false,0,8,F4,1F,54,0F,60,73,B5,62
000001428,00000199,false,0,6,FF,FF,B8,7E,FF,BF,00,00
000001429,0000019A,false,0,6,FF,FF,93,7E,FF,2F,00,00
000001430,0000019F,false,0,6,FF,FF,EF,7F,FF,2F,00,00
000001431,000007BD,false,0,8,11,00,00,00,00,00,00,00
000001432,000002F5,false,0,8,60,0F,00,20,22,0A,06,10
000001433,000002BB,false,0,5,48,FA,00,00,F2,00,00,00
000001434,000007BE,false,0,8,0C,41,04,68,00,00,00,00
000001435,000002E8,false,0,8,C0,18,C5,FF,FF,F4,F9,51
000001436,000000A9,false,0,8,50,78,00,90,F1,00,00,FF
000001437,000003FD,false,0,5,3F,0A,20,00,FF,00,00,00
000001438,00000108,false,0,8,00,7D,FF,FF,07,F1,FF,FF
000001439,00000212,false,0,8,42,FA,F9,FF,FF,FF,FF,FF
000001440,0000012F,false,0,8,DD,2D,86,1C,F4,35,30,00
000001441,000002DB,false,0,8,FF,FF,FF,FF,BF,FF,FF,FF
000001442,000001AE,false,0,2,F7,FF,00,00,00,00,00,00
000001443,000002F1,false,0,8,A2,0F,00,00,00,00,00,A0
000001444,000000EF,false,0,8,4D,FB,00,7D,21,00,7D,FF
000001445,000000A5,false,0,8,DC,FB,FF,F7,7F,00,00,C1
000001446,000000AC,false,0,2,00,F0,00,00,00,00,00,00
000001447,000000D9,false,0,8,90,FB,00,10,00,F0,7F,C0
000001448,000000F3,false,0,8,BE,0B,00,FF,F0,C0,FF,FF
000001449,000001A1,false,0,5,2E,CA,00,00,81,00,00,00
000001450,000003A0,false,0,8,FF,FF,C0,FF,FF,FF,FF,FC
000001451,00000100,false,0,8,19,F7,7F,C0,5D,AD,87,70
000001452,00000112,false,0,8,F4,1F,54,0F,60,73,B5,62
000001453,000002A1,false,0,5,80,58,02,00,FA,00,00,00
000001454,000000C0,false,0,2,FA,40,00,00,00,00,00,00
000001455,0000003C,false,0,8,FF,5F,00,00,00,00,FF,FF
000001456,0000015F,false,0,8,F9,FC,00,7D,00,EE,00,7D
000001457,00000254,false,0,8,FF,7F,FF,7F,FF,7F,FF,7F
000001458,00000197,false,0,4,0A,09,0E,C0,00,00,00,00
000001459,00000258,false,0,2,44,44,00,00,00,00,00,00
000001460,00000302,false,0,7,FF,FF,BC,80,FC,FF,FF,00
000001461,000005E3,false,0,8,01,03,67,FF,FF,FF,FF,FF
000001462,000005E3,false,0,8,01,03,36,FF,FF,FF,FF,FF
000001463,00000350,false,0,4,F3,FF,FF,FF,00,00,00,00
000001464,00000100,false,0,8,45,F8,7F,C0,5D,AD,87,70
000001465,00000112,false,0,8,F4,1F,54,0F,60,73,B5,62
000001466,00000199,false,0,6,FF,FF,B8,7E,FF,BF,00,00
000001467,0000019A,false,0,6,FF,FF,93,7E,FF,3F,00,00
000001468,0000019F,false,0,6,FF,FF,E7,7F,FF,2F,00,00
000001469,00000206,false,0,8,C4,2E,5F,FF,FF,FF,FF,FF
000001470,000000EF,false,0,8,C3,FC,00,7D,21,00,7D,FF
000001471,000000A5,false,0,8,52,FC,FF,F7,7F,00,00,C1
000001472,000000AC,false,0,2,00,F0,00,00,00,00,00,00
000001473,000000D9,false,0,8,1E,FC,00,10,00,F0,7F,C0
000001474,000000F3,false,0,8,30,0C,00,FF,F0,C0,FF,FF
000001475,000001A1,false,0,5,47,CC,00,00,81,00,00,00
000001476,00000100,false,0,8,18,F9,7F,C0,5D,AD,87,70
000001477,00000112,false,0,8,F4,1F,54,0F,60,73,B5,62
000001478,000002C5,false,0,7,86,FB,00,60,06,20,CA,00
000001479,000002B0,false,0,6,3C,44,06,C7,FF,FF,00,00
000001480,0000036F,false,0,5,9A,F8,FE,FF,14,00,00,00
000001481,00000254,false,0,8,FF,7F,FF,7F,FF,7F,FF,7F
000001482,0000015F,false,0,8,A4,FD,00,7D,00,EE,00,7D
000001483,00000258,false,0,2,44,44,00,00,00,00,00,00
000001484,00000100,false,0,8,FF,FA,7F,C0,5D,AD,87,70
000001485,00000112,false,0,8,F4,1F,54,0F,60,73,B5,62
000001486,00000199,false,0,6,FF,FF,B8,7E,FF,BF,00,00
000001487,0000019A,false,0,6,FF,FF,93,7E,FF,3F,00,00
000001488,0000019F,false,0,6,FF,FF,F6,7F,FF,2F,00,00
000001489,00000336,false,0,7,00,00,00,FE,FF,FE,FF,00
000001490,00000201,false,0,8,73,12,73,12,FF,FF,FF,FF
000001491,0000044C,false,0,8,10,00,00,00,00,FF,FF,00
000001492,000000EF,false,0,8,9E,FD,00,7D,21,00,7D,FF
000001493,000000A5,false,0,8,0F,FD,FF,F7,7F,00,00,C1
000001494,000000AC,false,0,2,00,F0,00,00,00,00,00,00
000001495,000000D9,false,0,8,43,FD,00,10,00,F0,7F,C0
000001496,000000F3,false,0,8,6D,0D,00,FF,F0,C0,FF,FF
000001497,00000197,false,0,4,86,0A,0E,C0,00,00,00,00
000001498,000001A1,false,0,5,60,CE,00,00,81,00,00,00
000001499,00000100,false,0,8,A2,FB,7F,C0,5D,AD,87,70
000001500,00000112,false,0,8,F4,1F,54,0F,60,73,B5,62
000001501,000003B4,false,0,8,10,FF,71,F0,B9,FF,01,00
000001502,000007BD,false,0,8,00,00,00,C0,FF,C0,01,08
000001503,000007BE,false,0,8,07,67,1E,E3,06,67,00,00
000001504,00000254,false,0,8,FF,7F,FF,7F,FF,7F,FF,7F
000001505,0000015F,false,0,8,43,FE,00,7D,00,EE,00,7D
000001506,00000258,false,0,2,44,44,00,00,00,00,00,00
000001507,00000302,false,0,7,FF,FF,BC,80,FC,FF,FF,00
000001508,0000044C,false,0,8,11,00,00,FF,FF,FF,FF,FF
000001509,00000100,false,0,8,2C,FC,7F,C0,5D,AD,87,70
000001510,00000112,false,0,8,F4,1F,54,0F,60,73,B5,62
000001511,00000199,false,0,6,FF,FF,A4,7E,FF,BF,00,00
000001512,0000019A,false,0,6,FF,FF,93,7E,FF,3F,00,00
000001513,0000019F,false,0,6,FF,FF,14,80,FF,2F,00,00
000001514,00000540,false,0,8,00,00,00,00,FC,32,FF,40
000001515,00000206,false,0,8,C5,20,5F,FF,FF,FF,FF,FF
000001516,000000A5,false,0,8,E8,FE,FF,F7,7F,00,00,C1
000001517,000000AC,false,0,2,00,F0,00,00,00,00,00,00
000001518,000000D9,false,0,8,A4,FE,00,10,00,F0,7F,C0
000001519,00000100,false,0,8,97,F0,7F,C0,5D,AD,87,70
000001520,00000112,false,0,8,F4,1F,54,0F,60,73,B5,62
000001521,00000199,false,0,6,FF,FF,C2,7E,FF,BF,00,00
000001522,0000019A,false,0,6,FF,FF,89,7E,FF,3F,00,00
000001523,0000019F,false,0,6,FF,FF,12,80,FF,2F,00,00
000001524,00000431,false,0,8,DA,FF,FF,FF,FF,7B,F3,4B
000001525,00000206,false,0,8,7E,2C,5F,FF,FF,FF,FF,FF
000001526,00000201,false,0,8,5F,13,5F,13,FF,FF,FF,FF
000001527,000000EF,false,0,8,AA,F8,00,7D,21,00,7D,FF
000001528,000000A5,false,0,8,3B,F8,FF,F7,7F,00,00,C1
000001529,000000AC,false,0,2,00,F0,00,00,00,00,00,00
000001530,000000D9,false,0,8,77,F8,00,10,00,F0,7F,C0
000001531,000000F3,false,0,8,59,08,00,FF,F0,C0,FF,FF
000001532,000001A1,false,0,5,DB,C4,00,00,81,00,00,00
000001533,00000100,false,0,8,CA,F1,7F,C0,5D,AD,87,70
000001534,00000112,false,0,8,F4,1F,54,0F,60,73,B5,62
000001535,000007BD,false,0,8,00,00,00,C0,FF,C0,01,08
000001536,00000432,false,0,8,8C,F5,10,B1,C8,FF,00,FF
000001537,000002A7,false,0,5,5C,F5,FE,FF,14,00,00,00
000001538,000007BE,false,0,8,05,00,00,00,00,00,00,E0
000001539,00000254,false,0,8,FF,7F,FF,7F,FF,7F,FF,7F
000001540,0000015F,false,0,8,CD,F9,00,7D,00,EE,00,7D
000001541,00000197,false,0,4,83,0C,0E,C0,00,00,00,00
000001542,00000258,false,0,2,44,44,00,00,00,00,00,00
000001543,00000100,false,0,8,2D,F2,7F,C0,5D,AD,87,70
000001544,00000112,false,0,8,F4,1F,54,0F,60,73,B5,62
000001545,00000199,false,0,6,FF,FF,B8,7E,FF,BF,00,00
000001546,0000019A,false,0,6,FF,FF,9D,7E,FF,3F,00,00
000001547,0000019F,false,0,6,FF,FF,FA,7F,FF,2F,00,00
000001548,000000EF,false,0,8,F7,F9,00,7D,21,00,7D,FF
000001549,000000A5,false,0,8,66,F9,FF,F7,7F,00,00,C1
000001550,000000D9,false,0,8,2A,F9,00,10,00,F0,7F,C0
000001551,000000AC,false,0,2,00,F0,00,00,00,00,00,00
000001552,000000F3,false,0,8,04,09,00,FF,F0,C0,FF,FF
000001553,000001A1,false,0,5,33,C6,00,00,8A,00,00,00
000001554,00000100,false,0,8,70,F3,7F,C0,5D,AD,87,70
000001555,00000112,false,0,8,F4,1F,54,0F,60,73,B5,62
000001556,00000254,false,0,8,FF,7F,FF,7F,FF,7F,FF,7F
000001557,0000015F,false,0,8,2A,FA,00,7D,00,EE,00,7D
000001558,00000258,false,0,2,44,44,00,00,00,00,00,00
000001559,00000302,false,0,7,FF,FF,BC,80,FC,FF,FF,00
000001560,00000100,false,0,8,FE,F4,7F,C0,5D,AD,87,70
000001561,00000112,false,0,8,F4,1F,54,0F,60,73,B5,62
000001562,00000199,false,0,6,FF,FF,B8,7E,FF,BF,00,00
000001563,0000019A,false,0,6,FF,FF,9D,7E,FF,3F,00,00
000001564,0000019F,false,0,6,FF,FF,03,80,FF,2F,00,00
000001565,00000297,false,0,7,B7,E7,F0,FC,F2,92,EA,00
000001566,00000206,false,0,8,23,2D,5F,FF,FF,FF,FF,FF
000001567,000000EF,false,0,8,10,FA,00,7D,21,00,7D,FF
000001568,000002C4,false,0,8,00,00,FF,00,C8,64,FF,CF
000001569,000000A5,false,0,8,81,FA,FF,F7,7F,00,00,C1
000001570,000000AC,false,0,2,00,F0,00,00,00,00,00,00
000001571,000000D9,false,0,8,CD,FA,00,10,00,F0,7F,C0
000001572,000000F3,false,0,8,E3,0A,00,FF,F0,C0,FF,FF
000001573,00000197,false,0,4,0C,0D,0E,C0,00,00,00,00
000001574,000001A1,false,0,5,C6,C8,00,00,8A,00,00,00
000001575,00000100,false,0,8,A3,F5,7F,C0,5D,AD,87,70
000001576,00000112,false,0,8,F4,1F,54,0F,60,73,B5,62
000001577,0000036E,false,0,5,EF,FB,FE,FF,14,00,00,00
000001578,00000201,false,0,8,76,13,76,13,FF,FF,FF,FF
000001579,00000163,false,0,8,FF,FF,0E,A5,FF,FF,FF,FF
000001580,0000015F,false,0,8,77,FB,00,7D,00,EE,00,7D
000001581,00000173,false,0,8,0F,F5,00,0E,30,00,DE,10
000001582,00000254,false,0,8,FF,7F,FF,7F,FF,7F,FF,7F
000001583,00000258,false,0,2,44,44,00,00,00,00,00,00
000001584,00000100,false,0,8,44,F6,7F,C0,5D,AD,87,70
000001585,00000112,false,0,8,F4,1F,54,0F,60,73,B5,62
000001586,00000199,false,0,6,FF,FF,B8,7E,FF,BF,00,00
000001587,0000019A,false,0,6,FF,FF,9D,7E,FF,3F,00,00
000001588,0000019F,false,0,6,FF,FF,F7,7F,FF,2F,00,00
000001589,000007BD,false,0,8,01,2D,55,7F,49,58,58,00
000001590,000002F5,false,0,8,60,0F,00,20,22,0A,06,10
000001591,000002BB,false,0,5,48,FA,00,00,F2,00,00,00
000001592,000007BE,false,0,8,0C,41,04,68,00,00,00,00
000001593,000002E8,false,0,8,C0,18,C5,FF,FF,F4,F0,A4
000001594,000000A9,false,0,8,50,78,00,90,F1,00,00,FF
000001595,000003FD,false,0,5,19,01,20,00,FF,00,00,00
000001596,00000108,false,0,8,00,7D,FF,FF,07,F1,FF,FF
000001597,00000212,false,0,8,77,F1,F9,FF,FF,FF,FF,FF
000001598,0000012F,false,0,8,52,24,86,1C,F4,35,30,00
000001599,000002DB,false,0,8,FF,FF,FF,FF,BF,FF,FF,FF
000001600,000001AE,false,0,2,F7,FF,00,00,00,00,00,00
000001601,000002F1,false,0,8,A2,0F,00,00,00,00,00,A0
000001602,000000EF,false,0,8,4D,FB,00,7D,21,00,7D,FF
000001603,000000A5,false,0,8,DC,FB,FF,F7,7F,00,00,C1
000001604,000000AC,false,0,2,00,F0,00,00,00,00,00,00
000001605,000000D9,false,0,8,90,FB,00,10,00,F0,7F,C0
000001606,000000F3,false,0,8,BE,0B,00,FF,F0,C0,FF,FF
000001607,000001A1,false,0,5,E1,CA,00,00,8A,00,00,00
000001608,00000100,false,0,8,19,F7,7F,C0,5D,AD,87,70
000001609,00000112,false,0,8,F4,1F,54,0F,60,73,B5,62
000001610,000002A1,false,0,5,80,58,02,00,FA,00,00,00
000001611,000000C0,false,0,2,FD,40,00,00,00,00,00,00
000001612,0000003C,false,0,8,FF,5F,00,00,00,00,FF,FF
000001613,0000015F,false,0,8,F9,FC,00,7D,00,EE,00,7D
000001614,00000254,false,0,8,FF,7F,FF,7F,FF,7F,FF,7F
000001615,00000197,false,0,4,80,0E,0E,C0,00,00,00,00
000001616,00000258,false,0,2,44,44,00,00,00,00,00,00
000001617,00000302,false,0,7,FF,FF,BC,80,FC,FF,FF,00
000001618,00000100,false,0,8,45,F8,7F,C0,5D,AD,87,70
000001619,00000112,false,0,8,F4,1F,54,0F,60,73,B5,62
000001620,00000199,false,0,6,FF,FF,AE,7E,FF,BF,00,00
000001621,0000019A,false,0,6,FF,FF,9D,7E,FF,3F,00,00
000001622,0000019F,false,0,6,FF,FF,16,80,FF,2F,00,00
000001623,00000397,false,0,7,00,2A,00,54,14,77,01,00
000001624,00000206,false,0,8,C4,2E,5F,FF,FF,FF,FF,FF
000001625,000000EF,false,0,8,C3,FC,00,7D,21,00,7D,FF
000001626,000000A5,false,0,8,52,FC,FF,F7,7F,00,00,C1
000001627,000000AC,false,0,2,00,F0,00,00,00,00,00,00
000001628,000000D9,false,0,8,1E,FC,00,10,00,F0,7F,C0
000001629,000000F3,false,0,8,30,0C,00,FF,F0,C0,FF,FF
000001630,000001A1,false,0,5,88,CC,00,00,8A,00,00,00
000001631,00000314,false,0,3,50,00,FF,00,00,00,00,00
000001632,00000100,false,0,8,18,F9,7F,C0,5D,AD,87,70
000001633,00000112,false,0,8,F4,1F,54,0F,60,73,B5,62
000001634,000002C5,false,0,7,CA,F2,00,60,06,20,CA,00
000001635,000002CA,false,0,2,80,80,00,00,00,00,00,00
000001636,000002F7,false,0,6,0E,D8,49,09,11,F1,00,00
000001637,000002A7,false,0,5,E6,F6,FE,FF,14,00,00,00
000001638,000002B0,false,0,6,3C,44,06,C7,FF,FF,00,00
000001639,00000254,false,0,8,FF,7F,FF,7F,FF,7F,FF,7F
000001640,0000015F,false,0,8,A4,FD,00,7D,00,EE,00,7D
000001641,00000258,false,0,2,44,44,00,00,00,00,00,00
000001642,00000100,false,0,8,FF,FA,7F,C0,5D,AD,87,70
000001643,00000112,false,0,8,F4,1F,54,0F,60,73,B5,62
000001644,00000199,false,0,6,FF,FF,AE,7E,FF,BF,00,00
000001645,00000100,false,0,8,44,F6,7F,C0,5D,AD,87,70
000001646,00000112,false,0,8,F5,1F,54,0F,60,73,B5,62
000001647,000003BB,false,0,2,02,FF,00,00,00,00,00,00
000001648,000007BD,false,0,8,00,00,00,C0,FF,C0,01,08
000001649,00000432,false,0,8,8C,F5,10,B1,C8,FF,00,FF
000001650,000002A7,false,0,5,8F,F0,FE,FF,14,00,00,00
000001651,000007BE,false,0,8,05,00,00,00,00,00,00,E0
000001652,00000254,false,0,8,FF,7F,FF,7F,FF,7F,FF,7F
000001653,0000015F,false,0,8,2B,F4,00,7D,00,EE,00,7D
000001654,00000258,false,0,2,44,44,00,00,00,00,00,00
000001655,00000100,false,0,8,19,F7,7F,C0,5D,AD,87,70
000001656,00000112,false,0,8,F5,1F,54,0F,60,73,B5,62
000001657,00000199,false,0,6,FF,FF,A4,7E,FF,BF,00,00
000001658,0000019A,false,0,6,FF,FF,89,7E,FF,3F,00,00
000001659,0000019F,false,0,6,FF,FF,07,80,FF,2F,00,00
000001660,00000510,false,0,8,40,10,20,00,00,00,00,00
000001661,000000EF,false,0,8,11,F4,00,7D,21,00,7D,FF
000001662,000000A5,false,0,8,80,F4,FF,F7,7F,00,00,C1
000001663,000000D9,false,0,8,CC,F4,00,10,00,F0,7F,C0
000001664,000000AC,false,0,2,00,F0,00,00,00,00,00,00
000001665,000000F3,false,0,8,E2,04,00,FF,F0,C0,FF,FF
000001666,00000197,false,0,4,0A,09,0E,C0,00,00,00,00
000001667,000001A1,false,0,5,7C,CB,00,00,8A,00,00,00
000001668,00000100,false,0,8,45,F8,7F,C0,5D,AD,87,70
000001669,00000112,false,0,8,F5,1F,54,0F,60,73,B5,62
000001670,00000254,false,0,8,FF,7F,FF,7F,FF,7F,FF,7F
000001671,0000015F,false,0,8,76,F5,00,7D,00,EE,00,7D
000001672,00000258,false,0,2,44,44,00,00,00,00,00,00
000001673,00000302,false,0,7,FF,FF,BC,80,FC,FF,FF,00
000001674,00000100,false,0,8,18,F9,7F,C0,5D,AD,87,70
000001675,00000112,false,0,8,F5,1F,54,0F,60,73,B5,62
000001676,00000199,false,0,6,FF,FF,B8,7E,FF,BF,00,00
000001677,0000019A,false,0,6,FF,FF,75,7E,FF,3F,00,00
000001678,0000019F,false,0,6,FF,FF,FE,7F,FF,2F,00,00
000001679,00000297,false,0,7,B8,EB,F0,FC,F2,92,EA,00
000001680,00000206,false,0,8,22,23,5F,FF,FF,FF,FF,FF
000001681,000000EF,false,0,8,4C,F5,00,7D,21,00,7D,FF
000001682,000002C4,false,0,8,00,00,FF,00,C8,64,FF,CF
000001683,000000A5,false,0,8,DD,F5,FF,F7,7F,00,00,C1
000001684,000000AC,false,0,2,00,F0,00,00,00,00,00,00
000001685,000000D9,false,0,8,91,F5,00,10,00,F0,7F,C0
000001686,000000F3,false,0,8,BF,05,00,FF,F0,C0,FF,FF
000001687,000001A1,false,0,5,15,CD,00,00,8A,00,00,00
000001688,00000100,false,0,8,FF,FA,7F,C0,5D,AD,87,70
000001689,00000112,false,0,8,F5,1F,54,0F,60,73,B5,62
000001690,0000036E,false,0,5,54,F1,FE,FF,14,00,00,00
000001691,00000201,false,0,8,CF,14,CF,14,FF,FF,FF,FF
000001692,00000163,false,0,8,FF,FF,0E,A5,FF,FF,FF,FF
000001693,0000015F,false,0,8,91,F6,00,7D,00,EE,00,7D
000001694,00000173,false,0,8,53,FA,00,0E,30,00,DE,10
000001695,00000197,false,0,4,86,0A,0E,C0,00,00,00,00
000001696,00000254,false,0,8,FF,7F,FF,7F,FF,7F,FF,7F
000001697,00000258,false,0,2,44,44,00,00,00,00,00,00
000001698,00000100,false,0,8,A2,FB,7F,C0,5D,AD,87,70
000001699,00000112,false,0,8,F5,1F,54,0F,60,73,B5,62
000001700,00000199,false,0,6,FF,FF,AE,7E,FF,BF,00,00
000001701,0000019A,false,0,6,FF,FF,89,7E,FF,3F,00,00
000001702,0000019F,false,0,6,FF,FF,04,80,FF,2F,00,00
000001703,000002F5,false,0,8,60,0F,00,20,22,0A,06,10
000001704,000002BB,false,0,5,F3,F0,00,00,F2,00,00,00
000001705,000000A9,false,0,8,50,78,00,90,F1,00,00,FF
000001706,000002E8,false,0,8,C0,18,C5,FF,FF,F4,F8,4C
000001707,000003FD,false,0,5,85,09,20,00,FF,00,00,00
000001708,00000108,false,0,8,00,7D,FF,FF,07,F1,FF,FF
000001709,00000212,false,0,8,A5,F9,F9,FF,FF,FF,FF,FF
000001710,0000012F,false,0,8,80,2C,86,1C,F4,35,30,00
000001711,000002DB,false,0,8,FF,FF,FF,FF,BF,FF,FF,FF
000001712,000001AE,false,0,2,F7,FF,00,00,00,00,00,00
000001713,000002F1,false,0,8,A2,0F,00,00,00,00,00,A0
000001714,000000EF,false,0,8,AB,F6,00,7D,21,00,7D,FF
000001715,000000A5,false,0,8,3A,F6,FF,F7,7F,00,00,C1
000001716,000000AC,false,0,2,00,F0,00,00,00,00,00,00
000001717,000000D9,false,0,8,76,F6,00,10,00,F0,7F,C0
000001718,000000F3,false,0,8,58,06,00,FF,F0,C0,FF,FF
000001719,000001A1,false,0,5,5A,C0,00,00,8A,00,00,00
000001720,00000100,false,0,8,2C,FC,7F,C0,5D,AD,87,70
000001721,00000112,false,0,8,F5,1F,54,0F,60,73,B5,62
000001722,000002A1,false,0,5,80,58,02,00,FA,00,00,00
000001723,000000C0,false,0,2,F2,40,00,00,00,00,00,00
000001724,0000003C,false,0,8,FF,5F,00,00,00,00,FF,FF
000001725,0000015F,false,0,8,CC,F7,00,7D,00,EE,00,7D
000001726,00000254,false,0,8,FF,7F,FF,7F,FF,7F,FF,7F
000001727,00000258,false,0,2,44,44,00,00,00,00,00,00
000001728,00000302,false,0,7,FF,FF,BC,80,FC,FF,FF,00
000001729,00000100,false,0,8,71,FD,7F,C0,5D,AD,87,70
000001730,00000112,false,0,8,F5,1F,54,0F,60,73,B5,62
000001731,00000199,false,0,6,FF,FF,AE,7E,FF,BF,00,00
000001732,0000019A,false,0,6,FF,FF,93,7E,FF,3F,00,00
000001733,0000019F,false,0,6,FF,FF,0D,80,FF,2F,00,00
000001734,00000206,false,0,8,AC,24,5F,FF,FF,FF,FF,FF
000001735,000000EF,false,0,8,F6,F7,00,7D,21,00,7D,FF
000001736,000000A5,false,0,8,67,F7,FF,F7,7F,00,00,C1
000001737,000000AC,false,0,2,00,F0,00,00,00,00,00,00
000001738,000000D9,false,0,8,2B,F7,00,10,00,F0,7F,C0
000001739,000000F3,false,0,8,05,07,00,FF,F0,C0,FF,FF
000001740,00000197,false,0,4,09,0B,0E,C0,00,00,00,00
000001741,000001A1,false,0,5,7D,C2,00,00,8A,00,00,00
000001742,00000314,false,0,3,50,00,FF,00,00,00,00,00
000001743,0000051A,false,0,8,00,00,00,00,50,00,00,1A
000001744,00000100,false,0,8,96,FE,7F,C0,5D,AD,87,70
000001745,00000112,false,0,8,F5,1F,54,0F,60,73,B5,62
000001746,000002C5,false,0,7,C0,FA,00,60,06,20,CA,00
000001747,000002A7,false,0,5,12,F1,FE,FF,14,00,00,00
000001748,000002B0,false,0,6,3C,44,06,C7,FF,FF,00,00
000001749,00000254,false,0,8,FF,7F,FF,7F,FF,7F,FF,7F
000001750,0000015F,false,0,8,90,F8,00,7D,00,EE,00,7D
000001751,00000258,false,0,2,44,44,00,00,00,00,00,00
000001752,00000100,false,0,8,97,F0,7F,C0,5D,AD,87,70
000001753,00000112,false,0,8,F5,1F,54,0F,60,73,B5,62
000001754,00000199,false,0,6,FF,FF,B8,7E,FF,BF,00,00
000001755,0000019A,false,0,6,FF,FF,93,7E,FF,3F,00,00
000001756,0000019F,false,0,6,FF,FF,FF,7F,FF,2F,00,00
000001757,00000201,false,0,8,E4,14,E4,14,FF,FF,FF,FF
000001758,000000EF,false,0,8,AA,F8,00,7D,21,00,7D,FF
000001759,000000A5,false,0,8,3B,F8,FF,F7,7F,00,00,C1
000001760,000000D9,false,0,8,77,F8,00,10,00,F0,7F,C0
000001761,000000AC,false,0,2,00,F0,00,00,00,00,00,00
000001762,000000F3,false,0,8,59,08,00,FF,F0,C0,FF,FF
000001763,000001A1,false,0,5,14,C4,00,00,8A,00,00,00
000001764,00000100,false,0,8,CA,F1,7F,C0,5D,AD,87,70
000001765,00000112,false,0,8,F5,1F,54,0F,60,73,B5,62
000001766,000007BD,false,0,8,00,00,00,C0,FF,C0,01,08
000001767,000007BE,false,0,8,0C,41,04,68,00,00,00,00
000001768,000003B4,false,0,8,10,FF,71,F0,B9,FF,01,00
000001769,00000201,false,0,8,E8,14,E8,14,FF,FF,FF,FF
000001770,00000254,false,0,8,FF,7F,FF,7F,FF,7F,FF,7F
000001771,00000100,false,0,8,2C,FC,7F,C0,5D,AD,87,70
000001772,00000112,false,0,8,F5,1F,54,0F,60,73,B5,62
000001773,00000199,false,0,6,FF,FF,A4,7E,FF,BF,00,00
000001774,0000019A,false,0,6,FF,FF,89,7E,FF,3F,00,00
000001775,0000019F,false,0,6,FF,FF,06,80,FF,2F,00,00
000001776,000000EF,false,0,8,79,FE,00,7D,21,00,7D,FF
000001777,000000A5,false,0,8,E8,FE,FF,F7,7F,00,00,C1
000001778,000000AC,false,0,2,00,F0,00,00,00,00,00,00
000001779,000000D9,false,0,8,A4,FE,00,10,00,F0,7F,C0
000001780,000000F3,false,0,8,8A,0E,00,FF,F0,C0,FF,FF
000001781,000001A1,false,0,5,C7,C1,00,00,8A,00,00,00
000001782,00000100,false,0,8,71,FD,7F,C0,5D,AD,87,70
000001783,00000112,false,0,8,F5,1F,54,0F,60,73,B5,62
000001784,00000254,false,0,8,FF,7F,FF,7F,FF,7F,FF,7F
000001785,0000015F,false,0,8,42,F0,00,7D,00,EE,00,7D
000001786,00000197,false,0,4,8C,06,0E,C0,00,00,00,00
000001787,00000258,false,0,2,44,44,00,00,00,00,00,00
000001788,00000302,false,0,7,FF,FF,BC,80,FC,FF,FF,00
000001789,00000100,false,0,8,96,FE,7F,C0,5D,AD,87,70
000001790,00000112,false,0,8,F5,1F,54,0F,60,73,B5,62
000001791,00000199,false,0,6,FF,FF,9A,7E,FF,BF,00,00
000001792,0000019A,false,0,6,FF,FF,89,7E,FF,3F,00,00
000001793,0000019F,false,0,6,FF,FF,EB,7F,FF,2F,00,00
000001794,00000297,false,0,7,78,E0,F0,FC,F2,92,EA,00
000001795,00000206,false,0,8,17,28,5F,FF,FF,FF,FF,FF
000001796,000000EF,false,0,8,78,F0,00,7D,21,00,7D,FF
000001797,000000A5,false,0,8,E9,F0,FF,F7,7F,00,00,C1
000001798,000000AC,false,0,2,00,F0,00,00,00,00,00,00
000001799,000000D9,false,0,8,A5,F0,00,10,00,F0,7F,C0
000001800,000000F3,false,0,8,8B,00,00,FF,F0,C0,FF,FF
000001801,000001A1,false,0,5,E0,C3,00,00,8A,00,00,00
000001802,000002C4,false,0,8,00,00,FF,00,C8,64,FF,CF
000001803,00000239,false,0,8,31,9A,45,00,00,FF,FF,FF
000001804,00000100,false,0,8,97,F0,7F,C0,5D,AD,87,70
000001805,00000112,false,0,8,F5,1F,54,0F,60,73,B5,62
000001806,00000300,false,0,8,1C,1A,59,96,65,59,96,61
000001807,000005E0,false,0,8,11,03,00,05,09,28,D5,7F
000001808,0000036E,false,0,5,A0,F6,FE,FF,14,00,00,00
000001809,00000201,false,0,8,1A,16,1A,16,FF,FF,FF,FF
000001810,00000163,false,0,8,FF,FF,0E,A5,FF,FF,FF,FF
000001811,0000015F,false,0,8,1F,F1,00,7D,00,EE,00,7D
000001812,00000173,false,0,8,3B,F0,00,0E,30,00,DE,10
000001813,00000254,false,0,8,FF,7F,FF,7F,FF,7F,FF,7F
000001814,00000258,false,0,2,44,44,00,00,00,00,00,00
000001815,00000100,false,0,8,CA,F1,7F,C0,5D,AD,87,70
000001816,00000112,false,0,8,F5,1F,54,0F,60,73,B5,62
000001817,00000199,false,0,6,FF,FF,B8,7E,FF,BF,00,00
000001818,0000019A,false,0,6,FF,FF,89,7E,FF,3F,00,00
000001819,0000019F,false,0,6,FF,FF,F0,7F,FF,2F,00,00
000001820,000007BE,false,0,8,00,C0,FA,1C,02,00,00,00
000001821,000002F5,false,0,8,60,0F,00,20,22,0A,06,10
000001822,000002BB,false,0,5,20,F5,00,00,F2,00,00,00
000001823,000000A9,false,0,8,50,78,00,90,F1,00,00,FF
000001824,000002E8,false,0,8,C0,18,C5,FF,FF,F4,F1,B9
000001825,000003FD,false,0,5,A3,02,20,00,FF,00,00,00
000001826,00000108,false,0,8,00,7D,FF,FF,07,F1,FF,FF
000001827,00000201,false,0,8,1E,16,1E,16,FF,FF,FF,FF
000001828,00000212,false,0,8,90,F2,F9,FF,FF,FF,FF,FF
000001829,000002DB,false,0,8,FF,FF,FF,FF,BF,FF,FF,FF
000001830,000001AE,false,0,2,F7,FF,00,00,00,00,00,00
000001831,000002F1,false,0,8,A2,0F,00,00,00,00,00,A0
000001832,000000EF,false,0,8,25,F1,00,7D,21,00,7D,FF
000001833,000000A5,false,0,8,B4,F1,FF,F7,7F,00,00,C1
000001834,000000AC,false,0,2,00,F0,00,00,00,00,00,00
000001835,000000D9,false,0,8,F8,F1,00,10,00,F0,7F,C0
000001836,000000F3,false,0,8,D6,01,00,FF,F0,C0,FF,FF
000001837,00000197,false,0,4,03,07,0E,C0,00,00,00,00
000001838,000001A1,false,0,5,89,C5,00,00,8A,00,00,00
000001839,00000100,false,0,8,2D,F2,7F,C0,5D,AD,87,70
000001840,00000112,false,0,8,F5,1F,54,0F,60,73,B5,62
000001841,000002A1,false,0,5,80,58,02,00,FA,00,00,00
000001842,000000C0,false,0,2,F6,40,00,00,00,00,00,00
000001843,0000003C,false,0,8,FF,5F,00,00,00,00,FF,FF
000001844,0000015F,false,0,8,F8,F2,00,7D,00,EE,00,7D
000001845,00000254,false,0,8,FF,7F,FF,7F,FF,7F,FF,7F
000001846,00000258,false,0,2,44,44,00,00,00,00,00,00
000001847,00000302,false,0,7,FF,FF,BC,80,FC,FF,FF,00
000001848,00000100,false,0,8,70,F3,7F,C0,5D,AD,87,70
000001849,00000112,false,0,8,F5,1F,54,0F,60,73,B5,62
000001850,00000199,false,0,6,FF,FF,A4,7E,FF,BF,00,00
000001851,0000019A,false,0,6,FF,FF,7F,7E,FF,3F,00,00
000001852,0000019F,false,0,6,FF,FF,0A,80,FF,2F,00,00
000001853,00000206,false,0,8,4A,29,5F,FF,FF,FF,FF,FF
000001854,0000012F,false,0,8,3B,26,86,1C,F1,35,30,00
000001855,000000EF,false,0,8,C2,F2,00,7D,21,00,7D,FF
000001856,000000A5,false,0,8,53,F2,FF,F7,7F,00,00,C1
000001857,000000AC,false,0,2,00,F0,00,00,00,00,00,00
000001858,000000D9,false,0,8,1F,F2,00,10,00,F0,7F,C0
000001859,000000F3,false,0,8,31,02,00,FF,F0,C0,FF,FF
000001860,000001A1,false,0,5,AE,C7,00,00,8A,00,00,00
000001861,00000314,false,0,3,50,00,FF,00,00,00,00,00
000001862,00000100,false,0,8,FE,F4,7F,C0,5D,AD,87,70
000001863,00000112,false,0,8,F5,1F,54,0F,60,73,B5,62
000001864,000002C5,false,0,7,8C,F3,00,60,06,20,CA,00
000001865,000002A7,false,0,5,A9,FB,FE,FF,14,00,00,00
000001866,000002B0,false,0,6,3C,44,06,C7,FF,FF,00,00
000001867,00000254,false,0,8,FF,7F,FF,7F,FF,7F,FF,7F
000001868,0000015F,false,0,8,A5,F3,00,7D,00,EE,00,7D
000001869,00000197,false,0,4,85,08,0E,C0,00,00,00,00
000001870,00000258,false,0,2,44,44,00,00,00,00,00,00
000001871,00000100,false,0,8,A3,F5,7F,C0,5D,AD,87,70
000001872,00000112,false,0,8,F5,1F,54,0F,60,73,B5,62
000001873,00000199,false,0,6,FF,FF,A4,7E,FF,BF,00,00
000001874,0000019A,false,0,6,FF,FF,7F,7E,FF,3F,00,00
000001875,0000019F,false,0,6,FF,FF,F7,7F,FF,2F,00,00
000001876,00000201,false,0,8,2E,16,2E,16,FF,FF,FF,FF
000001877,000000EF,false,0,8,9F,F3,00,7D,21,00,7D,FF
000001878,000000A5,false,0,8,0E,F3,FF,F7,7F,00,00,C1
000001879,000000AC,false,0,2,00,F0,00,00,00,00,00,00
000001880,000000D9,false,0,8,42,F3,00,10,00,F0,7F,C0
000001881,000000F3,false,0,8,6C,03,00,FF,F0,C0,FF,FF
000001882,000001A1,false,0,5,5B,C9,00,00,8A,00,00,00
000001883,00000100,false,0,8,44,F6,7F,C0,5D,AD,87,70
000001884,00000112,false,0,8,F5,1F,54,0F,60,73,B5,62
