Time Stamp,ID,Extended,Dir,Bus,LEN,D1,D2,D3,D4,D5,D6,D7,D8
24085093,00000337,false,Rx,0,2,FF,FF,00,00,00,00,00,00,
24085370,000003B4,false,Rx,0,8,00,00,0C,F0,B8,FF,00,FF,
24091436,000003A0,false,Rx,0,8,FF,FF,C0,FF,FF,FF,FF,FD,
24091623,000003A5,false,Rx,0,5,E1,D5,FF,FF,FF,00,00,00,
24091874,00000510,false,Rx,0,8,40,10,20,00,00,00,00,00,
24094374,000002FC,false,Rx,0,8,81,00,01,FF,FF,FF,FF,FF,
24096540,00000242,false,Rx,0,5,D1,F3,FF,FF,FF,00,00,00,
24097125,000002E6,false,Rx,0,8,00,64,64,32,0B,00,1F,20,
24097386,000001D6,false,Rx,0,2,F0,CC,00,00,00,00,00,00,
24097521,000001EE,false,Rx,0,2,00,FC,00,00,00,00,00,00,
24097647,000002A6,false,Rx,0,2,00,AC,00,00,00,00,00,00,
24097784,000002CF,false,Rx,0,2,FA,FF,00,00,00,00,00,00,
24097930,000002F0,false,Rx,0,3,35,DD,F0,00,00,00,00,00,
24098159,000002F9,false,Rx,0,7,00,00,00,08,01,C0,F3,00,
24098317,00000314,false,Rx,0,3,FF,FF,FF,00,00,00,00,00,
24098495,00000349,false,Rx,0,5,FE,FF,3E,08,00,00,00,00,
24098633,000003AC,false,Rx,0,2,FE,CF,00,00,00,00,00,00,
24098779,000003BE,false,Rx,0,3,3D,F0,00,00,00,00,00,00,
24102975,0000012F,false,Rx,0,8,86,2A,86,1C,F1,31,30,00,
24106892,000001EE,false,Rx,0,2,00,FC,00,00,00,00,00,00,
24107919,000001E1,false,Rx,0,6,61,F3,00,FF,FF,FF,00,00,
24108442,000001AE,false,Rx,0,2,FB,FF,00,00,00,00,00,00,
24117294,0000019D,false,Rx,0,8,1A,DA,03,07,FF,FF,FF,FF,
24117520,000002C5,false,Rx,0,7,F5,FF,00,30,C4,70,C8,00,
24117659,000002CA,false,Rx,0,2,71,72,00,00,00,00,00,00,
24117867,000002F7,false,Rx,0,6,02,D8,8A,0B,11,F2,00,00,
24118118,000002F8,false,Rx,0,8,0B,0D,2F,06,67,E5,07,F1,
24118328,00000328,false,Rx,0,6,2B,4D,57,0E,94,1E,00,00,
24118579,00000330,false,Rx,0,8,BC,CB,01,07,00,FF,9C,0A,
24122303,00000356,false,Rx,0,8,1F,F0,01,FF,FF,FF,FF,FF,
24122519,00000373,false,Rx,0,6,32,31,03,76,F0,FF,00,00,
24122708,00000393,false,Rx,0,4,FF,FF,FF,FF,00,00,00,00,
24124498,000000A9,false,Rx,0,8,00,7D,00,90,F1,00,00,FF,
24125167,00000390,false,Rx,0,4,F0,FF,FF,FF,00,00,00,00,
24127949,0000012F,false,Rx,0,8,DB,2B,86,1C,F1,31,30,00,
24129927,000005E3,false,Rx,0,8,01,00,A1,FF,FF,FF,FF,FF,
24130053,000003BB,false,Rx,0,2,02,FF,00,00,00,00,00,00,
24133172,000000C0,false,Rx,0,2,F0,40,00,00,00,00,00,00,
24133417,0000003C,false,Rx,0,8,FF,5F,00,00,00,00,FF,FF,
24134408,000002A1,false,Rx,0,5,00,58,02,00,F0,00,00,00,
24142318,00000336,false,Rx,0,7,00,00,00,FE,FF,FE,FF,00,
24142585,000007BE,false,Rx,0,8,06,01,20,00,00,01,83,00,
24144395,00000397,false,Rx,0,7,00,2A,00,75,09,28,01,00,
24148763,00000300,false,Rx,0,8,1D,1E,59,96,65,59,96,65,
24154377,000002B0,false,Rx,0,6,3D,45,00,CD,FF,FF,00,00,
24164155,00000197,false,Rx,0,4,64,E0,9E,C0,00,00,00,00,
24172243,000002C5,false,Rx,0,7,30,F0,00,30,C4,70,C8,00,
24173991,0000038E,false,Rx,0,8,00,00,0B,0B,A9,09,DA,FF,
24174311,000003D2,false,Rx,0,2,F3,FF,00,00,00,00,00,00,
24180617,00000514,false,Rx,0,8,00,00,00,00,E0,0A,00,14,
24185290,00000272,false,Rx,0,8,BB,F2,FC,02,FF,FF,FF,FF,
24189216,00000510,false,Rx,0,8,40,10,20,00,00,00,00,00,
24190204,00000514,false,Rx,0,8,00,00,00,00,E0,0A,00,14,
24192296,00000364,false,Rx,0,5,00,A0,FC,FF,FF,00,00,00,
24192557,000003CA,false,Rx,0,8,95,E0,15,07,07,80,FF,FF,
24192820,000005E0,false,Rx,0,8,11,03,00,04,06,00,C4,1B,
24193083,000007BD,false,Rx,0,8,00,00,00,C0,FF,40,01,01,
24194034,000002E7,false,Rx,0,8,BC,C0,07,FF,DF,FF,00,00,
24194202,00000197,false,Rx,0,4,06,01,0E,C0,00,00,00,00,
24206552,000001D0,false,Rx,0,8,6C,F0,DF,FF,FF,FF,FF,FF,
24206791,000002C4,false,Rx,0,8,FF,FF,FF,64,64,64,FF,FF,
24207021,000000A5,false,Rx,0,8,4A,F0,FF,F7,7F,FF,FF,FF,
24207158,000000AC,false,Rx,0,2,FF,F7,00,00,00,00,00,00,
24207397,000000D9,false,Rx,0,8,64,F0,FF,FF,FF,EF,7F,FF,
24207641,000000F3,false,Rx,0,8,85,F0,FF,FF,F0,FF,FF,FF,
24207767,000002A6,false,Rx,0,2,00,AC,00,00,00,00,00,00,
24207986,00000304,false,Rx,0,6,FF,FF,FF,FF,FF,FF,00,00,
24208143,00000314,false,Rx,0,3,FF,FF,FF,00,00,00,00,00,
24208269,000003AC,false,Rx,0,2,FE,CF,00,00,00,00,00,00,
24208405,000001AE,false,Rx,0,2,FB,FF,00,00,00,00,00,00,
24208561,000003BE,false,Rx,0,3,3D,F0,00,00,00,00,00,00,
24208795,000003F9,false,Rx,0,8,8A,F0,FF,F3,30,30,CF,FF,
24210992,00000246,false,Rx,0,5,3F,FB,00,FF,FF,00,00,00,
24211232,00000299,false,Rx,0,6,FF,FF,FF,FF,FF,00,00,00,
24211484,0000037B,false,Rx,0,6,40,00,00,FF,FF,00,00,00,
24211621,00000340,false,Rx,0,2,FC,FF,00,00,00,00,00,00,
24211747,00000389,false,Rx,0,2,FF,F0,00,00,00,00,00,00,
24211934,000001B9,false,Rx,0,5,FF,FF,FF,00,FF,00,00,00,
24212165,000003B3,false,Rx,0,7,0F,00,00,00,00,F0,08,00,
24212374,000003E4,false,Rx,0,6,00,00,00,00,FF,FF,00,00,
24212616,000003F9,false,Rx,0,8,35,F1,80,C0,A6,30,C0,FF,
24212868,00000592,false,Rx,0,8,01,00,00,FF,FF,FF,FF,FF,
24213056,000002C3,false,Rx,0,5,F8,FF,FF,FF,FF,00,00,00,
24215202,00000509,false,Rx,0,8,00,00,00,00,6E,32,00,09,
24220483,0000015F,false,Rx,0,8,1F,F1,00,7D,00,EE,00,7D,
24220733,00000254,false,Rx,0,8,FF,7F,FF,7F,FF,7F,FF,7F,
24220964,00000173,false,Rx,0,8,2F,F1,00,0E,E0,00,DE,00,
24221215,00000163,false,Rx,0,8,FF,FF,00,85,FF,FF,FF,FF,
24221342,00000258,false,Rx,0,2,11,11,00,00,00,00,00,00,
24221572,00000302,false,Rx,0,7,FF,FF,FF,7F,F8,FF,FF,00,
24222548,0000013A,false,Rx,0,8,0D,F5,00,00,00,0E,FF,FF,
24223363,000002ED,false,Rx,0,3,C3,01,00,00,00,00,00,00,
24224156,00000197,false,Rx,0,4,8A,02,0E,C0,00,00,00,00,
24224470,000000A9,false,Rx,0,8,70,78,00,90,F1,00,00,FF,
24225640,00000199,false,Rx,0,6,FF,FF,F3,7E,FF,8F,00,00,
24225839,0000019A,false,Rx,0,6,FF,FF,F3,7E,FF,8F,00,00,
24226049,0000019F,false,Rx,0,6,FF,FF,00,80,FF,8F,00,00,
24226300,00000108,false,Rx,0,8,00,00,FF,00,00,F0,FF,FF,
24226520,00000301,false,Rx,0,7,FF,FF,FF,7F,FF,FF,8F,00,
24226756,000000A5,false,Rx,0,8,B4,F1,FF,F7,7F,00,00,C1,
24226893,000000AC,false,Rx,0,2,00,F0,00,00,00,00,00,00,
24227132,000000D9,false,Rx,0,8,10,F1,00,10,00,F0,7F,C8,
24227373,000000F3,false,Rx,0,8,D6,01,00,FF,F0,C0,FF,FF,
24227553,000002BB,false,Rx,0,5,9A,F6,00,00,F2,00,00,00,
24227794,00000289,false,Rx,0,8,54,F0,E0,FF,FD,00,EC,01,
24228014,0000012F,false,Rx,0,8,55,2C,86,1C,F1,31,30,00,
24228202,000003FD,false,Rx,0,5,29,01,00,00,FF,00,00,00,
24228464,00000201,false,Rx,0,8,00,00,00,00,FF,FF,FF,FF,
24228708,00000206,false,Rx,0,8,DB,21,5A,FF,FF,FF,FF,FF,
24228959,00000212,false,Rx,0,8,31,F1,F8,FF,FF,FF,FF,FF,
24229211,000002DB,false,Rx,0,8,FF,FF,FF,FF,3F,FF,FF,FF,
24229472,000002F1,false,Rx,0,8,00,00,00,00,00,00,00,00,
24229725,000002FA,false,Rx,0,8,00,00,00,FF,FF,FF,FF,FF,
24229977,0000032B,false,Rx,0,8,00,00,00,00,00,00,00,FF,
24230228,00000331,false,Rx,0,8,FF,FF,FF,0F,00,FE,F7,FF,
24230365,0000038C,false,Rx,0,2,FC,FF,00,00,00,00,00,00,
24230607,000000EF,false,Rx,0,8,25,F1,00,7D,21,00,7D,FF,
24230849,000003AD,false,Rx,0,8,00,F0,FF,FF,FF,FF,FF,F0,
24231007,000003E5,false,Rx,0,3,FC,FF,FF,00,00,00,00,00,
24231184,000001A1,false,Rx,0,5,09,C6,00,00,88,00,00,00,
24231321,000003E8,false,Rx,0,2,F0,FF,00,00,00,00,00,00,
24231571,000003E9,false,Rx,0,8,00,00,00,00,00,00,00,00,
24232438,000003D8,false,Rx,0,8,03,FF,FF,FF,FF,FF,FF,FF,
24232685,00000512,false,Rx,0,8,00,00,00,00,00,00,00,12,
24232937,00000592,false,Rx,0,8,41,00,00,00,00,00,00,00,
24233178,00000100,false,Rx,0,8,31,F2,7F,C0,5D,00,00,00,
24233429,0000003C,false,Rx,0,8,FF,5F,00,00,00,00,FF,FF,
24233672,0000021F,false,Rx,0,8,FF,FF,FF,FF,FF,FF,FF,FF,
24234402,000002A1,false,Rx,0,5,00,58,02,00,F0,00,00,00,
24235994,00000112,false,Rx,0,8,FF,FF,FF,FF,FF,7F,F5,FF,
24238534,0000036F,false,Rx,0,5,7F,F1,38,00,14,00,00,00,
24238781,0000031C,false,Rx,0,8,FF,FF,FF,FF,FF,FF,FF,FF,
24238992,0000033B,false,Rx,0,6,00,FF,FF,FF,FF,FF,00,00,
24240305,00000254,false,Rx,0,8,FF,7F,FF,7F,FF,7F,FF,7F,
24240547,0000015F,false,Rx,0,8,F8,F2,00,7D,00,EE,00,7D,
24240674,00000258,false,Rx,0,2,11,11,00,00,00,00,00,00,
24241532,000001D0,false,Rx,0,8,31,F1,DF,FF,FF,FF,FF,FF,
24241711,000001B9,false,Rx,0,5,FF,FF,FF,00,FF,00,00,00,
24242462,0000013A,false,Rx,0,8,B7,F7,00,00,00,0E,FF,FF,
24242985,00000100,false,Rx,0,8,6C,F3,7F,C0,5D,00,00,00,
24245296,00000199,false,Rx,0,6,FF,FF,F3,7E,FF,8F,00,00,
24245495,0000019A,false,Rx,0,6,FF,FF,F3,7E,FF,8F,00,00,
24245705,0000019F,false,Rx,0,6,FF,FF,00,80,FF,8F,00,00,
24245988,00000112,false,Rx,0,8,FF,FF,FF,FF,FF,7F,F5,FF,
24246751,000000A5,false,Rx,0,8,53,F2,FF,F7,7F,00,00,C1,
24246985,000000D9,false,Rx,0,8,F7,F2,00,10,00,F0,7F,C8,
24247122,000000AC,false,Rx,0,2,00,F0,00,00,00,00,00,00,
24247361,000000F3,false,Rx,0,8,31,02,00,FF,F0,C0,FF,FF,
24247615,000002FC,false,Rx,0,8,81,00,01,FF,FF,FF,FF,FF,
24248700,000003CB,false,Rx,0,4,DE,AD,C8,AB,00,00,00,00,
24249194,000003A5,false,Rx,0,5,E1,D5,FF,FF,FF,00,00,00,
24250476,000000EF,false,Rx,0,8,C2,F2,00,7D,21,00,7D,FF,
24251029,000001A1,false,Rx,0,5,FC,C8,00,00,88,00,00,00,
24251801,000003B3,false,Rx,0,7,1F,00,FF,0F,00,F3,08,00,
24252968,00000100,false,Rx,0,8,E2,F4,7F,C0,5D,00,00,00,
24253489,00000369,false,Rx,0,5,FF,F0,FF,FF,FF,00,00,00,
24254158,00000197,false,Rx,0,4,05,03,0E,C0,00,00,00,00,
24254430,000002B0,false,Rx,0,6,3D,45,00,CD,FF,FF,00,00,
24255965,00000112,false,Rx,0,8,FF,FF,FF,FF,FF,7F,F5,FF,
24256216,00000431,false,Rx,0,8,FE,FF,FF,FF,FF,FF,FF,00,
24257645,00000242,false,Rx,0,5,D1,F3,FF,FF,FF,00,00,00,
24257947,000002E6,false,Rx,0,8,00,64,64,32,0B,00,1F,20,
24258720,000003A7,false,Rx,0,7,D0,F1,00,00,1F,11,F0,00,
24258857,000003E6,false,Rx,0,2,59,00,00,00,00,00,00,00,
24260307,00000254,false,Rx,0,8,FF,7F,FF,7F,FF,7F,FF,7F,
24260549,0000015F,false,Rx,0,8,A5,F3,00,7D,00,EE,00,7D,
24260676,00000258,false,Rx,0,2,11,11,00,00,00,00,00,00,
24260915,00000302,false,Rx,0,7,FF,FF,FF,7F,F8,FF,FF,00,
24262459,0000013A,false,Rx,0,8,B6,F9,00,00,00,0E,FF,FF,
24263012,00000100,false,Rx,0,8,BF,F5,7F,C0,5D,00,00,00,
24265282,00000199,false,Rx,0,6,FF,FF,F3,7E,FF,8F,00,00,
24265491,0000019A,false,Rx,0,6,FF,FF,F3,7E,FF,8F,00,00,
24265701,0000019F,false,Rx,0,6,FF,FF,00,80,FF,8F,00,00,
24265984,00000112,false,Rx,0,8,FF,FF,FF,FF,FF,7F,F5,FF,
24266225,00000206,false,Rx,0,8,3C,22,5A,FF,FF,FF,FF,FF,
24266476,00000432,false,Rx,0,8,FC,FF,FF,FF,FF,FF,00,FF,
24266750,000000A5,false,Rx,0,8,0E,F3,FF,F7,7F,00,00,C1,
24266989,000000D9,false,Rx,0,8,AA,F3,00,10,00,F0,7F,C8,
24267125,000000AC,false,Rx,0,2,00,F0,00,00,00,00,00,00,
24267365,000000F3,false,Rx,0,8,6C,03,00,FF,F0,C0,FF,FF,
24267492,000001EE,false,Rx,0,2,00,FC,00,00,00,00,00,00,
24267712,000002C5,false,Rx,0,7,D6,F1,00,30,04,70,C8,00,
24270155,00000459,false,Rx,0,8,D7,1A,55,7F,6E,04,10,8C,
24270563,000000EF,false,Rx,0,8,9F,F3,00,7D,21,00,7D,FF,
24271104,000001A1,false,Rx,0,5,DB,CA,00,00,88,00,00,00,
24272920,00000100,false,Rx,0,8,58,F6,7F,C0,5D,00,00,00,
24274483,000003E9,false,Rx,0,8,08,52,00,00,00,00,00,00,
24274735,00000201,false,Rx,0,8,FF,FF,FF,FF,FF,FF,FF,FF,
24274986,000002FA,false,Rx,0,8,FD,FF,00,FF,FF,FF,FF,FF,
24275239,0000032B,false,Rx,0,8,FF,FF,FF,FF,FF,FF,00,FF,
24275490,0000041E,false,Rx,0,8,00,00,CF,FF,FF,FF,FF,FF,
24275742,0000059A,false,Rx,0,8,65,01,FF,00,00,00,FF,02,
24275984,0000059A,false,Rx,0,8,12,06,00,0A,1E,00,00,02,
24276235,00000112,false,Rx,0,8,FF,FF,FF,FF,FF,7F,F5,FF,
24277398,000002A7,false,Rx,0,5,10,F0,71,02,14,00,00,00,
24279026,0000059A,false,Rx,0,8,65,01,FF,00,00,00,FF,02,
24280306,00000254,false,Rx,0,8,FF,7F,FF,7F,FF,7F,FF,7F,
24280548,0000015F,false,Rx,0,8,2B,F4,00,7D,00,EE,00,7D,
24280676,00000258,false,Rx,0,2,11,11,00,00,00,00,00,00,
24280925,00000514,false,Rx,0,8,00,00,00,00,E0,0A,00,14,
24282200,000003F9,false,Rx,0,8,FD,F2,80,F0,A6,30,C0,FF,
24282452,00000592,false,Rx,0,8,40,00,00,00,FF,FF,FF,FF,
24282693,0000013A,false,Rx,0,8,0C,FB,00,00,00,0E,FF,FF,
24283143,00000100,false,Rx,0,8,0E,F7,7F,FF,FF,00,00,00,
24284155,00000197,false,Rx,0,4,8F,04,0E,C0,00,00,00,00,
24285280,00000199,false,Rx,0,6,FF,FF,F3,7E,FF,8F,00,00,
24285489,0000019A,false,Rx,0,6,FF,FF,F3,7E,FF,8F,00,00,
24285699,0000019F,false,Rx,0,6,FF,FF,00,80,FF,8F,00,00,
24285941,000001FA,false,Rx,0,8,40,49,05,F0,FF,46,FF,FF,
24286181,00000112,false,Rx,0,8,FF,FF,FF,FF,FF,7F,F5,FF,
24286422,000003B4,false,Rx,0,8,00,00,0C,F0,B8,FF,00,FF,
24287149,000000A5,false,Rx,0,8,80,F4,FF,F7,7F,00,00,C1,
24287275,000000AC,false,Rx,0,2,00,F0,00,00,00,00,00,00,
24287516,000000D9,false,Rx,0,8,24,F4,00,10,00,F0,7F,C8,
24287758,000000F3,false,Rx,0,8,E2,04,00,FF,F0,C0,FF,FF,
24287884,0000024D,false,Rx,0,2,C0,FF,00,00,00,00,00,00,
24289222,00000510,false,Rx,0,8,40,10,20,00,00,00,00,00,
24290484,000000EF,false,Rx,0,8,11,F4,00,7D,21,00,7D,FF,
24291028,000001A1,false,Rx,0,5,B2,CC,00,00,88,00,00,00,
24291634,000003C0,false,Rx,0,8,DD,DD,DD,FD,FF,FF,FF,FF,
24292395,000007BD,false,Rx,0,8,00,00,00,C0,FF,40,01,01,
24292669,000007BE,false,Rx,0,8,05,00,00,00,00,00,00,E0,
24293108,00000100,false,Rx,0,8,DF,F8,7F,FF,FF,16,80,70,
24294321,000003E8,false,Rx,0,2,F1,FF,00,00,00,00,00,00,
24295974,00000112,false,Rx,0,8,FF,FF,FF,FF,FF,7F,F5,FF,
24296423,00000363,false,Rx,0,8,3C,D3,EA,07,FF,FF,FF,FF,
24297612,00000349,false,Rx,0,5,FE,FF,3E,08,00,00,00,00,
24300306,00000254,false,Rx,0,8,FF,7F,FF,7F,FF,7F,FF,7F,
24300434,00000258,false,Rx,0,2,11,11,00,00,00,00,00,00,
24300664,0000015F,false,Rx,0,8,76,F5,00,7D,00,EE,00,7D,
24300895,00000302,false,Rx,0,7,FF,FF,FF,7F,F8,FF,FF,00,
24302492,0000013A,false,Rx,0,8,DF,FD,00,00,00,0E,FF,FF,
24303057,00000100,false,Rx,0,8,82,F9,7F,FF,FF,16,80,70,
24304276,00000239,false,Rx,0,8,FF,FF,FF,FF,FF,4D,FF,FF,
24304517,000002F5,false,Rx,0,8,60,0F,0A,20,20,0A,D4,1E,
24305288,00000199,false,Rx,0,6,FF,FF,F3,7E,FF,8F,00,00,
24305487,0000019A,false,Rx,0,6,FF,FF,F3,7E,FF,8F,00,00,
24305697,0000019F,false,Rx,0,6,FF,FF,00,80,FF,8F,00,00,
24306136,00000206,false,Rx,0,8,61,23,5A,FF,FF,FF,FF,FF,
24306377,00000112,false,Rx,0,8,FF,FF,FF,FF,96,71,15,FF,
24307160,00000431,false,Rx,0,8,F6,FF,FF,FF,FF,FF,FF,4B,
24307398,000000A5,false,Rx,0,8,DD,F5,FF,F7,7F,00,00,C1,
24307534,000000AC,false,Rx,0,2,00,F0,00,00,00,00,00,00,
24307775,000000D9,false,Rx,0,8,79,F5,00,10,00,F0,7F,C8,
24308016,000000F3,false,Rx,0,8,BF,05,00,FF,F0,C0,FF,FF,
24308216,000001E1,false,Rx,0,6,6A,F4,00,FF,FF,FF,00,00,
24308456,000002C4,false,Rx,0,8,00,00,FF,00,C8,64,FF,CF,
24308594,000001AE,false,Rx,0,2,FB,FF,00,00,00,00,00,00,
24308834,00000592,false,Rx,0,8,26,85,F5,01,15,FF,FF,FF,
24309055,00000297,false,Rx,0,7,33,E0,F3,F2,F2,92,EA,00,
24310464,000000EF,false,Rx,0,8,4C,F5,00,7D,21,00,7D,FF,
24311029,000001A1,false,Rx,0,5,95,CE,00,00,88,00,00,00,
24313072,00000100,false,Rx,0,8,65,FA,7F,FF,FF,16,80,70,
24313590,00000348,false,Rx,0,8,FE,FE,FE,00,FE,FE,FF,00,
24314165,00000197,false,Rx,0,4,00,05,0E,C0,00,00,00,00,
24315978,00000112,false,Rx,0,8,FF,FF,FF,FF,96,71,15,FF,
24316448,00000432,false,Rx,0,8,BC,E7,FF,C8,59,FF,00,FF,
24317386,0000036E,false,Rx,0,5,45,F1,06,03,14,00,00,00,
24317543,00000314,false,Rx,0,3,00,00,FF,00,00,00,00,00,
24320313,00000163,false,Rx,0,8,FF,FF,00,85,FF,FF,FF,FF,
24320555,00000173,false,Rx,0,8,1A,FA,00,0E,E0,00,DE,00,
24320797,0000015F,false,Rx,0,8,91,F6,00,7D,00,EE,00,7D,
24321038,00000254,false,Rx,0,8,FF,7F,FF,7F,FF,7F,FF,7F,
24321165,00000258,false,Rx,0,2,11,11,00,00,00,00,00,00,
24322253,000002C5,false,Rx,0,7,1C,F2,00,30,04,70,C8,00,
24322535,0000013A,false,Rx,0,8,39,F0,00,00,00,0E,FF,FF,
24323007,00000100,false,Rx,0,8,38,FB,7F,FF,FF,16,80,70,
24324342,000002E8,false,Rx,0,8,C0,EC,C3,FF,FF,F2,F2,83,
24324583,000000A9,false,Rx,0,8,70,78,00,90,F1,00,00,FF,
24325283,00000199,false,Rx,0,6,FF,FF,F3,7E,FF,8F,00,00,
24325482,0000019A,false,Rx,0,6,FF,FF,F3,7E,FF,8F,00,00,
24325692,0000019F,false,Rx,0,6,FF,FF,00,80,FF,8F,00,00,
24325996,00000112,false,Rx,0,8,FF,FF,FF,FF,96,71,15,FF,
24326236,00000108,false,Rx,0,8,00,7D,FF,FF,07,F1,FF,FF,
24326477,000002F5,false,Rx,0,8,60,0F,0A,20,20,0A,D4,1E,
24326658,000003FD,false,Rx,0,5,93,02,00,00,FF,00,00,00,
24326908,00000212,false,Rx,0,8,D6,F2,F8,FF,FF,FF,FF,FF,
24327159,000002DB,false,Rx,0,8,FF,FF,FF,FF,BF,FF,FF,FF,
24327412,000002F1,false,Rx,0,8,A2,0F,00,00,00,00,00,A0,
24327645,000000A5,false,Rx,0,8,3A,F6,FF,F7,7F,00,00,C1,
24327782,000000AC,false,Rx,0,2,00,F0,00,00,00,00,00,00,
24328021,000000D9,false,Rx,0,8,9E,F6,00,10,00,F0,7F,C8,
24328253,000000F3,false,Rx,0,8,58,06,00,FF,F0,C0,FF,FF,
24328493,0000012F,false,Rx,0,8,08,2D,86,1C,F1,31,30,00,
24328725,00000289,false,Rx,0,8,09,F1,E0,FF,FD,00,EC,01,
24328915,000002BB,false,Rx,0,5,6E,F1,00,00,F2,00,00,00,
24330486,000000EF,false,Rx,0,8,AB,F6,00,7D,21,00,7D,FF,
24331029,000001A1,false,Rx,0,5,FD,C1,00,00,88,00,00,00,
24332164,000003F9,false,Rx,0,8,6C,F3,80,F0,44,30,C0,FF,
24333031,00000100,false,Rx,0,8,B6,FC,7F,FF,FF,16,80,70,
24333157,000000C0,false,Rx,0,2,F1,40,00,00,00,00,00,00,
24333407,0000003C,false,Rx,0,8,FF,5F,00,00,00,00,FF,FF,
24333704,0000043D,false,Rx,0,8,FE,FE,EF,FF,F6,FE,FE,F7,
24333955,0000051D,false,Rx,0,8,00,00,00,00,00,00,00,1D,
24334436,000002A1,false,Rx,0,5,00,58,02,00,F0,00,00,00,
24335970,00000112,false,Rx,0,8,FF,FF,FF,FF,96,71,15,FF,
24336211,000001FA,false,Rx,0,8,45,49,45,F0,FF,46,FF,FF,
24340301,00000254,false,Rx,0,8,FF,7F,FF,7F,FF,7F,FF,7F,
24340538,0000015F,false,Rx,0,8,CC,F7,00,7D,00,EE,00,7D,
24340666,00000258,false,Rx,0,2,11,11,00,00,00,00,00,00,
24340895,00000302,false,Rx,0,7,FF,FF,FF,7F,F8,FF,FF,00,
24342168,000002CA,false,Rx,0,2,71,72,00,00,00,00,00,00,
24342471,0000013A,false,Rx,0,8,83,F2,00,00,00,0E,FF,FF,
24343057,00000100,false,Rx,0,8,EB,FD,7F,FF,FF,16,80,70,
24344162,00000197,false,Rx,0,4,8C,06,0E,C0,00,00,00,00,
24344945,00000212,false,Rx,0,8,CD,F3,F9,FF,FF,FF,FF,FF,
24345291,00000199,false,Rx,0,6,FF,FF,F3,7E,FF,8F,00,00,
24345489,0000019A,false,Rx,0,6,FF,FF,F3,7E,FF,8F,00,00,
24345700,0000019F,false,Rx,0,6,FF,FF,00,80,FF,8F,00,00,
24345972,00000112,false,Rx,0,8,FF,FF,FF,FF,96,71,15,FF,
24346213,00000206,false,Rx,0,8,EF,24,5A,FF,FF,FF,FF,FF,
24347127,000000A5,false,Rx,0,8,67,F7,FF,F7,7F,00,00,C1,
24347265,000000AC,false,Rx,0,2,00,F0,00,00,00,00,00,00,
24347505,000000D9,false,Rx,0,8,C3,F7,00,10,00,F0,7F,C8,
24347747,000000F3,false,Rx,0,8,05,07,00,FF,F0,C0,FF,FF,
24350470,000000EF,false,Rx,0,8,F6,F7,00,7D,21,00,7D,FF,
24351030,000001A1,false,Rx,0,5,DA,C3,00,00,88,00,00,00,
24351271,0000051A,false,Rx,0,8,00,00,00,00,50,00,00,1A,
24351804,000001B9,false,Rx,0,5,FF,FF,FF,14,FF,00,00,00,
24353108,00000100,false,Rx,0,8,0C,FE,7F,FF,FF,16,80,70,
24353683,0000043C,false,Rx,0,8,FE,FE,FF,FF,FF,FF,FF,FF,
24354403,000002B0,false,Rx,0,6,3D,45,00,CD,FF,FF,00,00,
24355979,00000112,false,Rx,0,8,FF,FF,FF,FF,96,71,15,FF,
24357384,000002A7,false,Rx,0,5,12,F1,FE,FF,14,00,00,00,
24359090,000002E7,false,Rx,0,8,D4,C1,07,FF,5F,FF,00,00,
24360300,00000254,false,Rx,0,8,FF,7F,FF,7F,FF,7F,FF,7F,
24360438,00000258,false,Rx,0,2,11,11,00,00,00,00,00,00,
24360678,0000015F,false,Rx,0,8,90,F8,00,7D,00,EE,00,7D,
24362273,000002F8,false,Rx,0,8,0B,0D,2F,06,67,E5,07,F1,
24362524,0000013A,false,Rx,0,8,50,F4,00,00,00,0E,FF,FF,
24362767,00000330,false,Rx,0,8,BC,CB,01,07,00,0F,9C,0A,
24363039,00000100,false,Rx,0,8,0D,F0,7F,FF,FF,16,80,70,
24364333,00000323,false,Rx,0,2,F0,FF,00,00,00,00,00,00,
24365281,00000199,false,Rx,0,6,FF,FF,F3,7E,FF,8F,00,00,
24365480,0000019A,false,Rx,0,6,FF,FF,F3,7E,FF,8F,00,00,
24365691,0000019F,false,Rx,0,6,FF,FF,00,80,FF,8F,00,00,
24365984,00000112,false,Rx,0,8,FF,FF,FF,FF,96,71,15,FF,
24366443,00000432,false,Rx,0,8,BC,E7,10,C8,59,FF,00,FF,
24366951,000002A6,false,Rx,0,2,00,AC,00,00,00,00,00,00,
24367076,000003AC,false,Rx,0,2,FE,CF,00,00,00,00,00,00,
24367317,000000A5,false,Rx,0,8,3B,F8,FF,F7,7F,00,00,C1,
24367453,000000AC,false,Rx,0,2,00,F0,00,00,00,00,00,00,
24367694,000000D9,false,Rx,0,8,9F,F8,00,10,00,F0,7F,C8,
24367924,000000F3,false,Rx,0,8,59,08,00,FF,F0,C0,FF,FF,
24368083,000003BE,false,Rx,0,3,3D,F0,00,00,00,00,00,00,
24370570,000000EF,false,Rx,0,8,AA,F8,00,7D,21,00,7D,FF,
24371120,000001A1,false,Rx,0,5,B3,C5,00,00,88,00,00,00,
24372962,00000100,false,Rx,0,8,50,F1,7F,FF,FF,16,80,70,
24374162,00000197,false,Rx,0,4,03,07,0E,C0,00,00,00,00,
24374485,0000059A,false,Rx,0,8,65,03,FF,00,00,00,FF,04,
24374769,0000059A,false,Rx,0,8,65,03,FF,00,00,00,FF,04,
24375980,00000112,false,Rx,0,8,FF,FF,FF,FF,96,71,15,FF,
24377251,000002C5,false,Rx,0,7,5A,F3,00,30,04,70,C8,00,
24380302,00000254,false,Rx,0,8,FF,7F,FF,7F,FF,7F,FF,7F,
24380429,00000258,false,Rx,0,2,11,11,00,00,00,00,00,00,
24380670,0000015F,false,Rx,0,8,CD,F9,00,7D,00,EE,00,7D,
24380899,00000302,false,Rx,0,7,FF,FF,FF,7F,F8,FF,FF,00,
24382464,0000013A,false,Rx,0,8,EA,F6,00,00,00,0E,FF,FF,
24383068,00000100,false,Rx,0,8,B7,F2,7F,FF,FF,16,80,70,
24384049,0000059D,false,Rx,0,8,08,0F,00,02,00,00,00,00,
24385279,00000199,false,Rx,0,6,FF,FF,F3,7E,FF,8F,00,00,
24385488,0000019A,false,Rx,0,6,FF,FF,F3,7E,FF,8F,00,00,
24385690,0000019F,false,Rx,0,6,FF,FF,00,80,FF,8F,00,00,
24385930,00000272,false,Rx,0,8,E6,F3,FC,02,FF,FF,FF,FF,
24386170,00000112,false,Rx,0,8,FF,FF,FF,FF,96,71,15,FF,
24386423,00000206,false,Rx,0,8,78,25,59,FF,FF,FF,FF,FF,
24386665,000005D6,false,Rx,0,8,01,B6,03,FF,FF,FF,FF,FF,
24387217,000000A5,false,Rx,0,8,66,F9,FF,F7,7F,00,00,C1,
24387354,000000AC,false,Rx,0,2,00,F0,00,00,00,00,00,00,
24387594,000000D9,false,Rx,0,8,C2,F9,00,10,00,F0,7F,C8,
24387835,000000F3,false,Rx,0,8,04,09,00,FF,F0,C0,FF,FF,
24390476,000000EF,false,Rx,0,8,F7,F9,00,7D,21,00,7D,FF,
24391037,000001A1,false,Rx,0,5,94,C7,00,00,88,00,00,00,
24391600,00000340,false,Rx,0,2,FC,FF,00,00,00,00,00,00,
24391736,00000389,false,Rx,0,2,FF,F0,00,00,00,00,00,00,
24392278,000005D6,false,Rx,0,8,01,B7,03,FF,FF,FF,FF,FF,
24392519,000007BD,false,Rx,0,8,00,00,00,C0,FF,40,01,01,
24392793,000007BE,false,Rx,0,8,0C,01,04,16,00,00,00,00,
24393059,00000100,false,Rx,0,8,EA,F3,7F,FF,FF,16,80,70,
24395965,00000112,false,Rx,0,8,FF,FF,FF,FF,96,71,15,FF,
24398525,0000036F,false,Rx,0,5,D8,F2,38,00,15,00,00,00,
24400306,00000254,false,Rx,0,8,FF,7F,FF,7F,FF,7F,FF,7F,
24400433,00000258,false,Rx,0,2,11,11,00,00,00,00,00,00,
24400673,0000015F,false,Rx,0,8,2A,FA,00,7D,00,EE,00,7D,
24402456,0000013A,false,Rx,0,8,EB,F8,00,00,00,0E,FF,FF,
24402965,00000100,false,Rx,0,8,6F,F4,7F,C0,5D,16,80,70,
24404155,00000197,false,Rx,0,4,85,08,0E,C0,00,00,00,00,
24404395,00000431,false,Rx,0,8,F6,FF,FF,FF,FF,4E,F4,4B,
24404751,00000239,false,Rx,0,8,FF,E6,1B,EE,01,4D,FF,FF,
24405285,00000199,false,Rx,0,6,FF,FF,F3,7E,FF,8F,00,00,
24405484,0000019A,false,Rx,0,6,FF,FF,F3,7E,FF,8F,00,00,
24405695,0000019F,false,Rx,0,6,FF,FF,00,80,FF,8F,00,00,
24406206,00000112,false,Rx,0,8,00,20,FF,FF,96,71,15,FF,
24407137,000002FC,false,Rx,0,8,81,00,01,FF,FF,FF,FF,FF,
24407379,000000A5,false,Rx,0,8,81,FA,FF,F7,7F,00,00,C1,
24407505,000000AC,false,Rx,0,2,00,F0,00,00,00,00,00,00,
24407756,000000D9,false,Rx,0,8,25,FA,00,10,00,F0,7F,C8,
24407987,000000F3,false,Rx,0,8,E3,0A,00,FF,F0,C0,FF,FF,
24408228,000002C4,false,Rx,0,8,00,00,FF,00,C8,64,FF,CF,
24408437,00000304,false,Rx,0,6,FF,FF,E0,31,FF,FF,00,00,
24408574,000001AE,false,Rx,0,2,FB,FF,00,00,00,00,00,00,
24408816,00000540,false,Rx,0,8,00,00,00,00,0C,30,FF,40,
24409213,000003A5,false,Rx,0,5,E1,D5,FF,FF,FF,00,00,00,
24410486,000000EF,false,Rx,0,8,10,FA,00,7D,21,00,7D,FF,
24411060,000001A1,false,Rx,0,5,61,C9,00,00,88,00,00,00,
24412582,00000200,false,Rx,0,8,00,00,7C,00,00,28,FA,FF,
24412988,00000100,false,Rx,0,8,32,F5,7F,C0,5D,16,80,70,
24413751,00000242,false,Rx,0,5,D1,F3,FF,FF,FF,00,00,00,
24414106,000002E6,false,Rx,0,8,00,64,64,32,0B,00,1F,20,
24415973,00000112,false,Rx,0,8,00,20,FF,FF,96,71,15,01,
24416454,000002F5,false,Rx,0,8,60,0F,0A,20,20,0A,D4,1E,
24416686,00000432,false,Rx,0,8,FC,E7,10,AA,59,FF,00,FF,
24420312,00000163,false,Rx,0,8,FF,FF,00,85,FF,FF,FF,FF,
24420538,00000173,false,Rx,0,8,46,F5,00,0E,E0,00,DE,00,
24420780,0000015F,false,Rx,0,8,77,FB,00,7D,00,EE,00,7D,
24421022,00000254,false,Rx,0,8,FF,7F,FF,7F,FF,7F,FF,7F,
24421158,00000258,false,Rx,0,2,11,11,00,00,00,00,00,00,
24421388,00000302,false,Rx,0,7,FF,FF,FF,7F,F8,FF,FF,00,
24422519,0000013A,false,Rx,0,8,51,FA,00,00,00,0E,FF,FF,
24422958,00000100,false,Rx,0,8,D5,F6,7F,C0,5D,16,80,70,
24424273,000002E8,false,Rx,0,8,C0,F6,C3,FF,FF,F0,F3,94,
24424503,000000A9,false,Rx,0,8,70,78,00,90,F1,00,00,FF,
24425276,00000199,false,Rx,0,6,FF,FF,F3,7E,FF,8F,00,00,
24425486,0000019A,false,Rx,0,6,FF,FF,F3,7E,FF,8F,00,00,
24425697,0000019F,false,Rx,0,6,FF,FF,00,80,FF,8F,00,00,
24425917,00000301,false,Rx,0,7,FF,FF,FF,7F,FF,FF,8F,00,
24426167,00000108,false,Rx,0,8,00,7D,FF,FF,07,F1,FF,FF,
24426415,00000112,false,Rx,0,8,00,20,FF,FF,96,71,15,01,
24426583,000003FD,false,Rx,0,5,0E,03,00,00,FF,00,00,00,
24426835,00000206,false,Rx,0,8,55,26,5A,FF,FF,FF,FF,FF,
24426971,000001EE,false,Rx,0,2,00,FC,00,00,00,00,00,00,
24427212,00000212,false,Rx,0,8,43,F4,F9,FF,FF,FF,FF,FF,
24427463,000002DB,false,Rx,0,8,FF,FF,FF,FF,BF,FF,FF,FF,
24427705,000000A5,false,Rx,0,8,DC,FB,FF,F7,7F,00,00,C1,
24427832,000000AC,false,Rx,0,2,00,F0,00,00,00,00,00,00,
24428072,000000D9,false,Rx,0,8,78,FB,00,10,00,F0,7F,C8,
24428313,000000F3,false,Rx,0,8,BE,0B,00,FF,F0,C0,FF,FF,
24428546,0000012F,false,Rx,0,8,EF,2E,86,1C,F1,31,30,00,
24428779,00000289,false,Rx,0,8,EE,F2,E0,FF,FD,00,EC,01,
24428957,000002BB,false,Rx,0,5,D5,FB,00,00,F2,00,00,00,
24429197,000002F1,false,Rx,0,8,A2,0F,00,00,00,00,00,A0,
24429355,00000314,false,Rx,0,3,40,00,FF,00,00,00,00,00,
24429597,0000032B,false,Rx,0,8,FF,FF,FF,FF,FF,FF,00,FF,
24429837,00000331,false,Rx,0,8,FF,FF,FF,EF,7F,FE,F7,FF,
24430088,000003E9,false,Rx,0,8,08,52,00,00,00,00,00,00,
24430527,000000EF,false,Rx,0,8,4D,FB,00,7D,21,00,7D,FF,
24431061,000001A1,false,Rx,0,5,46,CB,00,00,88,00,00,00,
24432291,00000356,false,Rx,0,8,64,F0,01,FF,FF,FF,FF,FF,
24432543,000005E0,false,Rx,0,8,11,03,00,05,12,0A,C4,1B,
24432993,00000100,false,Rx,0,8,88,F7,7F,C0,5D,16,80,70,
24433297,0000003C,false,Rx,0,8,FF,5F,00,00,00,00,FF,FF,
24434164,00000197,false,Rx,0,4,0A,09,0E,C0,00,00,00,00,
24434414,000002A1,false,Rx,0,5,00,58,02,00,F0,00,00,00,
24435962,00000112,false,Rx,0,8,00,20,FF,FF,96,71,15,01,
24437387,000002A7,false,Rx,0,5,A8,F2,FE,FF,14,00,00,00,
24437523,000001EE,false,Rx,0,2,00,FC,00,00,00,00,00,00,
24438606,0000031C,false,Rx,0,8,FF,FF,FF,FF,FF,FF,FF,FF,
24438806,0000033B,false,Rx,0,6,00,FF,FF,FF,FF,FF,00,00,
24439725,000002D1,false,Rx,0,2,FF,C5,00,00,00,00,00,00,
24440298,00000254,false,Rx,0,8,FF,7F,FF,7F,FF,7F,FF,7F,
24440551,0000015F,false,Rx,0,8,F9,FC,00,7D,00,EE,00,7D,
24440668,00000258,false,Rx,0,2,11,11,00,00,00,00,00,00,
24442345,000007BE,false,Rx,0,8,00,C0,FA,1C,02,00,00,00,
24442586,0000013A,false,Rx,0,8,DF,FD,00,00,00,0E,FF,FF,
24442995,00000100,false,Rx,0,8,D4,F8,7F,C0,5D,16,80,70,
24445277,00000199,false,Rx,0,6,FF,FF,F3,7E,FF,8F,00,00,
24445486,0000019A,false,Rx,0,6,FF,FF,F3,7E,FF,8F,00,00,
24445697,0000019F,false,Rx,0,6,FF,FF,00,80,FF,8F,00,00,
24445979,00000112,false,Rx,0,8,00,20,FF,FF,96,71,15,01,
24446220,00000239,false,Rx,0,8,FF,E6,1B,EE,01,4D,FF,FF,
24447154,000000A5,false,Rx,0,8,52,FC,FF,F7,7F,00,00,C1,
24447280,000000AC,false,Rx,0,2,00,F0,00,00,00,00,00,00,
24447520,000000D9,false,Rx,0,8,F6,FC,00,10,00,F0,7F,C8,
24447762,000000F3,false,Rx,0,8,30,0C,00,FF,F0,C0,FF,FF,
24450478,000000EF,false,Rx,0,8,C3,FC,00,7D,21,00,7D,FF,
24451048,000001A1,false,Rx,0,5,2F,CD,00,00,88,00,00,00,
24452993,00000100,false,Rx,0,8,89,F9,7F,C0,5D,16,80,70,
24454402,000002B0,false,Rx,0,6,3D,45,00,CD,FF,FF,00,00,
24455964,00000112,false,Rx,0,8,00,20,FF,FF,96,71,15,01,
24456435,00000431,false,Rx,0,8,F6,FF,FF,FF,FF,4E,F4,4B,
24460301,00000254,false,Rx,0,8,FF,7F,FF,7F,FF,7F,FF,7F,
24460538,0000015F,false,Rx,0,8,A4,FD,00,7D,00,EE,00,7D,
24460665,00000258,false,Rx,0,2,11,11,00,00,00,00,00,00,
24460895,00000302,false,Rx,0,7,FF,FF,FF,7F,F8,FF,FF,00,
24462272,0000019D,false,Rx,0,8,1A,DA,03,07,FF,FF,FF,FF,
24462515,0000013A,false,Rx,0,8,39,F0,00,00,00,0E,FF,FF,
24462725,000002C5,false,Rx,0,7,95,F4,00,30,04,70,C8,00,
24463080,00000100,false,Rx,0,8,6E,FA,7F,C0,5D,16,80,70,
24464166,00000197,false,Rx,0,4,86,0A,0E,C0,00,00,00,00,
24465273,00000199,false,Rx,0,6,FF,FF,F3,7E,FF,8F,00,00,
24465482,0000019A,false,Rx,0,6,FF,FF,F3,7E,FF,8F,00,00,
24465694,0000019F,false,Rx,0,6,FF,FF,00,80,FF,8F,00,00,
24465955,00000112,false,Rx,0,8,00,20,FF,FF,96,71,15,01,
24466206,00000206,false,Rx,0,8,08,27,5A,FF,FF,FF,FF,FF,
24466431,00000432,false,Rx,0,8,FC,E7,10,AA,59,FF,00,FF,
24467131,000000A5,false,Rx,0,8,0F,FD,FF,F7,7F,00,00,C1,
24467268,000000AC,false,Rx,0,2,00,F0,00,00,00,00,00,00,
24467508,000000D9,false,Rx,0,8,AB,FD,00,10,00,F0,7F,C8,
24467739,000000F3,false,Rx,0,8,6D,0D,00,FF,F0,C0,FF,FF,
24467992,000005A9,false,Rx,0,8,01,03,80,FF,FF,FF,FF,FF,
24468625,00000380,false,Rx,0,7,56,58,36,31,35,34,37,00,
24468897,00000297,false,Rx,0,7,84,E1,F0,FF,F2,92,EA,00,
24470480,000000EF,false,Rx,0,8,9E,FD,00,7D,21,00,7D,FF,
24471024,000001A1,false,Rx,0,5,60,C0,00,00,88,00,00,00,
24472961,00000100,false,Rx,0,8,33,FB,7F,C0,5D,16,80,70,
24474552,0000059A,false,Rx,0,8,65,05,FF,00,00,00,FF,06,
24474826,0000059A,false,Rx,0,8,65,05,FF,00,00,00,FF,06,
24475963,00000112,false,Rx,0,8,00,20,FF,FF,96,71,15,01,
24476215,00000201,false,Rx,0,8,FF,FF,FF,FF,FF,FF,FF,FF,
24477386,0000036E,false,Rx,0,5,FF,F2,06,03,14,00,00,00,
24480301,00000254,false,Rx,0,8,FF,7F,FF,7F,FF,7F,FF,7F,
24480538,0000015F,false,Rx,0,8,43,FE,00,7D,00,EE,00,7D,
24480665,00000258,false,Rx,0,2,11,11,00,00,00,00,00,00,
24482518,0000013A,false,Rx,0,8,83,F2,00,00,00,0E,FF,FF,
24482978,00000100,false,Rx,0,8,BD,FC,7F,C0,5D,16,80,70,
24485281,00000199,false,Rx,0,6,FF,FF,F3,7E,FF,8F,00,00,
24485479,0000019A,false,Rx,0,6,FF,FF,F3,7E,FF,8F,00,00,
24485692,0000019F,false,Rx,0,6,FF,FF,00,80,FF,8F,00,00,
24485932,000003B4,false,Rx,0,8,00,00,0C,F0,B8,FF,00,FF,
24486162,00000112,false,Rx,0,8,00,20,FF,FF,96,71,15,01,
24486415,000005D6,false,Rx,0,8,01,B8,03,FF,FF,FF,FF,FF,
24487204,000000A5,false,Rx,0,8,E8,FE,FF,F7,7F,00,00,C1,
24487330,000000AC,false,Rx,0,2,00,F0,00,00,00,00,00,00,
24487570,000000D9,false,Rx,0,8,4C,FE,00,10,00,F0,7F,C8,
24487813,000000F3,false,Rx,0,8,8A,0E,00,FF,F0,C0,FF,FF,
24490473,000000EF,false,Rx,0,8,79,FE,00,7D,21,00,7D,FF,
24491024,000001A1,false,Rx,0,5,47,C2,00,00,88,00,00,00,
24492265,000005D6,false,Rx,0,8,01,B9,03,FF,FF,FF,FF,FF,
24492517,000007BD,false,Rx,0,8,00,00,00,C0,FF,40,01,01,
24492790,000007BE,false,Rx,0,8,05,00,00,00,00,00,00,E0,
24493020,00000100,false,Rx,0,8,E0,FD,7F,C0,5D,16,80,70,
24494159,00000197,false,Rx,0,4,09,0B,0E,C0,00,00,00,00,
24495962,00000112,false,Rx,0,8,00,20,FF,FF,96,71,15,01,
24497543,00000349,false,Rx,0,5,FE,FF,3E,08,00,00,00,00,
24500293,00000254,false,Rx,0,8,FF,7F,FF,7F,FF,7F,FF,7F,
24500430,00000258,false,Rx,0,2,11,11,00,00,00,00,00,00,
24500668,0000015F,false,Rx,0,8,42,F0,00,7D,00,EE,00,7D,
24500900,00000302,false,Rx,0,7,FF,FF,FF,7F,F8,FF,FF,00,
24502171,000002CA,false,Rx,0,2,71,72,00,00,00,00,00,00,
24502516,0000013A,false,Rx,0,8,50,F4,00,00,00,0E,FF,FF,
24502998,00000100,false,Rx,0,8,07,FE,7F,C0,5D,16,80,70,
24505278,00000199,false,Rx,0,6,FF,FF,F3,7E,FF,8F,00,00,
24505478,0000019A,false,Rx,0,6,FF,FF,F3,7E,FF,8F,00,00,
24505688,0000019F,false,Rx,0,6,FF,FF,00,80,FF,8F,00,00,
24506095,00000206,false,Rx,0,8,9E,28,59,FF,FF,FF,FF,FF,
24506326,00000112,false,Rx,0,8,00,20,FF,FF,96,71,15,01,
24507124,000002C4,false,Rx,0,8,00,00,FF,00,C8,64,FF,CF,
24507364,000000A5,false,Rx,0,8,E9,F0,FF,F7,7F,00,00,C1,
24507501,000000AC,false,Rx,0,2,00,F0,00,00,00,00,00,00,
24507742,000000D9,false,Rx,0,8,4D,F0,00,10,00,F0,7F,C8,
24507984,000000F3,false,Rx,0,8,8B,00,00,FF,F0,C0,FF,FF,
24508183,000001E1,false,Rx,0,6,00,F5,00,FF,FF,FF,00,00,
24508506,000001AE,false,Rx,0,2,FB,FF,00,00,00,00,00,00,
24508963,00000297,false,Rx,0,7,4E,E2,F0,FF,F2,92,EA,00,
24510465,000000EF,false,Rx,0,8,78,F0,00,7D,21,00,7D,FF,
24511028,000001A1,false,Rx,0,5,2E,C4,00,00,88,00,00,00,
24513006,00000100,false,Rx,0,8,06,F0,7F,C0,5D,16,80,70,
24515984,00000112,false,Rx,0,8,00,20,FF,FF,96,71,15,01,
24516455,000002F5,false,Rx,0,8,60,0F,0A,20,20,0A,D4,1E,
24517393,000002A7,false,Rx,0,5,35,F3,FE,FF,14,00,00,00,
24520308,00000163,false,Rx,0,8,FF,FF,00,85,FF,FF,FF,FF,
24520538,00000173,false,Rx,0,8,72,F0,00,0E,E0,00,DE,00,
24520778,0000015F,false,Rx,0,8,1F,F1,00,7D,00,EE,00,7D,
24521030,00000254,false,Rx,0,8,FF,7F,FF,7F,FF,7F,FF,7F,
24521157,00000258,false,Rx,0,2,11,11,00,00,00,00,00,00,
24522574,0000013A,false,Rx,0,8,EA,F6,00,00,00,0E,FF,FF,
24523005,00000100,false,Rx,0,8,5B,F1,7F,C0,5D,16,80,70,
24524164,00000197,false,Rx,0,4,83,0C,0E,C0,00,00,00,00,
24524404,000002E8,false,Rx,0,8,C0,00,C4,FF,FF,F0,F4,89,
24524646,000000A9,false,Rx,0,8,70,78,00,90,F1,00,00,FF,
24525274,00000199,false,Rx,0,6,FF,FF,F3,7E,FF,8F,00,00,
24525474,0000019A,false,Rx,0,6,FF,FF,F3,7E,FF,8F,00,00,
24525684,0000019F,false,Rx,0,6,FF,FF,00,80,FF,8F,00,00,
24525966,00000112,false,Rx,0,8,00,20,FF,FF,96,71,15,01,
24526208,00000108,false,Rx,0,8,00,7D,FF,FF,07,F1,FF,FF,
24526397,000003FD,false,Rx,0,5,FA,04,00,00,FF,00,00,00,
24526669,00000212,false,Rx,0,8,1E,F5,F9,FF,FF,FF,FF,FF,
24526917,000002DB,false,Rx,0,8,FF,FF,FF,FF,BF,FF,FF,FF,
24527055,000002A6,false,Rx,0,2,00,B4,00,00,00,00,00,00,
24527295,000002F1,false,Rx,0,8,A2,0F,00,00,00,00,00,A0,
24527535,000000A5,false,Rx,0,8,B4,F1,FF,F7,7F,00,00,C1,
24527663,000000AC,false,Rx,0,2,00,F0,00,00,00,00,00,00,
24527904,000000D9,false,Rx,0,8,10,F1,00,10,00,F0,7F,C8,
24528144,000000F3,false,Rx,0,8,D6,01,00,FF,F0,C0,FF,FF,
24528375,0000012F,false,Rx,0,8,EE,20,86,1C,F1,31,30,00,
24528607,00000289,false,Rx,0,8,B3,F3,E0,FF,FD,00,EC,01,
24528796,000002BB,false,Rx,0,5,9A,F6,00,00,F2,00,00,00,
24528925,00000323,false,Rx,0,2,F0,FF,00,00,00,00,00,00,
24529050,000003AC,false,Rx,0,2,FE,CF,00,00,00,00,00,00,
24529206,000003BE,false,Rx,0,3,3D,F0,00,00,00,00,00,00,
24530489,000000EF,false,Rx,0,8,25,F1,00,7D,21,00,7D,FF,
24531013,000001A1,false,Rx,0,5,09,C6,00,00,88,00,00,00,
24532989,00000100,false,Rx,0,8,BC,F2,7F,C0,5D,16,80,70,
24533148,000000C0,false,Rx,0,2,F2,40,00,00,00,00,00,00,
24533398,0000003C,false,Rx,0,8,FF,5F,00,00,00,00,FF,FF,
24534389,000002A1,false,Rx,0,5,00,58,02,00,F0,00,00,00,
24535956,00000112,false,Rx,0,8,00,20,FF,FF,96,71,15,01,
24540298,00000254,false,Rx,0,8,FF,7F,FF,7F,FF,7F,FF,7F,
24540545,0000015F,false,Rx,0,8,F8,F2,00,7D,00,EE,00,7D,
24540673,00000258,false,Rx,0,2,11,11,00,00,00,00,00,00,
24540903,00000302,false,Rx,0,7,FF,FF,FF,7F,F8,FF,FF,00,
24542352,000007BE,false,Rx,0,8,0B,00,00,00,00,00,00,00,
24542594,0000013A,false,Rx,0,8,EB,F8,00,00,00,0E,FF,FF,
24542970,00000100,false,Rx,0,8,E1,F3,7F,C0,5D,16,80,70,
24543399,00000350,false,Rx,0,6,F3,FF,FF,FF,FF,FF,00,00,
24545278,00000199,false,Rx,0,6,FF,FF,F3,7E,FF,8F,00,00,
24545478,0000019A,false,Rx,0,6,FF,FF,F3,7E,FF,8F,00,00,
24545688,0000019F,false,Rx,0,6,FF,FF,00,80,FF,8F,00,00,
24545960,00000112,false,Rx,0,8,00,20,FF,FF,96,71,15,01,
24546201,00000206,false,Rx,0,8,09,29,5A,FF,FF,FF,FF,FF,
24547092,000000A5,false,Rx,0,8,53,F2,FF,F7,7F,00,00,C1,
24547229,000000AC,false,Rx,0,2,00,F0,00,00,00,00,00,00,
24547469,000000D9,false,Rx,0,8,F7,F2,00,10,00,F0,7F,C8,
24547712,000000F3,false,Rx,0,8,31,02,00,FF,F0,C0,FF,FF,
24550465,000000EF,false,Rx,0,8,C2,F2,00,7D,21,00,7D,FF,
24551016,000001A1,false,Rx,0,5,FC,C8,00,00,88,00,00,00,
24553097,00000100,false,Rx,0,8,6F,F4,7F,C0,5D,16,80,70,
24554161,00000197,false,Rx,0,4,0C,0D,0E,C0,00,00,00,00,
24554422,000002B0,false,Rx,0,6,3D,45,00,CD,FF,FF,00,00,
24555957,00000112,false,Rx,0,8,00,20,FF,FF,96,71,15,01,
24558560,0000036F,false,Rx,0,5,45,F3,38,00,15,00,00,00,
24560297,00000254,false,Rx,0,8,FF,7F,FF,7F,FF,7F,FF,7F,
24560538,0000015F,false,Rx,0,8,A5,F3,00,7D,00,EE,00,7D,
24560663,00000258,false,Rx,0,2,11,11,00,00,00,00,00,00,
24562247,000002C5,false,Rx,0,7,D3,F5,00,30,04,70,C8,00,
24562531,0000013A,false,Rx,0,8,51,FA,00,00,00,0E,FF,FF,
24562990,00000100,false,Rx,0,8,32,F5,7F,C0,5D,16,80,70,
24565292,00000199,false,Rx,0,6,FF,FF,F3,7E,FF,8F,00,00,
24565502,0000019A,false,Rx,0,6,FF,FF,F3,7E,FF,8F,00,00,
24565712,0000019F,false,Rx,0,6,FF,FF,00,80,FF,8F,00,00,
24565963,00000112,false,Rx,0,8,00,20,FF,FF,96,71,15,01,
24567103,000000A5,false,Rx,0,8,0E,F3,FF,F7,7F,00,00,C1,
24567240,000000AC,false,Rx,0,2,00,F0,00,00,00,00,00,00,
24567479,000000D9,false,Rx,0,8,AA,F3,00,10,00,F0,7F,C8,
24567712,000000F3,false,Rx,0,8,6C,03,00,FF,F0,C0,FF,FF,
24570465,000000EF,false,Rx,0,8,9F,F3,00,7D,21,00,7D,FF,
24571026,000001A1,false,Rx,0,5,DB,CA,00,00,88,00,00,00,
24571162,00000202,false,Rx,0,2,FE,FF,00,00,00,00,00,00,
24572902,00000100,false,Rx,0,8,D5,F6,7F,C0,5D,16,80,70,
24573466,00000242,false,Rx,0,5,D1,F3,FF,FF,FF,00,00,00,
24573738,000002E6,false,Rx,0,8,00,64,64,32,0B,00,1F,20,
24574468,0000059A,false,Rx,0,8,65,07,FF,00,00,00,FF,08,
24574745,0000059A,false,Rx,0,8,65,07,FF,00,00,00,FF,08,
24575965,00000112,false,Rx,0,8,00,20,FF,FF,96,71,15,01,
24580300,00000254,false,Rx,0,8,FF,7F,FF,7F,FF,7F,FF,7F,
24580536,0000015F,false,Rx,0,8,2B,F4,00,7D,00,EE,00,7D,
24580664,00000258,false,Rx,0,2,11,11,00,00,00,00,00,00,
24580894,00000302,false,Rx,0,7,FF,FF,FF,7F,F8,FF,FF,00,
24582458,0000013A,false,Rx,0,8,82,FC,00,00,00,0E,FF,FF,
24583065,00000100,false,Rx,0,8,88,F7,7F,C0,5D,16,80,70,
24584015,0000059D,false,Rx,0,8,8D,01,01,FC,00,00,03,00,
24584183,00000197,false,Rx,0,4,80,0E,0E,C0,00,00,00,00,
24585301,00000199,false,Rx,0,6,FF,FF,F3,7E,FF,8F,00,00,
24585500,0000019A,false,Rx,0,6,FF,FF,F3,7E,FF,8F,00,00,
24585711,0000019F,false,Rx,0,6,FF,FF,00,80,FF,8F,00,00,
24585951,00000272,false,Rx,0,8,68,F4,FC,02,FF,FF,FF,FF,
24586183,00000112,false,Rx,0,8,00,20,FF,FF,96,71,15,01,
24586427,00000206,false,Rx,0,8,EE,2A,5A,FF,FF,FF,FF,FF,
24586679,000005D6,false,Rx,0,8,01,F0,02,FF,FF,FF,FF,FF,
24586826,000002F0,false,Rx,0,3,35,DD,F0,00,00,00,00,00,
24587067,00000314,false,Rx,0,3,40,00,FF,00,00,00,00,00,
24587307,000000A5,false,Rx,0,8,80,F4,FF,F7,7F,00,00,C1,
24587433,000000AC,false,Rx,0,2,00,F0,00,00,00,00,00,00,
24587675,000000D9,false,Rx,0,8,24,F4,00,10,00,F0,7F,C8,
24587916,000000F3,false,Rx,0,8,E2,04,00,FF,F0,C0,FF,FF,
24590479,000000EF,false,Rx,0,8,11,F4,00,7D,21,00,7D,FF,
24591020,000001A1,false,Rx,0,5,B2,CC,00,00,88,00,00,00,
24592261,00000560,false,Rx,0,8,00,00,00,00,00,00,00,60,
24592531,000007BD,false,Rx,0,8,00,00,00,C0,FF,40,01,01,
24592793,000007BE,false,Rx,0,8,07,67,1E,E3,06,67,00,00,
24593025,00000100,false,Rx,0,8,DD,F8,7F,C0,5D,18,80,70,
24594453,000002C3,false,Rx,0,5,09,15,0F,00,FF,00,00,00,
24595978,00000112,false,Rx,0,8,00,20,FF,FF,96,71,15,01,
24597393,000002A7,false,Rx,0,5,C1,F4,FE,FF,14,00,00,00,
24600297,00000254,false,Rx,0,8,FF,7F,FF,7F,FF,7F,FF,7F,
24600424,00000258,false,Rx,0,2,11,11,00,00,00,00,00,00,
24600662,0000015F,false,Rx,0,8,76,F5,00,7D,00,EE,00,7D,
24602456,0000013A,false,Rx,0,8,38,FE,00,00,00,0E,FF,FF,
24602800,000001B6,false,Rx,0,7,00,C0,00,FF,FF,FF,FF,00,
24603042,00000100,false,Rx,0,8,80,F9,7F,C0,5D,18,80,70,
24605281,00000199,false,Rx,0,6,FF,FF,F3,7E,FF,8F,00,00,
24605480,0000019A,false,Rx,0,6,FF,FF,F3,7E,FF,8F,00,00,
24605691,0000019F,false,Rx,0,6,FF,FF,00,80,FF,8F,00,00,
24606150,00000112,false,Rx,0,8,00,20,FF,FF,96,71,15,01,
24606391,00000239,false,Rx,0,8,FF,E6,1B,EE,01,4D,FF,FF,
24607013,000002CF,false,Rx,0,2,FA,FF,00,00,00,00,00,00,
24607253,000000A5,false,Rx,0,8,DD,F5,FF,F7,7F,00,00,C1,
24607390,000000AC,false,Rx,0,2,00,F0,00,00,00,00,00,00,
24607631,000000D9,false,Rx,0,8,79,F5,00,10,00,F0,7F,C8,
24607872,000000F3,false,Rx,0,8,BF,05,00,FF,F0,C0,FF,FF,
24608113,000002C4,false,Rx,0,8,00,00,FF,00,C8,64,FF,CF,
24608312,00000304,false,Rx,0,6,FF,FF,BE,31,FF,FF,00,00,
24608512,000001AE,false,Rx,0,2,FB,FF,00,00,00,00,00,00,
24610469,000000EF,false,Rx,0,8,4C,F5,00,7D,21,00,7D,FF,
24611051,000001A1,false,Rx,0,5,AF,CE,00,00,8A,00,00,00,
24611637,00000200,false,Rx,0,8,00,00,8C,00,00,28,FA,FF,
24612969,00000100,false,Rx,0,8,67,FA,7F,C0,5D,18,80,70,
24614159,00000197,false,Rx,0,4,89,00,0E,C0,00,00,00,00,
24615961,00000112,false,Rx,0,8,00,20,FF,FF,96,71,15,01,
24616442,000002F5,false,Rx,0,8,60,0F,0A,20,20,0A,D4,1E,
24620307,00000163,false,Rx,0,8,FF,FF,00,85,FF,FF,FF,FF,
24620544,00000173,false,Rx,0,8,1A,FA,00,0E,E0,00,DE,00,
24620787,0000015F,false,Rx,0,8,91,F6,00,7D,00,EE,00,7D,
24621038,00000254,false,Rx,0,8,FF,7F,FF,7F,FF,7F,FF,7F,
24621164,00000258,false,Rx,0,2,11,11,00,00,00,00,00,00,
24621394,00000302,false,Rx,0,7,FF,FF,FF,7F,F8,FF,FF,00,
24622514,0000013A,false,Rx,0,8,64,F1,00,00,00,0E,FF,FF,
24622902,00000100,false,Rx,0,8,3A,FB,7F,C0,5D,18,80,70,
24624248,000002E8,false,Rx,0,8,C0,0A,C4,FF,FF,F0,F5,12,
24624489,000000A9,false,Rx,0,8,70,78,00,90,F1,00,00,FF,
24625274,00000199,false,Rx,0,6,FF,FF,92,7E,FF,AF,00,00,
24625473,0000019A,false,Rx,0,6,FF,FF,F3,7E,FF,8F,00,00,
24625683,0000019F,false,Rx,0,6,FF,FF,00,80,FF,8F,00,00,
24625913,00000301,false,Rx,0,7,FF,FF,FF,7F,FF,FF,8F,00,
24626155,00000108,false,Rx,0,8,00,7D,FF,FF,07,F1,FF,FF,
24626411,00000112,false,Rx,0,8,00,20,FF,FF,96,71,15,01,
24626579,000003FD,false,Rx,0,5,67,05,00,00,FF,00,00,00,
24626822,00000206,false,Rx,0,8,B3,2B,5A,FF,FF,FF,FF,FF,
24627084,00000212,false,Rx,0,8,F9,F6,F9,FF,FF,FF,FF,FF,
24627335,000002DB,false,Rx,0,8,FF,FF,FF,FF,BF,FF,FF,FF,
24627577,000000A5,false,Rx,0,8,3A,F6,FF,F7,7F,00,00,C1,
24627704,000000AC,false,Rx,0,2,00,F0,00,00,00,00,00,00,
24627944,000000D9,false,Rx,0,8,9E,F6,00,10,00,F0,7F,C8,
24628184,000000F3,false,Rx,0,8,58,06,00,FF,F0,C0,FF,FF,
24628405,0000012F,false,Rx,0,8,B3,21,86,1C,F1,31,30,00,
24628651,00000289,false,Rx,0,8,3D,F4,E0,FF,FD,00,EC,01,
24628829,000002BB,false,Rx,0,5,6E,F1,00,00,F2,00,00,00,
24629049,00000297,false,Rx,0,7,08,E3,F0,FF,F2,92,EA,00,
24629290,000002F1,false,Rx,0,8,A2,0F,00,00,00,00,00,A0,
24629541,0000055E,false,Rx,0,8,00,00,00,00,00,00,00,5E,
24629783,0000032B,false,Rx,0,8,FF,FF,FF,FF,FF,FF,00,FF,
24630035,00000331,false,Rx,0,8,FF,FF,FF,EF,7F,FE,F7,FF,
24630286,000003E9,false,Rx,0,8,08,52,00,00,00,00,00,00,
24630517,000000EF,false,Rx,0,8,AB,F6,00,7D,21,00,7D,FF,
24631051,000001A1,false,Rx,0,5,7D,C2,00,00,8A,00,00,00,
24632282,000003CA,false,Rx,0,8,95,E0,15,07,07,81,FF,FF,
24632554,000005E0,false,Rx,0,8,11,03,00,06,00,00,C4,00,
24632984,00000100,false,Rx,0,8,B4,FC,7F,C0,5D,18,80,70,
24633287,0000003C,false,Rx,0,8,FF,5F,00,00,00,00,FF,FF,
24634403,000002A1,false,Rx,0,5,00,58,02,00,F0,00,00,00,
24635959,00000112,false,Rx,0,8,00,20,FF,FF,96,71,15,01,
24637384,0000036E,false,Rx,0,5,62,F3,06,03,14,00,00,00,
24637520,000002A6,false,Rx,0,2,00,BC,00,00,00,00,00,00,
24638592,0000031C,false,Rx,0,8,FF,FF,FF,FF,FF,FF,FF,FF,
24638803,0000033B,false,Rx,0,6,00,FF,FF,FF,FF,FF,00,00,
24640294,00000254,false,Rx,0,8,FF,7F,FF,7F,FF,7F,FF,7F,
24640545,0000015F,false,Rx,0,8,CC,F7,00,7D,00,EE,00,7D,
24640663,00000258,false,Rx,0,2,11,11,00,00,00,00,00,00,
24642507,0000013A,false,Rx,0,8,DE,F3,00,00,00,0E,FF,FF,
24642978,00000100,false,Rx,0,8,E9,FD,7F,C0,5D,18,80,70,
24644167,00000197,false,Rx,0,4,06,01,0E,C0,00,00,00,00,
24645271,00000199,false,Rx,0,6,FF,FF,A6,7E,FF,AF,00,00,
24645480,0000019A,false,Rx,0,6,FF,FF,F3,7E,FF,8F,00,00,
24645691,0000019F,false,Rx,0,6,FF,FF,DF,7F,FF,AF,00,00,
24645962,00000112,false,Rx,0,8,00,20,FF,FF,96,71,15,01,
24647050,00000592,false,Rx,0,8,0C,15,01,32,14,01,FF,FF,
24647291,000000A5,false,Rx,0,8,67,F7,FF,F7,7F,00,00,C1,
24647427,000000AC,false,Rx,0,2,00,F0,00,00,00,00,00,00,
24647659,000000D9,false,Rx,0,8,C3,F7,00,10,00,F0,7F,C8,
24647910,000000F3,false,Rx,0,8,05,07,00,FF,F0,C0,FF,FF,
24650458,000000EF,false,Rx,0,8,F6,F7,00,7D,21,00,7D,FF,
24651009,000001A1,false,Rx,0,5,14,C4,00,00,8A,00,00,00,
24652987,00000100,false,Rx,0,8,0E,FE,7F,C0,5D,18,80,70,
24654404,000002B0,false,Rx,0,6,3D,45,00,CD,FF,FF,00,00,
24655988,00000112,false,Rx,0,8,00,20,FF,FF,96,71,15,01,
24656219,00000431,false,Rx,0,8,F6,FF,FF,FF,FF,4E,F4,4B,
24660292,00000254,false,Rx,0,8,FF,7F,FF,7F,FF,7F,FF,7F,
24660539,0000015F,false,Rx,0,8,90,F8,00,7D,00,EE,00,7D,
24660657,00000258,false,Rx,0,2,11,11,00,00,00,00,00,00,
24660897,00000302,false,Rx,0,7,FF,FF,FF,7F,F8,FF,FF,00,
24662233,000002C5,false,Rx,0,7,19,F6,00,30,04,70,C8,00,
24662474,0000013A,false,Rx,0,8,0D,F5,00,00,00,0E,FF,FF,
24662612,000002CA,false,Rx,0,2,71,72,00,00,00,00,00,00,
24662988,0000012F,false,Rx,0,8,73,22,86,1C,F1,31,30,03,
24663229,00000100,false,Rx,0,8,0F,F0,7F,C0,5D,18,80,70,
24665264,00000199,false,Rx,0,6,FF,FF,9C,7E,FF,BF,00,00,
24665474,0000019A,false,Rx,0,6,FF,FF,F3,7E,FF,8F,00,00,
24665684,0000019F,false,Rx,0,6,FF,FF,E8,7F,FF,AF,00,00,
24665966,00000112,false,Rx,0,8,00,20,FF,FF,96,71,15,01,
24666208,00000206,false,Rx,0,8,3D,2C,5A,FF,FF,FF,FF,FF,
24666442,00000432,false,Rx,0,8,FC,E7,10,AA,59,FF,00,FF,
24667184,000000A5,false,Rx,0,8,3B,F8,FF,F7,7F,00,00,C1,
24667320,000000AC,false,Rx,0,2,00,F0,00,00,00,00,00,00,
24667561,000000D9,false,Rx,0,8,9F,F8,00,10,00,F0,7F,C8,
24667803,000000F3,false,Rx,0,8,59,08,00,FF,F0,C0,FF,FF,
24670476,000000EF,false,Rx,0,8,AA,F8,00,7D,21,00,7D,FF,
24671016,000001A1,false,Rx,0,5,33,C6,00,00,8A,00,00,00,
24672889,00000100,false,Rx,0,8,52,F1,7F,C0,5D,18,80,70,
24674161,00000197,false,Rx,0,4,8A,02,0E,C0,00,00,00,00,
24674556,0000059A,false,Rx,0,8,65,09,FF,00,00,00,FF,0A,
24675757,0000059A,false,Rx,0,8,65,09,FF,00,00,00,FF,0A,
24675998,00000112,false,Rx,0,8,00,20,FF,FF,96,71,15,01,
24677385,000002A7,false,Rx,0,5,5C,F5,FE,FF,14,00,00,00,
24680290,00000254,false,Rx,0,8,FF,7F,FF,7F,FF,7F,FF,7F,
24680531,0000015F,false,Rx,0,8,CD,F9,00,7D,00,EE,00,7D,
24680658,00000258,false,Rx,0,2,11,11,00,00,00,00,00,00,
24681825,000003F9,false,Rx,0,8,D8,F4,80,E0,44,30,C3,FF,
24682524,0000013A,false,Rx,0,8,B7,F7,00,00,00,0E,FF,FF,
24683005,00000100,false,Rx,0,8,B5,F2,7F,C0,5D,18,80,70,
24685275,00000199,false,Rx,0,6,FF,FF,92,7E,FF,BF,00,00,
24685473,0000019A,false,Rx,0,6,FF,FF,F3,7E,FF,8F,00,00,
24685684,0000019F,false,Rx,0,6,FF,FF,EA,7F,FF,AF,00,00,
24685924,000003B4,false,Rx,0,8,00,00,0C,F0,B8,FF,00,FF,
24686156,00000112,false,Rx,0,8,00,20,FF,FF,96,71,15,01,
24687109,000000A5,false,Rx,0,8,66,F9,FF,F7,7F,00,00,C1,
24687246,000000AC,false,Rx,0,2,00,F0,00,00,00,00,00,00,
24687486,000000D9,false,Rx,0,8,C2,F9,00,10,00,F0,7F,C8,
24687718,000000F3,false,Rx,0,8,04,09,00,FF,F0,C0,FF,FF,
24687969,0000012F,false,Rx,0,8,09,23,86,1C,F1,31,30,00,
24690475,000000EF,false,Rx,0,8,F7,F9,00,7D,21,00,7D,FF,
24691036,000001A1,false,Rx,0,5,C6,C8,00,00,8A,00,00,00,
24692308,00000393,false,Rx,0,4,FE,32,FE,FD,00,00,00,00,
24692569,000007BD,false,Rx,0,8,00,00,00,C0,FF,C0,01,01,
24692841,000007BE,false,Rx,0,8,05,00,00,00,00,00,00,E0,
24693073,00000100,false,Rx,0,8,E8,F3,7F,C0,5D,18,80,70,
24695960,00000112,false,Rx,0,8,00,20,FF,FF,96,71,15,01,
24697541,00000349,false,Rx,0,5,FE,FF,3E,08,00,00,00,00,
24700289,00000254,false,Rx,0,8,FF,7F,FF,7F,FF,7F,FF,7F,
24700425,00000258,false,Rx,0,2,11,11,00,00,00,00,00,00,
24700667,0000015F,false,Rx,0,8,2A,FA,00,7D,00,EE,00,7D,
24700897,00000302,false,Rx,0,7,FF,FF,FF,7F,F8,FF,FF,00,
24702482,0000013A,false,Rx,0,8,B6,F9,00,00,00,0E,FF,FF,
24702972,00000100,false,Rx,0,8,66,F4,7F,C0,5D,18,80,70,
24704161,00000197,false,Rx,0,4,05,03,0E,C0,00,00,00,00,
24705276,00000199,false,Rx,0,6,FF,FF,92,7E,FF,BF,00,00,
24705485,0000019A,false,Rx,0,6,FF,FF,F3,7E,FF,8F,00,00,
24705685,0000019F,false,Rx,0,6,FF,FF,00,80,FF,AF,00,00,
24705926,00000239,false,Rx,0,8,81,DE,1B,EE,01,4D,FF,FF,
24706156,00000112,false,Rx,0,8,00,20,FF,FF,96,71,15,01,
24706397,00000206,false,Rx,0,8,60,2D,5A,FF,FF,FF,FF,FF,
24707197,000002C4,false,Rx,0,8,00,00,FF,00,C8,64,FF,CF,
24707437,000000A5,false,Rx,0,8,81,FA,FF,F7,7F,00,00,C1,
24707565,000000AC,false,Rx,0,2,00,F0,00,00,00,00,00,00,
24707806,000000D9,false,Rx,0,8,25,FA,00,10,00,F0,7F,C8,
24708047,000000F3,false,Rx,0,8,E3,0A,00,FF,F0,C0,FF,FF,
24708278,0000012F,false,Rx,0,8,81,24,86,1C,F1,35,30,00,
24708477,000001E1,false,Rx,0,6,BE,F6,00,FF,FF,FF,00,00,
24708615,000001AE,false,Rx,0,2,FB,FF,00,00,00,00,00,00,
24708926,00000297,false,Rx,0,7,C7,E4,F0,FF,F2,92,EA,00,
24710469,000000EF,false,Rx,0,8,10,FA,00,7D,21,00,7D,FF,
24711012,000001A1,false,Rx,0,5,E1,CA,00,00,8A,00,00,00,
24713000,00000100,false,Rx,0,8,3B,F5,7F,C0,5D,18,80,70,
24713597,00000348,false,Rx,0,8,FE,FE,FE,00,FE,FE,FF,00,
24715962,00000112,false,Rx,0,8,00,20,FF,FF,96,71,15,01,
24716442,000002F5,false,Rx,0,8,60,0F,0A,20,20,0A,D4,1E,
24717234,000002C5,false,Rx,0,7,7A,F7,00,20,04,70,C8,00,
24718633,0000036F,false,Rx,0,5,B1,F4,38,00,15,00,00,00,
24720298,00000163,false,Rx,0,8,FF,FF,01,A5,FF,FF,FF,FF,
24720529,00000173,false,Rx,0,8,46,F5,00,0E,E0,00,DE,00,
24720771,0000015F,false,Rx,0,8,77,FB,00,7D,00,EE,00,7D,
24721012,00000254,false,Rx,0,8,FF,7F,FF,7F,FF,7F,FF,7F,
24721138,00000258,false,Rx,0,2,11,11,00,00,00,00,00,00,
24722577,0000013A,false,Rx,0,8,0C,FB,00,00,00,0E,FF,FF,
24722913,00000100,false,Rx,0,8,DC,F6,7F,C0,5D,18,80,70,
24724258,000002E8,false,Rx,0,8,C0,14,C4,FF,FF,F0,F6,A2,
24724500,000000A9,false,Rx,0,8,70,78,00,90,F1,00,00,FF,
24724731,000001FA,false,Rx,0,8,45,45,45,F0,FF,46,FF,FF,
24725267,00000199,false,Rx,0,6,FF,FF,92,7E,FF,BF,00,00,
24725476,0000019A,false,Rx,0,6,FF,FF,F3,7E,FF,8F,00,00,
24725686,0000019F,false,Rx,0,6,FF,FF,FA,7F,FF,AF,00,00,
24725990,00000112,false,Rx,0,8,00,20,7F,0E,96,71,15,01,
24726230,00000108,false,Rx,0,8,00,7D,FF,FF,07,F1,FF,FF,
24726419,000003FD,false,Rx,0,5,DD,06,00,00,FF,00,00,00,
24726672,00000201,false,Rx,0,8,FF,FF,FF,FF,FF,FF,FF,FF,
24726931,00000212,false,Rx,0,8,A4,F7,F9,FF,FF,FF,FF,FF,
24727171,000002DB,false,Rx,0,8,FF,FF,FF,FF,BF,FF,FF,FF,
24727424,000002F1,false,Rx,0,8,A2,0F,00,00,00,00,00,A0,
24727655,000000A5,false,Rx,0,8,DC,FB,FF,F7,7F,00,00,C1,
24727792,000000AC,false,Rx,0,2,00,F0,00,00,00,00,00,00,
24728021,000000D9,false,Rx,0,8,78,FB,00,10,00,F0,7F,C8,
24728263,000000F3,false,Rx,0,8,BE,0B,00,FF,F0,C0,FF,FF,
24728493,0000012F,false,Rx,0,8,DC,25,86,1C,F1,35,30,00,
24728735,00000289,false,Rx,0,8,60,F5,E0,FF,FD,00,EC,01,
24728913,000002BB,false,Rx,0,5,D5,FB,00,00,F2,00,00,00,
24730534,000000EF,false,Rx,0,8,4D,FB,00,7D,21,00,7D,FF,
24731083,000001A1,false,Rx,0,5,88,CC,00,00,8A,00,00,00,
24732998,00000100,false,Rx,0,8,81,F7,7F,C0,5D,18,80,70,
24733125,000000C0,false,Rx,0,2,F3,40,00,00,00,00,00,00,
24733375,0000003C,false,Rx,0,8,FF,5F,00,00,00,00,FF,FF,
24734169,00000197,false,Rx,0,4,8F,04,0E,C0,00,00,00,00,
24734420,000002A1,false,Rx,0,5,00,58,02,00,F0,00,00,00,
24735352,0000043D,false,Rx,0,8,FE,FE,EF,FF,F6,FE,FE,F7,
24735959,00000112,false,Rx,0,8,00,20,7F,0E,96,71,15,01,
24740290,00000254,false,Rx,0,8,FF,7F,FF,7F,FF,7F,FF,7F,
24740412,00000258,false,Rx,0,2,11,11,00,00,00,00,00,00,
24740655,0000015F,false,Rx,0,8,F9,FC,00,7D,00,EE,00,7D,
24740885,00000302,false,Rx,0,7,FF,FF,FF,7F,F8,FF,FF,00,
24741043,00000314,false,Rx,0,3,50,00,FF,00,00,00,00,00,
24742347,000007BE,false,Rx,0,8,0C,01,04,6B,00,00,00,00,
24742577,0000013A,false,Rx,0,8,DF,FD,00,00,00,0E,FF,FF,
24742966,00000100,false,Rx,0,8,DD,F8,7F,C0,5D,18,80,70,
24745271,00000199,false,Rx,0,6,FF,FF,92,7E,FF,BF,00,00,
24745480,0000019A,false,Rx,0,6,FF,FF,F3,7E,FF,8F,00,00,
24745690,0000019F,false,Rx,0,6,FF,FF,EF,7F,FF,AF,00,00,
24745952,00000112,false,Rx,0,8,00,20,7F,0E,96,71,15,01,
24746193,00000206,false,Rx,0,8,87,2E,5A,FF,FF,FF,FF,FF,
24747095,000000A5,false,Rx,0,8,52,FC,FF,F7,7F,00,00,C1,
24747232,000000AC,false,Rx,0,2,00,F0,00,00,00,00,00,00,
24747472,000000D9,false,Rx,0,8,F6,FC,00,10,00,F0,7F,C8,
24747714,000000F3,false,Rx,0,8,30,0C,00,FF,F0,C0,FF,FF,
24750469,000000EF,false,Rx,0,8,C3,FC,00,7D,21,00,7D,FF,
24751039,000001A1,false,Rx,0,5,AF,CE,00,00,8A,00,00,00,
24752986,00000100,false,Rx,0,8,80,F9,7F,C0,5D,18,80,70,
24754404,000002B0,false,Rx,0,6,3D,45,00,CC,FF,FF,00,00,
24755362,0000043C,false,Rx,0,8,FE,FE,FF,FF,FF,FF,FF,FF,
24755958,00000112,false,Rx,0,8,00,20,7F,0E,96,71,15,01,
24757385,000002A7,false,Rx,0,5,E6,F6,FE,FF,14,00,00,00,
24760289,00000254,false,Rx,0,8,FF,7F,FF,7F,FF,7F,FF,7F,
24760530,0000015F,false,Rx,0,8,A4,FD,00,7D,00,EE,00,7D,
24760656,00000258,false,Rx,0,2,11,11,00,00,00,00,00,00,
24762261,0000019D,false,Rx,0,8,1A,DA,03,07,FF,FF,FF,FF,
24762522,0000013A,false,Rx,0,8,39,F0,00,00,00,0E,FF,FF,
24762973,00000100,false,Rx,0,8,67,FA,7F,C0,5D,18,80,70,
24764172,00000197,false,Rx,0,4,00,05,0E,C0,00,00,00,00,
24765265,00000199,false,Rx,0,6,FF,FF,92,7E,FF,BF,00,00,
24765474,0000019A,false,Rx,0,6,FF,FF,F3,7E,FF,8F,00,00,
24765685,0000019F,false,Rx,0,6,FF,FF,EC,7F,FF,AF,00,00,
24765957,00000112,false,Rx,0,8,00,20,7F,0E,96,71,15,01,
24767106,000000A5,false,Rx,0,8,0F,FD,FF,F7,7F,00,00,C1,
24767243,000000AC,false,Rx,0,2,00,F0,00,00,00,00,00,00,
24767484,000000D9,false,Rx,0,8,AB,FD,00,10,00,F0,7F,C8,
24767715,000000F3,false,Rx,0,8,6D,0D,00,FF,F0,C0,FF,FF,
24770470,000000EF,false,Rx,0,8,9E,FD,00,7D,21,00,7D,FF,
24771020,000001A1,false,Rx,0,5,C7,C1,00,00,8A,00,00,00,
24772251,000002C5,false,Rx,0,7,BF,F8,00,20,04,70,C8,00,
24772939,00000100,false,Rx,0,8,3A,FB,7F,C0,5D,18,80,70,
24774504,0000059A,false,Rx,0,8,65,0B,FF,00,00,00,FF,0C,
24774775,0000059A,false,Rx,0,8,65,0B,FF,00,00,00,FF,0C,
24775391,0000034A,false,Rx,0,8,81,A6,C9,FD,88,BE,F9,27,
24775987,00000112,false,Rx,0,8,00,20,7F,0E,96,71,15,01,
24780292,00000254,false,Rx,0,8,FF,7F,FF,7F,FF,7F,FF,7F,
24780425,00000258,false,Rx,0,2,11,11,00,00,00,00,00,00,
24780666,0000015F,false,Rx,0,8,43,FE,00,7D,00,EE,00,7D,
24780896,00000302,false,Rx,0,7,FF,FF,FF,7F,F8,FF,FF,00,
24782450,0000013A,false,Rx,0,8,83,F2,00,00,00,0E,FF,FF,
24782984,00000100,false,Rx,0,8,B4,FC,7F,C0,5D,18,80,70,
24783996,0000059D,false,Rx,0,8,8E,01,01,32,00,FF,7F,03,
24785269,00000199,false,Rx,0,6,FF,FF,92,7E,FF,BF,00,00,
24785478,0000019A,false,Rx,0,6,FF,FF,F3,7E,FF,8F,00,00,
24785689,0000019F,false,Rx,0,6,FF,FF,F2,7F,FF,AF,00,00,
24785930,00000272,false,Rx,0,8,35,F5,FC,02,FF,FF,FF,FF,
24786160,00000112,false,Rx,0,8,00,20,7F,0E,96,71,15,01,
24786405,00000206,false,Rx,0,8,86,20,5A,FF,FF,FF,FF,FF,
24787105,000000A5,false,Rx,0,8,E8,FE,FF,F7,7F,00,00,C1,
24787231,000000AC,false,Rx,0,2,00,F0,00,00,00,00,00,00,
24787472,000000D9,false,Rx,0,8,4C,FE,00,10,00,F0,7F,C8,
24787714,000000F3,false,Rx,0,8,8A,0E,00,FF,F0,C0,FF,FF,
24788751,00000297,false,Rx,0,7,81,E5,F0,FF,F2,92,EA,00,
24790468,000000EF,false,Rx,0,8,79,FE,00,7D,21,00,7D,FF,
24791021,000001A1,false,Rx,0,5,E0,C3,00,00,8A,00,00,00,
24792377,000007BD,false,Rx,0,8,00,00,00,C0,FF,C0,01,01,
24792650,000007BE,false,Rx,0,8,00,C0,FA,1C,02,00,00,00,
24792975,00000100,false,Rx,0,8,E9,FD,7F,C0,5D,18,80,70,
24794164,00000197,false,Rx,0,4,8C,06,0E,C0,00,00,00,00,
24795374,0000034C,false,Rx,0,8,68,00,00,00,48,13,F0,FF,
24795960,00000112,false,Rx,0,8,00,20,7F,0E,96,71,15,01,
24797377,0000036E,false,Rx,0,5,05,F4,67,02,14,00,00,00,
24800292,00000254,false,Rx,0,8,FF,7F,FF,7F,FF,7F,FF,7F,
24800419,00000258,false,Rx,0,2,11,11,00,00,00,00,00,00,
24800657,0000015F,false,Rx,0,8,42,F0,00,7D,00,EE,00,7D,
24802450,0000013A,false,Rx,0,8,50,F4,00,00,00,0E,FF,FF,
24802982,00000100,false,Rx,0,8,0E,FE,7F,C0,5D,18,80,70,
24803347,000002ED,false,Rx,0,3,2D,02,02,00,00,00,00,00,
24804785,00000239,false,Rx,0,8,81,C2,1B,EE,01,4D,FF,FF,
24805266,00000199,false,Rx,0,6,FF,FF,92,7E,FF,BF,00,00,
24805475,0000019A,false,Rx,0,6,FF,FF,F3,7E,FF,8F,00,00,
24805686,0000019F,false,Rx,0,6,FF,FF,10,80,FF,AF,00,00,
24805917,000001FA,false,Rx,0,8,45,45,45,F0,44,46,44,44,
24806209,00000112,false,Rx,0,8,00,20,7F,0E,96,71,15,01,
24806937,000002F5,false,Rx,0,8,71,0F,2E,26,22,0A,06,10,
24807250,00000592,false,Rx,0,8,0C,15,01,32,14,01,FF,FF,
24807492,000000A5,false,Rx,0,8,E9,F0,FF,F7,7F,00,00,C1,
24807619,000000AC,false,Rx,0,2,00,F0,00,00,00,00,00,00,
24807869,000000D9,false,Rx,0,8,4D,F0,00,10,00,F0,7F,C8,
24808111,000000F3,false,Rx,0,8,8B,00,00,FF,F0,C0,FF,FF,
24808341,000002C4,false,Rx,0,8,00,00,FF,00,C8,64,FF,CF,
24808478,000001AE,false,Rx,0,2,FB,FF,00,00,00,00,00,00,
24808687,00000304,false,Rx,0,6,FF,FF,78,31,FF,FF,00,00,
24810480,000000EF,false,Rx,0,8,78,F0,00,7D,21,00,7D,FF,
24811063,000001A1,false,Rx,0,5,89,C5,00,00,8A,00,00,00,
24812502,00000200,false,Rx,0,8,00,00,3C,00,00,28,FA,FF,
24813013,00000100,false,Rx,0,8,0F,F0,7F,C0,5D,18,80,70,
24815386,0000034E,false,Rx,0,8,4D,D6,4C,05,63,08,42,47,
24815983,00000112,false,Rx,0,8,00,20,7F,0E,96,71,15,01,
24820295,00000163,false,Rx,0,8,FF,FF,03,A5,FF,FF,FF,FF,
24820533,00000173,false,Rx,0,8,72,F0,00,0E,E0,00,DE,00,
24820775,0000015F,false,Rx,0,8,1F,F1,00,7D,00,EE,00,7D,
24821026,00000254,false,Rx,0,8,FF,7F,FF,7F,FF,7F,FF,7F,
24821153,00000258,false,Rx,0,2,11,11,00,00,00,00,00,00,
24821383,00000302,false,Rx,0,7,FF,FF,FF,7F,F8,FF,FF,00,
24822513,0000013A,false,Rx,0,8,EA,F6,00,00,00,0E,FF,FF,
24822943,00000100,false,Rx,0,8,52,F1,7F,C0,5D,18,80,70,
24824173,00000197,false,Rx,0,4,03,07,0E,C0,00,00,00,00,
24824414,000002E8,false,Rx,0,8,C0,1E,C4,FF,FF,F0,F7,39,
24824646,000000A9,false,Rx,0,8,70,78,00,90,F1,00,00,FF,
24825272,00000199,false,Rx,0,6,FF,FF,92,7E,FF,BF,00,00,
24825471,0000019A,false,Rx,0,6,FF,FF,F3,7E,FF,8F,00,00,
24825681,0000019F,false,Rx,0,6,FF,FF,13,80,FF,AF,00,00,
24825902,00000301,false,Rx,0,7,FF,FF,FF,7F,FF,FF,8F,00,
24826153,00000108,false,Rx,0,8,00,7D,FF,FF,07,F1,FF,FF,
24826401,00000112,false,Rx,0,8,00,20,7F,0E,96,71,15,01,
24826570,000003FD,false,Rx,0,5,40,07,00,00,FF,00,00,00,
24826822,00000206,false,Rx,0,8,11,21,59,FF,FF,FF,FF,FF,
24827073,00000212,false,Rx,0,8,F8,F8,F9,FF,FF,FF,FF,FF,
24827325,000002DB,false,Rx,0,8,FF,FF,FF,FF,BF,FF,FF,FF,
24827566,000000A5,false,Rx,0,8,B4,F1,FF,F7,7F,00,00,C1,
24827693,000000AC,false,Rx,0,2,00,F0,00,00,00,00,00,00,
24827933,000000D9,false,Rx,0,8,10,F1,00,10,00,F0,7F,C8,
24828175,000000F3,false,Rx,0,8,D6,01,00,FF,F0,C0,FF,FF,
24828395,0000012F,false,Rx,0,8,3B,26,86,1C,F1,35,30,00,
24828630,00000289,false,Rx,0,8,87,F6,E0,FF,FD,00,EC,01,
24828820,000002BB,false,Rx,0,5,9A,F6,00,00,F2,00,00,00,
24829060,000002F1,false,Rx,0,8,B4,0F,00,00,00,00,00,A0,
24829311,0000032B,false,Rx,0,8,FF,FF,FF,FF,FF,FF,00,FF,
24829552,00000331,false,Rx,0,8,FF,FF,FF,EF,7F,FE,F7,FF,
24829806,000003E9,false,Rx,0,8,08,52,00,00,00,00,00,00,
24830491,000000EF,false,Rx,0,8,25,F1,00,7D,21,00,7D,FF,
24830785,00000514,false,Rx,0,8,00,00,00,00,E0,0A,00,14,
24831036,000001A1,false,Rx,0,5,AE,C7,00,00,8A,00,00,00,
24832267,000003CA,false,Rx,0,8,95,E0,15,07,07,31,FF,FF,
24832541,000005E0,false,Rx,0,8,11,03,00,02,FF,FF,C0,00,
24833003,00000100,false,Rx,0,8,B5,F2,7F,C0,5D,18,80,70,
24833285,0000003C,false,Rx,0,8,FF,5F,00,00,00,00,FF,FF,
24834392,000002A1,false,Rx,0,5,00,58,02,00,F0,00,00,00,
24835364,0000024F,false,Rx,0,8,00,00,00,00,00,00,30,FF,
24835960,00000112,false,Rx,0,8,00,20,7F,0E,96,71,15,01,
24836180,000002F5,false,Rx,0,8,71,0F,6B,26,22,0A,06,10,
24837381,000002A7,false,Rx,0,5,7B,F7,FE,FF,14,00,00,00,
24838585,0000031C,false,Rx,0,8,FF,FF,FF,FF,FF,FF,FF,FF,
24838797,0000033B,false,Rx,0,6,00,FF,FF,FF,FF,FF,00,00,
24840287,00000254,false,Rx,0,8,FF,7F,FF,7F,FF,7F,FF,7F,
24840529,0000015F,false,Rx,0,8,F8,F2,00,7D,00,EE,00,7D,
24840659,00000258,false,Rx,0,2,11,11,00,00,00,00,00,00,
24842264,00000328,false,Rx,0,6,2C,4D,57,0E,94,1E,00,00,
24842525,0000013A,false,Rx,0,8,EB,F8,00,00,00,0E,FF,FF,
24842777,000007BE,false,Rx,0,8,0B,00,00,00,00,00,00,00,
24843007,00000100,false,Rx,0,8,E8,F3,7F,C0,5D,18,80,70,
24845269,00000199,false,Rx,0,6,FF,FF,92,7E,FF,BF,00,00,
24845468,0000019A,false,Rx,0,6,FF,FF,F3,7E,FF,8F,00,00,
24845678,0000019F,false,Rx,0,6,FF,FF,05,80,FF,AF,00,00,
24845961,00000112,false,Rx,0,8,00,20,7F,0E,96,71,15,01,
24846192,00000239,false,Rx,0,8,81,C2,1B,EE,01,4D,FF,FF,
24847032,00000314,false,Rx,0,3,50,00,FF,00,00,00,00,00,
24847273,000000A5,false,Rx,0,8,53,F2,FF,F7,7F,00,00,C1,
24847399,000000AC,false,Rx,0,2,00,F0,00,00,00,00,00,00,
24847640,000000D9,false,Rx,0,8,F7,F2,00,10,00,F0,7F,C8,
24847881,000000F3,false,Rx,0,8,31,02,00,FF,F0,C0,FF,FF,
24850460,000000EF,false,Rx,0,8,C2,F2,00,7D,21,00,7D,FF,
24851010,000001A1,false,Rx,0,5,5B,C9,00,00,8A,00,00,00,
24852997,00000100,false,Rx,0,8,66,F4,7F,C0,5D,18,80,70,
24854167,00000197,false,Rx,0,4,85,08,0E,C0,00,00,00,00,
24854427,000002B0,false,Rx,0,6,3D,45,00,CD,FF,FF,00,00,
24855241,00000509,false,Rx,0,8,00,00,00,00,FF,FF,00,09,
24855984,00000112,false,Rx,0,8,00,20,7F,0E,96,71,15,01,
24856225,00000431,false,Rx,0,8,F6,FF,FF,FF,FF,4E,F4,4B,
24860291,00000254,false,Rx,0,8,FF,7F,FF,7F,FF,7F,FF,7F,
24860528,0000015F,false,Rx,0,8,A5,F3,00,7D,00,EE,00,7D,
24860655,00000258,false,Rx,0,2,11,11,00,00,00,00,00,00,
24860884,00000302,false,Rx,0,7,FF,FF,FF,7F,F8,FF,FF,00,
24862241,000002C5,false,Rx,0,7,F9,F9,00,20,04,70,C8,00,
24862483,0000013A,false,Rx,0,8,51,FA,00,00,00,0E,FF,FF,
24862975,00000100,false,Rx,0,8,3B,F5,7F,C0,5D,18,80,70,
24865267,00000199,false,Rx,0,6,FF,FF,9C,7E,FF,BF,00,00,
24865466,0000019A,false,Rx,0,6,FF,FF,F3,7E,FF,8F,00,00,
24865677,0000019F,false,Rx,0,6,FF,FF,20,80,FF,AF,00,00,
24865959,00000112,false,Rx,0,8,00,20,7F,0E,96,71,15,01,
24866200,00000206,false,Rx,0,8,3C,22,5A,FF,FF,FF,FF,FF,
24866435,000002F5,false,Rx,0,8,71,0F,E3,26,22,0A,06,10,
24866667,00000432,false,Rx,0,8,FC,E7,10,AA,59,FF,00,FF,
24867157,000000A5,false,Rx,0,8,0E,F3,FF,F7,7F,00,00,C1,
24867284,000000AC,false,Rx,0,2,00,F0,00,00,00,00,00,00,
24867524,000000D9,false,Rx,0,8,AA,F3,00,10,00,F0,7F,C8,
24867766,000000F3,false,Rx,0,8,6C,03,00,FF,F0,C0,FF,FF,
24870462,000000EF,false,Rx,0,8,9F,F3,00,7D,21,00,7D,FF,
24871034,000001A1,false,Rx,0,5,7C,CB,00,00,8A,00,00,00,
24872109,00000512,false,Rx,0,8,00,00,00,00,00,00,00,12,
24872890,00000100,false,Rx,0,8,DC,F6,7F,C0,5D,18,80,70,
24874475,0000059A,false,Rx,0,8,65,0D,FF,00,00,00,FF,0E,
24874757,0000059A,false,Rx,0,8,65,0D,FF,00,00,00,FF,0E,
24875968,00000112,false,Rx,0,8,00,20,7F,0E,96,71,15,01,
24878520,0000036F,false,Rx,0,5,D5,F5,FE,FF,14,00,00,00,
24880290,00000254,false,Rx,0,8,FF,7F,FF,7F,FF,7F,FF,7F,
24880531,0000015F,false,Rx,0,8,2B,F4,00,7D,00,EE,00,7D,
24880656,00000258,false,Rx,0,2,11,11,00,00,00,00,00,00,
24882511,0000013A,false,Rx,0,8,82,FC,00,00,00,0E,FF,FF,
24882969,00000100,false,Rx,0,8,81,F7,7F,C0,5D,18,80,70,
24884170,00000197,false,Rx,0,4,0A,09,0E,C0,00,00,00,00,
24885262,00000199,false,Rx,0,6,FF,FF,92,7E,FF,BF,00,00,
24885471,0000019A,false,Rx,0,6,FF,FF,F3,7E,FF,8F,00,00,
24885683,0000019F,false,Rx,0,6,FF,FF,FF,7F,FF,AF,00,00,
24885923,000003B4,false,Rx,0,8,00,00,0C,F0,B8,FF,00,FF,
24886153,00000112,false,Rx,0,8,00,20,7F,0E,96,71,15,01,
24887117,000000A5,false,Rx,0,8,80,F4,FF,F7,7F,00,00,C1,
24887245,000000AC,false,Rx,0,2,00,F0,00,00,00,00,00,00,
24887484,000000D9,false,Rx,0,8,24,F4,00,10,00,F0,7F,C8,
24887726,000000F3,false,Rx,0,8,E2,04,00,FF,F0,C0,FF,FF,
24890470,000000EF,false,Rx,0,8,11,F4,00,7D,21,00,7D,FF,
24891011,000001A1,false,Rx,0,5,15,CD,00,00,8A,00,00,00,
24892376,000007BD,false,Rx,0,8,00,00,00,C0,FF,C0,01,01,
24892658,000007BE,false,Rx,0,8,05,00,00,00,00,00,00,E0,
24892992,00000100,false,Rx,0,8,DD,F8,7F,C0,5D,18,80,70,
24895963,00000112,false,Rx,0,8,00,20,7F,0E,96,71,15,01,
24896194,000002F5,false,Rx,0,8,71,0F,1F,27,22,0A,06,10,
24897548,00000349,false,Rx,0,5,FE,FF,3E,08,00,00,00,00,
24900287,00000254,false,Rx,0,8,FF,7F,FF,7F,FF,7F,FF,7F,
24900413,00000258,false,Rx,0,2,11,11,00,00,00,00,00,00,
24900655,0000015F,false,Rx,0,8,76,F5,00,7D,00,EE,00,7D,
24900885,00000302,false,Rx,0,7,FF,FF,FF,7F,F8,FF,FF,00,
24902501,0000013A,false,Rx,0,8,38,FE,00,00,00,0E,FF,FF,
24902991,00000100,false,Rx,0,8,80,F9,7F,C0,5D,18,80,70,
24904004,000002E7,false,Rx,0,8,F9,C2,04,FF,5F,FF,00,00,
24904859,00000239,false,Rx,0,8,31,C2,1B,FF,01,4D,FF,FF,
24905277,00000199,false,Rx,0,6,FF,FF,A6,7E,FF,BF,00,00,
24905475,0000019A,false,Rx,0,6,FF,FF,F3,7E,FF,8F,00,00,
24905687,0000019F,false,Rx,0,6,FF,FF,FF,7F,FF,AF,00,00,
24906052,00000112,false,Rx,0,8,00,20,7F,0E,96,71,15,01,
24906292,00000206,false,Rx,0,8,61,23,5A,FF,FF,FF,FF,FF,
24907019,00000431,false,Rx,0,8,F6,FF,FF,FF,FF,4D,F3,4B,
24907261,000002C4,false,Rx,0,8,00,00,FF,00,C8,64,FF,CF,
24907492,000000A5,false,Rx,0,8,DD,F5,FF,F7,7F,00,00,C1,
24907630,000000AC,false,Rx,0,2,00,F0,00,00,00,00,00,00,
24907869,000000D9,false,Rx,0,8,79,F5,00,10,00,F0,7F,C8,
24908111,000000F3,false,Rx,0,8,BF,05,00,FF,F0,C0,FF,FF,
24908310,000001E1,false,Rx,0,6,D4,F7,00,FF,FF,FF,00,00,
24908446,000001AE,false,Rx,0,2,FB,FF,00,00,00,00,00,00,
24908843,00000297,false,Rx,0,7,4B,E6,F0,FF,F2,92,EA,00,
24910459,000000EF,false,Rx,0,8,4C,F5,00,7D,21,00,7D,FF,
24911012,000001A1,false,Rx,0,5,5A,C0,00,00,8A,00,00,00,
24912999,00000100,false,Rx,0,8,67,FA,7F,C0,5D,18,80,70,
24914169,00000197,false,Rx,0,4,86,0A,0E,C0,00,00,00,00,
24915980,00000112,false,Rx,0,8,00,20,7F,0E,96,71,15,01,
24917385,000002A7,false,Rx,0,5,13,F8,FE,FF,14,00,00,00,
24920290,00000163,false,Rx,0,8,FF,FF,04,A5,FF,FF,FF,FF,
24920541,00000173,false,Rx,0,8,1A,FA,00,0E,E0,00,DE,00,
24920783,0000015F,false,Rx,0,8,91,F6,00,7D,00,EE,00,7D,
24921025,00000254,false,Rx,0,8,FF,7F,FF,7F,FF,7F,FF,7F,
24921151,00000258,false,Rx,0,2,11,11,00,00,00,00,00,00,
24922569,0000013A,false,Rx,0,8,64,F1,00,00,00,0E,FF,FF,
24922935,00000100,false,Rx,0,8,3A,FB,7F,C0,5D,18,80,70,
24924447,000000A9,false,Rx,0,8,70,78,00,90,F1,00,00,FF,
24924689,000002E8,false,Rx,0,8,C0,28,C4,FF,FF,F0,F8,37,
24925264,00000199,false,Rx,0,6,FF,FF,92,7E,FF,BF,00,00,
24925462,0000019A,false,Rx,0,6,FF,FF,F3,7E,FF,8F,00,00,
24925674,0000019F,false,Rx,0,6,FF,FF,FB,7F,FF,AF,00,00,
24925956,00000112,false,Rx,0,8,00,20,7F,0E,96,71,15,01,
24926207,00000108,false,Rx,0,8,00,7D,FF,FF,07,F1,FF,FF,
24926438,000002F5,false,Rx,0,8,71,0F,98,27,22,0A,06,10,
24926618,000003FD,false,Rx,0,5,28,08,00,00,FF,00,00,00,
24926879,00000212,false,Rx,0,8,A5,F9,F9,FF,FF,FF,FF,FF,
24927131,000002DB,false,Rx,0,8,FF,FF,FF,FF,BF,FF,FF,FF,
24927382,000002F1,false,Rx,0,8,B4,0F,00,00,00,00,00,A0,
24927624,000000A5,false,Rx,0,8,3A,F6,FF,F7,7F,00,00,C1,
24927750,000000AC,false,Rx,0,2,00,F0,00,00,00,00,00,00,
24927991,000000D9,false,Rx,0,8,9E,F6,00,10,00,F0,7F,C8,
24928231,000000F3,false,Rx,0,8,58,06,00,FF,F0,C0,FF,FF,
24928451,0000012F,false,Rx,0,8,66,27,86,1C,F1,35,30,00,
24928694,00000289,false,Rx,0,8,DA,F7,E0,FF,FD,00,EC,01,
24928873,000002BB,false,Rx,0,5,6E,F1,00,00,F2,00,00,00,
24929322,00000510,false,Rx,0,8,40,10,20,00,00,00,00,00,
24930533,000000EF,false,Rx,0,8,AB,F6,00,7D,21,00,7D,FF,
24931086,000001A1,false,Rx,0,5,7D,C2,00,00,8A,00,00,00,
24932275,00000356,false,Rx,0,8,4D,F0,01,FF,FF,FF,FF,FF,
24933004,00000100,false,Rx,0,8,B4,FC,7F,C0,5D,18,80,70,
24933131,000000C0,false,Rx,0,2,F4,40,00,00,00,00,00,00,
24933382,0000003C,false,Rx,0,8,FF,5F,00,00,00,00,FF,FF,
24934394,000002A1,false,Rx,0,5,00,58,02,00,F0,00,00,00,
24935960,00000112,false,Rx,0,8,00,20,7F,0E,96,71,15,01,
24940291,00000254,false,Rx,0,8,FF,7F,FF,7F,FF,7F,FF,7F,
24940413,00000258,false,Rx,0,2,11,11,00,00,00,00,00,00,
24940654,0000015F,false,Rx,0,8,CC,F7,00,7D,00,EE,00,7D,
24940884,00000302,false,Rx,0,7,FF,FF,FF,7F,F8,FF,FF,00,
24942209,000002D1,false,Rx,0,2,19,C5,00,00,00,00,00,00,
24942449,0000013A,false,Rx,0,8,DE,F3,00,00,00,0E,FF,FF,
24942973,00000100,false,Rx,0,8,E9,FD,7F,C0,5D,18,80,70,
24944163,00000197,false,Rx,0,4,09,0B,0E,C0,00,00,00,00,
24945268,00000199,false,Rx,0,6,FF,FF,92,7E,FF,BF,00,00,
24945467,0000019A,false,Rx,0,6,FF,FF,F3,7E,FF,8F,00,00,
24945678,0000019F,false,Rx,0,6,FF,FF,FD,7F,FF,AF,00,00,
24945960,00000112,false,Rx,0,8,00,20,7F,0E,96,71,15,01,
24946201,00000206,false,Rx,0,8,EF,24,5A,FF,FF,FF,FF,FF,
24947093,000000A5,false,Rx,0,8,67,F7,FF,F7,7F,00,00,C1,
24947230,000000AC,false,Rx,0,2,00,F0,00,00,00,00,00,00,
24947470,000000D9,false,Rx,0,8,C3,F7,00,10,00,F0,7F,C8,
24947711,000000F3,false,Rx,0,8,05,07,00,FF,F0,C0,FF,FF,
24950457,000000EF,false,Rx,0,8,F6,F7,00,7D,21,00,7D,FF,
24951008,000001A1,false,Rx,0,5,14,C4,00,00,8A,00,00,00,
24952995,00000100,false,Rx,0,8,0E,FE,7F,C0,5D,18,80,70,
24954393,000002B0,false,Rx,0,6,3D,45,00,CD,FF,FF,00,00,
24955977,00000112,false,Rx,0,8,00,20,7F,0E,96,71,15,01,
24956208,000002F5,false,Rx,0,8,71,0F,D4,27,22,0A,06,10,
24957375,0000036E,false,Rx,0,5,98,F5,67,02,14,00,00,00,
24957522,00000314,false,Rx,0,3,50,00,FF,00,00,00,00,00,
24960282,00000254,false,Rx,0,8,FF,7F,FF,7F,FF,7F,FF,7F,
24960523,0000015F,false,Rx,0,8,90,F8,00,7D,00,EE,00,7D,
24960648,00000258,false,Rx,0,2,11,11,00,00,00,00,00,00,
24962242,000002C5,false,Rx,0,7,33,FA,00,20,04,70,C8,00,
24962515,0000013A,false,Rx,0,8,0D,F5,00,00,00,0E,FF,FF,
24963016,00000100,false,Rx,0,8,83,F0,7F,C0,5D,1B,80,70,
24965278,00000199,false,Rx,0,6,FF,FF,92,7E,FF,BF,00,00,
24965465,0000019A,false,Rx,0,6,FF,FF,F3,7E,FF,8F,00,00,
24965676,0000019F,false,Rx,0,6,FF,FF,06,80,FF,AF,00,00,
24965979,00000112,false,Rx,0,8,00,20,7F,0E,96,71,15,01,
24967119,00000592,false,Rx,0,8,0C,15,01,32,14,01,FF,FF,
24967359,000000A5,false,Rx,0,8,3B,F8,FF,F7,7F,00,00,C1,
24967496,000000AC,false,Rx,0,2,00,F0,00,00,00,00,00,00,
24967737,000000D9,false,Rx,0,8,9F,F8,00,10,00,F0,7F,C8,
24967968,000000F3,false,Rx,0,8,59,08,00,FF,F0,C0,FF,FF,
24970464,000000EF,false,Rx,0,8,AA,F8,00,7D,21,00,7D,FF,
24971015,000001A1,false,Rx,0,5,33,C6,00,00,8A,00,00,00,
24972887,00000100,false,Rx,0,8,DE,F1,7F,C0,5D,1B,80,70,
24973848,0000051D,false,Rx,0,8,00,00,00,00,00,00,00,1D,
24974173,00000197,false,Rx,0,4,83,0C,0E,C0,00,00,00,00,
24975967,00000112,false,Rx,0,8,00,20,7F,0E,96,71,15,01,
24976218,00000201,false,Rx,0,8,FF,FF,FF,FF,FF,FF,FF,FF,
24980282,00000254,false,Rx,0,8,FF,7F,FF,7F,FF,7F,FF,7F,
24980529,0000015F,false,Rx,0,8,CD,F9,00,7D,00,EE,00,7D,
24980678,0000021A,false,Rx,0,3,00,1C,F7,00,00,00,00,00,
24980803,00000258,false,Rx,0,2,11,11,00,00,00,00,00,00,
24981033,00000302,false,Rx,0,7,FF,FF,FF,7F,F8,FF,FF,00,
24981159,0000036A,false,Rx,0,2,F5,FF,00,00,00,00,00,00,
24982445,0000013A,false,Rx,0,8,B7,F7,00,00,00,0E,FF,FF,
24982967,00000100,false,Rx,0,8,39,F2,7F,C0,5D,1B,80,70,
24985280,00000199,false,Rx,0,6,FF,FF,88,7E,FF,BF,00,00,
24985491,0000019A,false,Rx,0,6,FF,FF,F3,7E,FF,8F,00,00,
24985691,0000019F,false,Rx,0,6,FF,FF,03,80,FF,AF,00,00,
24985972,00000112,false,Rx,0,8,00,20,7F,0E,96,71,15,01,
24986213,00000206,false,Rx,0,8,B2,25,5A,FF,FF,FF,FF,FF,
24986448,00000272,false,Rx,0,8,D2,F6,FC,02,FF,FF,FF,FF,
24986690,000002F5,false,Rx,0,8,71,0F,4D,28,22,0A,06,10,
24987129,000000A5,false,Rx,0,8,66,F9,FF,F7,7F,00,00,C1,
24987256,000000AC,false,Rx,0,2,00,F0,00,00,00,00,00,00,
24987495,000000D9,false,Rx,0,8,C2,F9,00,10,00,F0,7F,C8,
24987738,000000F3,false,Rx,0,8,04,09,00,FF,F0,C0,FF,FF,
24990466,000000EF,false,Rx,0,8,F7,F9,00,7D,21,00,7D,FF,
24991027,000001A1,false,Rx,0,5,C6,C8,00,00,8A,00,00,00,
24991267,0000051A,false,Rx,0,8,00,00,00,00,50,00,00,1A,
24992385,000007BD,false,Rx,0,8,00,00,00,C0,FF,C0,01,01,
24992647,000007BE,false,Rx,0,8,0C,01,04,6B,00,00,00,00,
24993002,00000100,false,Rx,0,8,64,F3,7F,C0,5D,1B,80,70,
24995962,00000112,false,Rx,0,8,00,20,7F,0E,96,71,15,01,
24997377,000002A7,false,Rx,0,5,8E,F9,FE,FF,14,00,00,00,
25000283,00000254,false,Rx,0,8,FF,7F,FF,7F,FF,7F,FF,7F,
25000409,00000258,false,Rx,0,2,11,11,00,00,00,00,00,00,
25000657,0000015F,false,Rx,0,8,2A,FA,00,7D,00,EE,00,7D,
25002503,0000013A,false,Rx,0,8,B6,F9,00,00,00,0E,FF,FF,
25002983,00000100,false,Rx,0,8,EA,F4,7F,C0,5D,1B,80,70,
25004173,00000197,false,Rx,0,4,0C,0D,0E,C0,00,00,00,00,
25005307,00000199,false,Rx,0,6,FF,FF,92,7E,FF,BF,00,00,
25005517,0000019A,false,Rx,0,6,FF,FF,F3,7E,FF,8F,00,00,
25005717,0000019F,false,Rx,0,6,FF,FF,12,80,FF,AF,00,00,
25006250,00000112,false,Rx,0,8,00,20,7F,0E,96,71,15,01,
25006480,00000239,false,Rx,0,8,31,C2,1B,FF,01,4D,FF,FF,
25007226,000002C4,false,Rx,0,8,00,00,FF,00,C8,64,FF,CF,
25007466,000000A5,false,Rx,0,8,81,FA,FF,F7,7F,00,00,C1,
25007594,000000AC,false,Rx,0,2,00,F0,00,00,00,00,00,00,
25007835,000000D9,false,Rx,0,8,25,FA,00,10,00,F0,7F,C8,
25008075,000000F3,false,Rx,0,8,E3,0A,00,FF,F0,C0,FF,FF,
25008285,00000304,false,Rx,0,6,FF,FF,5B,31,FF,FF,00,00,
25008421,000001AE,false,Rx,0,2,FB,FF,00,00,00,00,00,00,
25010472,000000EF,false,Rx,0,8,10,FA,00,7D,21,00,7D,FF,
25011065,000001A1,false,Rx,0,5,E1,CA,00,00,8A,00,00,00,
25011629,00000200,false,Rx,0,8,00,00,3C,00,18,28,FA,FF,
25013003,00000100,false,Rx,0,8,B7,F5,7F,C0,5D,1B,80,70,
25015961,00000112,false,Rx,0,8,00,20,7F,0E,96,71,15,01,
25016431,000002F5,false,Rx,0,8,71,0F,89,28,22,0A,06,10,
25020297,00000163,false,Rx,0,8,FF,FF,06,A5,FF,FF,FF,FF,
25020523,00000173,false,Rx,0,8,46,F5,00,0E,E0,00,DE,00,
25020765,0000015F,false,Rx,0,8,77,FB,00,7D,00,EE,00,7D,
25021006,00000254,false,Rx,0,8,FF,7F,FF,7F,FF,7F,FF,7F,
25021143,00000258,false,Rx,0,2,11,11,00,00,00,00,00,00,
25021372,00000302,false,Rx,0,7,FF,FF,FF,7F,F8,FF,FF,00,
25022504,0000013A,false,Rx,0,8,0C,FB,00,00,00,0E,FF,FF,
25022891,00000100,false,Rx,0,8,50,F6,7F,C0,5D,1B,80,70,
25024443,000000A9,false,Rx,0,8,70,78,00,90,F1,00,00,FF,
25024686,000002E8,false,Rx,0,8,C0,32,C4,FF,FF,F0,F9,B8,
25025259,00000199,false,Rx,0,6,FF,FF,92,7E,FF,BF,00,00,
25025469,0000019A,false,Rx,0,6,FF,FF,F3,7E,FF,8F,00,00,
25025669,0000019F,false,Rx,0,6,FF,FF,FD,7F,FF,AF,00,00,
25025899,00000301,false,Rx,0,7,FF,FF,FF,7F,FF,FF,8F,00,
25026150,00000108,false,Rx,0,8,00,7D,FF,FF,07,F1,FF,FF,
25026389,00000112,false,Rx,0,8,00,20,7F,0E,96,71,15,01,
25026557,000003FD,false,Rx,0,5,B5,09,00,00,FF,00,00,00,
25026809,00000206,false,Rx,0,8,55,26,5A,FF,FF,FF,FF,FF,
25027061,00000212,false,Rx,0,8,42,FA,F9,FF,FF,FF,FF,FF,
25027312,000002DB,false,Rx,0,8,FF,FF,FF,FF,BF,FF,FF,FF,
25027553,000000A5,false,Rx,0,8,DC,FB,FF,F7,7F,00,00,C1,
25027681,000000AC,false,Rx,0,2,00,F0,00,00,00,00,00,00,
25027921,000000D9,false,Rx,0,8,78,FB,00,10,00,F0,7F,C8,
25028162,000000F3,false,Rx,0,8,BE,0B,00,FF,F0,C0,FF,FF,
25028392,0000012F,false,Rx,0,8,3A,28,86,1C,F1,35,30,00,
25028629,00000289,false,Rx,0,8,86,F8,E0,FF,FD,00,EC,01,
25028818,000002BB,false,Rx,0,5,21,FC,00,00,F2,00,00,00,
25029058,000002F1,false,Rx,0,8,B4,0F,00,00,00,00,00,A0,
25029300,000005A9,false,Rx,0,8,01,04,3F,FF,FF,FF,FF,FF,
25029541,0000032B,false,Rx,0,8,FF,FF,FF,FF,FF,FF,00,FF,
25029793,00000331,false,Rx,0,8,FF,FF,FF,EF,7F,FE,F7,FF,
25030045,000003E9,false,Rx,0,8,08,52,00,00,00,00,00,00,
25030659,000000EF,false,Rx,0,8,4D,FB,00,7D,21,00,7D,FF,
25031213,000001A1,false,Rx,0,5,88,CC,00,00,8A,00,00,00,
25032308,000005E0,false,Rx,0,8,11,04,00,03,FF,FF,C4,00,
25032977,00000100,false,Rx,0,8,0D,F7,7F,C0,5D,1B,80,70,
25033281,0000003C,false,Rx,0,8,FF,5F,00,00,00,00,FF,FF,
25034179,00000197,false,Rx,0,4,80,0E,0E,C0,00,00,00,00,
25034419,000002A1,false,Rx,0,5,00,58,02,00,F0,00,00,00,
25035965,00000112,false,Rx,0,8,00,20,7F,0E,96,71,15,01,
25038516,0000036F,false,Rx,0,5,6F,F6,FE,FF,14,00,00,00,
25038763,0000031C,false,Rx,0,8,FF,FF,FF,FF,FF,FF,FF,FF,
25038972,0000033B,false,Rx,0,6,00,FF,FF,FF,FF,FF,00,00,
25040287,00000254,false,Rx,0,8,FF,7F,FF,7F,FF,7F,FF,7F,
25040528,0000015F,false,Rx,0,8,F9,FC,00,7D,00,EE,00,7D,
25040657,00000258,false,Rx,0,2,11,11,00,00,00,00,00,00,
25042357,000007BD,false,Rx,0,8,10,00,00,00,00,00,00,00,
25042607,0000013A,false,Rx,0,8,DF,FD,00,00,00,0E,FF,FF,
25042847,000007BE,false,Rx,0,8,00,C0,FA,1C,02,00,00,00,
25043089,00000100,false,Rx,0,8,51,F8,7F,C0,5D,1B,80,70,
25045268,00000199,false,Rx,0,6,FF,FF,92,7E,FF,BF,00,00,
25045468,0000019A,false,Rx,0,6,FF,FF,F3,7E,FF,8F,00,00,
25045678,0000019F,false,Rx,0,6,FF,FF,F1,7F,FF,AF,00,00,
25045970,00000112,false,Rx,0,8,00,20,7F,0E,96,71,15,01,
25046202,000002F5,false,Rx,0,8,71,0F,02,29,22,0A,06,10,
25047125,000000A5,false,Rx,0,8,52,FC,FF,F7,7F,00,00,C1,
25047262,000000AC,false,Rx,0,2,00,F0,00,00,00,00,00,00,
25047501,000000D9,false,Rx,0,8,F6,FC,00,10,00,F0,7F,C8,
25047745,000000F3,false,Rx,0,8,30,0C,00,FF,F0,C0,FF,FF,
25048432,00000540,false,Rx,0,8,00,00,00,00,0C,30,FF,40,
25050461,000000EF,false,Rx,0,8,C3,FC,00,7D,21,00,7D,FF,
25051022,000001A1,false,Rx,0,5,AF,CE,00,00,8A,00,00,00,
25052977,00000100,false,Rx,0,8,0C,F9,7F,C0,5D,1B,80,70,
25054396,000002B0,false,Rx,0,6,3D,45,00,CD,FF,FF,00,00,
25055969,00000112,false,Rx,0,8,00,20,7F,0E,96,71,15,01,
25056211,00000431,false,Rx,0,8,F6,FF,FF,FF,FF,4D,F3,4B,
25060284,00000254,false,Rx,0,8,FF,7F,FF,7F,FF,7F,FF,7F,
25060521,0000015F,false,Rx,0,8,A4,FD,00,7D,00,EE,00,7D,
25060648,00000258,false,Rx,0,2,11,11,00,00,00,00,00,00,
25060879,00000302,false,Rx,0,7,FF,FF,FF,7F,F8,FF,FF,00,
25062266,0000019D,false,Rx,0,8,1A,DA,03,07,FF,FF,FF,FF,
25062508,0000013A,false,Rx,0,8,39,F0,00,00,00,0E,FF,FF,
25062719,000002C5,false,Rx,0,7,75,FB,00,20,04,70,C8,00,
25062980,00000100,false,Rx,0,8,EB,FA,7F,C0,5D,1B,80,70,
25064170,00000197,false,Rx,0,4,89,00,0E,C0,00,00,00,00,
25065256,00000199,false,Rx,0,6,FF,FF,92,7E,FF,BF,00,00,
25065466,0000019A,false,Rx,0,6,FF,FF,F3,7E,FF,8F,00,00,
25065677,0000019F,false,Rx,0,6,FF,FF,F3,7F,FF,AF,00,00,
25065958,00000112,false,Rx,0,8,00,20,7F,0E,96,71,15,01,
25066211,00000206,false,Rx,0,8,08,27,5A,FF,FF,FF,FF,FF,
25066434,00000432,false,Rx,0,8,FC,E7,10,AA,59,FF,00,FF,
25067031,00000314,false,Rx,0,3,50,00,FF,00,00,00,00,00,
25067271,000000A5,false,Rx,0,8,0F,FD,FF,F7,7F,00,00,C1,
25067407,000000AC,false,Rx,0,2,00,F0,00,00,00,00,00,00,
25067649,000000D9,false,Rx,0,8,AB,FD,00,10,00,F0,7F,C8,
25067879,000000F3,false,Rx,0,8,6D,0D,00,FF,F0,C0,FF,FF,
25070470,000000EF,false,Rx,0,8,9E,FD,00,7D,21,00,7D,FF,
25071021,000001A1,false,Rx,0,5,C7,C1,00,00,8A,00,00,00,
25072894,00000100,false,Rx,0,8,B6,FB,7F,C0,5D,1B,80,70,
25075977,00000112,false,Rx,0,8,00,20,7F,0E,96,71,15,01,
25076209,000002F5,false,Rx,0,8,71,0F,3E,29,22,0A,06,10,
25077375,000002A7,false,Rx,0,5,34,FA,FE,FF,14,00,00,00,
25080280,00000254,false,Rx,0,8,FF,7F,FF,7F,FF,7F,FF,7F,
25080520,0000015F,false,Rx,0,8,43,FE,00,7D,00,EE,00,7D,
25080656,00000258,false,Rx,0,2,11,11,00,00,00,00,00,00,
25082501,0000013A,false,Rx,0,8,83,F2,00,00,00,0E,FF,FF,
25082980,00000100,false,Rx,0,8,38,FC,7F,C0,5D,1B,80,70,
25085260,00000199,false,Rx,0,6,FF,FF,88,7E,FF,BF,00,00,
25085459,0000019A,false,Rx,0,6,FF,FF,F3,7E,FF,8F,00,00,
25085670,0000019F,false,Rx,0,6,FF,FF,03,80,FF,AF,00,00,
25085993,00000112,false,Rx,0,8,00,20,7F,0E,96,71,15,01,
25086131,00000337,false,Rx,0,2,FF,FF,00,00,00,00,00,00,
25086412,000003B4,false,Rx,0,8,00,00,0C,F0,B8,FF,00,FF,
25087128,000000A5,false,Rx,0,8,E8,FE,FF,F7,7F,00,00,C1,
25087265,000000AC,false,Rx,0,2,00,F0,00,00,00,00,00,00,
25087504,000000D9,false,Rx,0,8,4C,FE,00,10,00,F0,7F,C8,
25087737,000000F3,false,Rx,0,8,8A,0E,00,FF,F0,C0,FF,FF,
25090459,000000EF,false,Rx,0,8,79,FE,00,7D,21,00,7D,FF,
25091010,000001A1,false,Rx,0,5,E0,C3,00,00,8A,00,00,00,
25092386,000007BD,false,Rx,0,8,00,00,00,C0,FF,C0,01,01,
25092657,000007BE,false,Rx,0,8,05,00,00,00,00,00,00,E0,
25093013,00000100,false,Rx,0,8,65,FD,7F,C0,5D,1B,80,70,
25093880,000002F9,false,Rx,0,7,00,00,00,08,01,C0,F3,00,
25094173,00000197,false,Rx,0,4,06,01,0E,C0,00,00,00,00,
25095968,00000112,false,Rx,0,8,00,20,7F,0E,96,71,15,01,
25097434,000001D6,false,Rx,0,2,F0,C0,00,00,00,00,00,00,
25097614,00000349,false,Rx,0,5,FE,FF,3E,08,00,00,00,00,
25100279,00000254,false,Rx,0,8,FF,7F,FF,7F,FF,7F,FF,7F,
25100405,00000258,false,Rx,0,2,11,11,00,00,00,00,00,00,
25100646,0000015F,false,Rx,0,8,42,F0,00,7D,00,EE,00,7D,
25100877,00000302,false,Rx,0,7,FF,FF,FF,7F,F8,FF,FF,00,
25102504,0000013A,false,Rx,0,8,50,F4,00,00,00,0E,FF,FF,
25102973,00000100,false,Rx,0,8,82,FE,7F,C0,5D,1B,80,70,
25105262,00000199,false,Rx,0,6,FF,FF,92,7E,FF,BF,00,00,
25105472,0000019A,false,Rx,0,6,FF,FF,F3,7E,FF,8F,00,00,
25105672,0000019F,false,Rx,0,6,FF,FF,F6,7F,FF,AF,00,00,
25105985,00000112,false,Rx,0,8,00,20,7F,0E,96,71,15,01,
25106227,00000206,false,Rx,0,8,54,28,5A,FF,FF,FF,FF,FF,
25106697,000002F5,false,Rx,0,8,71,0F,60,29,22,0A,06,10,
25107215,000002C4,false,Rx,0,8,00,00,FF,00,C8,64,FF,CF,
25107456,000000A5,false,Rx,0,8,E9,F0,FF,F7,7F,00,00,C1,
25107584,000000AC,false,Rx,0,2,00,F0,00,00,00,00,00,00,
25107824,000000D9,false,Rx,0,8,4D,F0,00,10,00,F0,7F,C8,
25108065,000000F3,false,Rx,0,8,8B,00,00,FF,F0,C0,FF,FF,
25108275,000001E1,false,Rx,0,6,A8,F8,00,FF,FF,FF,00,00,
25108443,000001AE,false,Rx,0,2,FB,FF,00,00,00,00,00,00,
25108920,00000297,false,Rx,0,7,0D,E7,F0,FF,F2,92,EA,00,
25109193,00000300,false,Rx,0,8,1E,22,59,96,65,59,96,65,
25110455,000000EF,false,Rx,0,8,78,F0,00,7D,21,00,7D,FF,
25111009,000001A1,false,Rx,0,5,89,C5,00,00,8A,00,00,00,
25113008,00000100,false,Rx,0,8,83,F0,7F,C0,5D,1B,80,70,
25115985,00000112,false,Rx,0,8,00,20,7F,0E,96,71,15,01,
25117369,0000036E,false,Rx,0,5,AD,F6,66,02,14,00,00,00,
25117778,00000348,false,Rx,0,8,FE,FE,FE,00,FE,FE,FF,00,
25120288,00000163,false,Rx,0,8,FF,FF,07,A5,FF,FF,FF,FF,
25120529,00000173,false,Rx,0,8,72,F0,00,0E,E0,00,DE,00,
25120772,0000015F,false,Rx,0,8,1F,F1,00,7D,00,EE,00,7D,
25121013,00000254,false,Rx,0,8,FF,7F,FF,7F,FF,7F,FF,7F,
25121139,00000258,false,Rx,0,2,11,11,00,00,00,00,00,00,
25122567,0000013A,false,Rx,0,8,EA,F6,00,00,00,0E,FF,FF,
25122892,00000100,false,Rx,0,8,DE,F1,7F,C0,5D,1B,80,70,
25124176,00000197,false,Rx,0,4,8A,02,0E,C0,00,00,00,00,
25124457,000000A9,false,Rx,0,8,70,78,00,90,F1,00,00,FF,
25124701,000002E8,false,Rx,0,8,C0,3C,C4,FF,FF,F0,FA,1C,
25125256,00000199,false,Rx,0,6,FF,FF,92,7E,FF,BF,00,00,
25125465,0000019A,false,Rx,0,6,FF,FF,F3,7E,FF,8F,00,00,
25125675,0000019F,false,Rx,0,6,FF,FF,06,80,FF,AF,00,00,
25125999,00000112,false,Rx,0,8,00,20,7F,0E,96,71,15,01,
25126241,00000108,false,Rx,0,8,00,7D,FF,FF,07,F1,FF,FF,
25126429,000003FD,false,Rx,0,5,0F,0A,00,00,FF,00,00,00,
25126681,00000212,false,Rx,0,8,1F,FB,F9,FF,FF,FF,FF,FF,
25126931,000002DB,false,Rx,0,8,FF,FF,FF,FF,BF,FF,FF,FF,
25127182,000002F1,false,Rx,0,8,B4,0F,00,00,00,00,00,A0,
25127422,000000A5,false,Rx,0,8,B4,F1,FF,F7,7F,00,00,C1,
25127550,000000AC,false,Rx,0,2,00,F0,00,00,00,00,00,00,
25127791,000000D9,false,Rx,0,8,10,F1,00,10,00,F0,7F,C8,
25128021,000000F3,false,Rx,0,8,D6,01,00,FF,F0,C0,FF,FF,
25128251,0000012F,false,Rx,0,8,67,29,86,1C,F1,35,30,00,
25128493,00000289,false,Rx,0,8,DB,F9,E0,FF,FD,00,EC,01,
25128673,000002BB,false,Rx,0,5,07,F7,00,00,F2,00,00,00,
25130467,000000EF,false,Rx,0,8,25,F1,00,7D,21,00,7D,FF,
25131017,000001A1,false,Rx,0,5,AE,C7,00,00,8A,00,00,00,
25133026,00000100,false,Rx,0,8,39,F2,7F,C0,5D,1B,80,70,
25133163,000000C0,false,Rx,0,2,F5,40,00,00,00,00,00,00,
25133412,0000003C,false,Rx,0,8,FF,5F,00,00,00,00,FF,FF,
25134394,000002A1,false,Rx,0,5,00,58,02,00,F0,00,00,00,
25136003,00000112,false,Rx,0,8,00,20,7F,0E,96,71,15,01,
25136233,000002F5,false,Rx,0,8,71,0F,60,29,22,0A,06,10,
25137483,0000021A,false,Rx,0,3,00,1C,F7,00,00,00,00,00,
25137610,0000036A,false,Rx,0,2,F5,FF,00,00,00,00,00,00,
25140296,00000254,false,Rx,0,8,FF,7F,FF,7F,FF,7F,FF,7F,
25140422,00000258,false,Rx,0,2,11,11,00,00,00,00,00,00,
25140664,0000015F,false,Rx,0,8,F8,F2,00,7D,00,EE,00,7D,
25140894,00000302,false,Rx,0,7,FF,FF,FF,7F,F8,FF,FF,00,
25141178,0000043D,false,Rx,0,8,FE,FE,EF,FF,F6,FE,FE,F7,
25142338,000007BD,false,Rx,0,8,01,2D,55,7F,49,4C,4C,00,
25142589,0000013A,false,Rx,0,8,EB,F8,00,00,00,0E,FF,FF,
25142830,000007BE,false,Rx,0,8,06,01,20,00,00,01,83,00,
25143064,00000100,false,Rx,0,8,64,F3,7F,C0,5D,1B,80,70,
25144388,00000397,false,Rx,0,7,00,2A,00,75,09,28,01,00,
25144621,0000059A,false,Rx,0,8,11,00,00,03,64,64,28,00,
25144861,00000431,false,Rx,0,8,C6,FF,FF,FF,FF,4D,F3,4B,
25145272,00000199,false,Rx,0,6,FF,FF,A6,7E,FF,BF,00,00,
25145470,0000019A,false,Rx,0,6,FF,FF,F3,7E,FF,8F,00,00,
25145681,0000019F,false,Rx,0,6,FF,FF,E0,7F,FF,AF,00,00,
25145996,00000112,false,Rx,0,8,00,20,7F,0E,96,71,15,01,
25146236,00000206,false,Rx,0,8,09,29,5A,FF,FF,FF,FF,FF,
25147107,000000A5,false,Rx,0,8,53,F2,FF,F7,7F,00,00,C1,
25147243,000000AC,false,Rx,0,2,00,F0,00,00,00,00,00,00,
25147473,000000D9,false,Rx,0,8,F7,F2,00,10,00,F0,7F,C8,
25147716,000000F3,false,Rx,0,8,31,02,00,FF,F0,C0,FF,FF,
25150458,000000EF,false,Rx,0,8,C2,F2,00,7D,21,00,7D,FF,
25150993,000001A1,false,Rx,0,5,5B,C9,00,00,8A,00,00,00,
25151794,00000592,false,Rx,0,8,41,00,00,00,00,63,00,00,
25152974,00000100,false,Rx,0,8,EA,F4,7F,C0,5D,1B,80,70,
25154171,00000197,false,Rx,0,4,05,03,0E,C0,00,00,00,00,
25154411,000002B0,false,Rx,0,6,3D,45,00,CD,FF,FF,00,00,
25155986,00000112,false,Rx,0,8,00,20,7F,0E,96,71,15,01,
25157380,000002A7,false,Rx,0,5,A9,FB,FE,FF,14,00,00,00,
25160296,00000254,false,Rx,0,8,FF,7F,FF,7F,FF,7F,FF,7F,
25160422,00000258,false,Rx,0,2,11,11,00,00,00,00,00,00,
25160664,0000015F,false,Rx,0,8,A5,F3,00,7D,00,EE,00,7D,
25160905,0000043C,false,Rx,0,8,FE,FE,FF,FF,FF,FF,FF,FF,
25162232,000002C5,false,Rx,0,7,BA,FC,00,20,04,70,C8,00,
25162472,0000013A,false,Rx,0,8,51,FA,00,00,00,0E,FF,FF,
25162610,000002CA,false,Rx,0,2,72,72,00,00,00,00,00,00,
25162819,000002F7,false,Rx,0,6,02,D8,8A,0B,11,F2,00,00,
25163050,00000100,false,Rx,0,8,B7,F5,7F,C0,5D,1B,80,70,
25165255,00000199,false,Rx,0,6,FF,FF,9C,7E,FF,BF,00,00,
25165460,0000019A,false,Rx,0,6,FF,FF,F3,7E,FF,8F,00,00,
25165670,0000019F,false,Rx,0,6,FF,FF,08,80,FF,AF,00,00,
25165984,00000112,false,Rx,0,8,00,20,7F,0E,96,71,15,01,
25167111,000000A5,false,Rx,0,8,0E,F3,FF,F7,7F,00,00,C1,
25167247,000000AC,false,Rx,0,2,00,F0,00,00,00,00,00,00,
25167491,000000D9,false,Rx,0,8,AA,F3,00,10,00,F0,7F,C8,
25167723,000000F3,false,Rx,0,8,6C,03,00,FF,F0,C0,FF,FF,
25170462,000000EF,false,Rx,0,8,9F,F3,00,7D,21,00,7D,FF,
25171027,000001A1,false,Rx,0,5,7C,CB,00,00,8A,00,00,00,
25172934,00000100,false,Rx,0,8,50,F6,7F,C0,5D,1B,80,70,
25175989,00000112,false,Rx,0,8,00,20,7F,0E,96,71,15,01,
25180284,00000254,false,Rx,0,8,FF,7F,FF,7F,FF,7F,FF,7F,
25180406,00000258,false,Rx,0,2,11,11,00,00,00,00,00,00,
25180648,0000015F,false,Rx,0,8,2B,F4,00,7D,00,EE,00,7D,
25180878,00000302,false,Rx,0,7,FF,FF,FF,7F,F8,FF,FF,00,
25182442,0000013A,false,Rx,0,8,82,FC,00,00,00,0E,FF,FF,
25182965,00000100,false,Rx,0,8,0D,F7,7F,C0,5D,1B,80,70,
25184176,00000197,false,Rx,0,4,8F,04,0E,C0,00,00,00,00,
25185261,00000199,false,Rx,0,6,FF,FF,92,7E,FF,BF,00,00,
25185459,0000019A,false,Rx,0,6,FF,FF,F3,7E,FF,8F,00,00,
25185670,0000019F,false,Rx,0,6,FF,FF,F9,7F,FF,AF,00,00,
25185994,00000112,false,Rx,0,8,00,20,7F,0E,96,71,15,01,
25186235,00000206,false,Rx,0,8,EE,2A,5A,FF,FF,FF,FF,FF,
25186480,00000272,false,Rx,0,8,8F,F7,FC,02,FF,FF,FF,FF,
25187097,000000A5,false,Rx,0,8,80,F4,FF,F7,7F,00,00,C1,
25187233,000000AC,false,Rx,0,2,00,F0,00,00,00,00,00,00,
25187474,000000D9,false,Rx,0,8,24,F4,00,10,00,F0,7F,C8,
25187716,000000F3,false,Rx,0,8,E2,04,00,FF,F0,C0,FF,FF,
25190463,000000EF,false,Rx,0,8,11,F4,00,7D,21,00,7D,FF,
25191004,000001A1,false,Rx,0,5,15,CD,00,00,8A,00,00,00,
25191818,000003B3,false,Rx,0,7,1F,00,FF,0F,00,F3,08,00,
25192371,000007BD,false,Rx,0,8,00,00,00,C0,FF,C0,01,01,
25192634,000007BE,false,Rx,0,8,07,67,1E,E3,06,67,00,00,
25192980,00000100,false,Rx,0,8,51,F8,7F,C0,5D,1B,80,70,
25194003,000002E7,false,Rx,0,8,A4,C3,04,FF,5F,FF,00,00,
25194243,0000038E,false,Rx,0,8,00,00,0B,0B,A9,09,DB,FF,
25195968,00000112,false,Rx,0,8,00,20,7F,0E,96,71,15,01,
25198509,0000036F,false,Rx,0,5,F2,F7,FE,FF,14,00,00,00,
25200277,00000254,false,Rx,0,8,FF,7F,FF,7F,FF,7F,FF,7F,
25200519,0000015F,false,Rx,0,8,76,F5,00,7D,00,EE,00,7D,
25200644,00000258,false,Rx,0,2,11,11,00,00,00,00,00,00,
25202446,0000013A,false,Rx,0,8,38,FE,00,00,00,0E,FF,FF,
25202978,00000100,false,Rx,0,8,0C,F9,7F,C0,5D,1B,80,70,
25203448,00000246,false,Rx,0,5,3F,FB,00,FF,FF,00,00,00,
25203701,00000299,false,Rx,0,6,FF,FF,FF,FF,FF,00,00,00,
25205285,00000199,false,Rx,0,6,FF,FF,A6,7E,FF,BF,00,00,
25205484,0000019A,false,Rx,0,6,FF,FF,F3,7E,FF,8F,00,00,
25205694,0000019F,false,Rx,0,6,FF,FF,FB,7F,FF,AF,00,00,
25206196,00000112,false,Rx,0,8,00,20,7F,0E,96,71,15,01,
25206436,00000239,false,Rx,0,8,31,C2,1B,FF,01,4D,FF,FF,
25207234,000002C4,false,Rx,0,8,00,00,FF,00,C8,64,FF,CF,
25207476,000000A5,false,Rx,0,8,DD,F5,FF,F7,7F,00,00,C1,
25207604,000000AC,false,Rx,0,2,00,F0,00,00,00,00,00,00,
25207843,000000D9,false,Rx,0,8,79,F5,00,10,00,F0,7F,C8,
25208084,000000F3,false,Rx,0,8,BF,05,00,FF,F0,C0,FF,FF,
25208305,000002F9,false,Rx,0,7,00,00,00,08,02,C0,F3,00,
25208442,000001AE,false,Rx,0,2,FB,FF,00,00,00,00,00,00,
25208648,00000304,false,Rx,0,6,FF,FF,5F,31,FF,FF,00,00,
25208888,000003F9,false,Rx,0,8,85,F5,80,E0,44,30,C3,FF,
25210473,000000EF,false,Rx,0,8,4C,F5,00,7D,21,00,7D,FF,
25211040,000001A1,false,Rx,0,5,5A,C0,00,00,8A,00,00,00,
25211895,00000200,false,Rx,0,8,00,00,7C,00,18,28,FA,FF,
25212990,00000100,false,Rx,0,8,EB,FA,7F,C0,5D,1B,80,70,
25214178,00000197,false,Rx,0,4,00,05,0E,C0,00,00,00,00,
25216003,00000112,false,Rx,0,8,00,20,7F,0E,96,71,15,01,
25216472,000002F5,false,Rx,0,8,71,0F,60,29,22,0A,06,10,
25220285,00000163,false,Rx,0,8,FF,FF,08,A5,FF,FF,FF,FF,
25220534,00000173,false,Rx,0,8,1A,FA,00,0E,E0,00,DE,00,
25220775,0000015F,false,Rx,0,8,91,F6,00,7D,00,EE,00,7D,
25221016,00000254,false,Rx,0,8,FF,7F,FF,7F,FF,7F,FF,7F,
25221142,00000258,false,Rx,0,2,11,11,00,00,00,00,00,00,
25221373,00000302,false,Rx,0,7,FF,FF,FF,7F,F8,FF,FF,00,
25222503,0000013A,false,Rx,0,8,64,F1,00,00,00,0E,FF,FF,
25222954,00000100,false,Rx,0,8,B6,FB,7F,C0,5D,1B,80,70,
25223340,000002ED,false,Rx,0,3,61,03,02,00,00,00,00,00,
25224435,000000A9,false,Rx,0,8,70,78,00,90,F1,00,00,FF,
25225250,00000199,false,Rx,0,6,FF,FF,92,7E,FF,BF,00,00,
25225459,0000019A,false,Rx,0,6,FF,FF,F3,7E,FF,8F,00,00,
25225669,0000019F,false,Rx,0,6,FF,FF,FC,7F,FF,AF,00,00,
25225900,00000301,false,Rx,0,7,FF,FF,FF,7F,FF,FF,8F,00,
25226141,00000108,false,Rx,0,8,00,7D,FF,FF,07,F1,FF,FF,
25226387,000002E8,false,Rx,0,8,C0,47,C4,FF,FF,F0,FB,AD,
25226620,00000112,false,Rx,0,8,00,20,7F,0E,96,71,15,01,
25226798,000003FD,false,Rx,0,5,92,0B,00,00,FF,00,00,00,
25227048,00000201,false,Rx,0,8,FF,FF,FF,FF,FF,FF,FF,FF,
25227206,00000314,false,Rx,0,3,50,00,FF,00,00,00,00,00,
25227447,00000206,false,Rx,0,8,B3,2B,5A,FF,FF,FF,FF,FF,
25227689,000000A5,false,Rx,0,8,3A,F6,FF,F7,7F,00,00,C1,
25227815,000000AC,false,Rx,0,2,00,F0,00,00,00,00,00,00,
25228054,000000D9,false,Rx,0,8,9E,F6,00,10,00,F0,7F,C8,
25228296,000000F3,false,Rx,0,8,58,06,00,FF,F0,C0,FF,FF,
25228519,0000012F,false,Rx,0,8,80,2A,86,1C,F1,35,30,00,
25228761,00000212,false,Rx,0,8,91,FC,F9,FF,FF,FF,FF,FF,
25229003,00000289,false,Rx,0,8,3C,FA,E0,FF,FD,00,EC,01,
25229192,000002BB,false,Rx,0,5,D4,F2,00,00,F2,00,00,00,
25229432,000002DB,false,Rx,0,8,FF,FF,FF,FF,BF,FF,FF,FF,
25229684,000002F1,false,Rx,0,8,B4,0F,00,00,00,00,00,A0,
25229937,000002FA,false,Rx,0,8,FD,FF,00,FF,FF,FF,FF,FF,
25230177,0000032B,false,Rx,0,8,FF,FF,FF,FF,FF,FF,00,FF,
25230449,00000331,false,Rx,0,8,FF,FF,FF,EF,7F,FE,F7,FF,
25230672,000000EF,false,Rx,0,8,AB,F6,00,7D,21,00,7D,FF,
25230913,000003AD,false,Rx,0,8,00,F0,FF,FF,FF,FF,FF,F1,
25231050,000003E8,false,Rx,0,2,F1,FF,00,00,00,00,00,00,
25231238,000001A1,false,Rx,0,5,7D,C2,00,00,8A,00,00,00,
25231489,000003E9,false,Rx,0,8,08,52,00,00,00,00,00,00,
25232251,00000560,false,Rx,0,8,00,00,00,00,00,00,00,60,
25232521,000003D8,false,Rx,0,8,03,FF,FF,FF,FF,FF,FF,FF,
25232764,000005E0,false,Rx,0,8,11,03,00,02,FF,FF,C0,00,
25233015,00000100,false,Rx,0,8,38,FC,7F,C0,5D,1B,80,70,
25233266,0000003C,false,Rx,0,8,FF,5F,00,00,00,00,FF,FF,
25233528,0000021F,false,Rx,0,8,FF,FF,FF,FF,FF,FF,FF,FF,
25234395,000002A1,false,Rx,0,5,00,58,02,00,F0,00,00,00,
25235966,00000112,false,Rx,0,8,00,20,7F,0E,96,71,15,01,
25237381,000002A7,false,Rx,0,5,5D,FC,FE,FF,14,00,00,00,
25238575,0000031C,false,Rx,0,8,FF,FF,FF,FF,FF,FF,FF,FF,
25238786,0000033B,false,Rx,0,6,00,FF,FF,FF,FF,FF,00,00,
25240308,00000254,false,Rx,0,8,FF,7F,FF,7F,FF,7F,FF,7F,
25240539,0000015F,false,Rx,0,8,CC,F7,00,7D,00,EE,00,7D,
25240667,00000258,false,Rx,0,2,11,11,00,00,00,00,00,00,
25241689,000001D0,false,Rx,0,8,D6,F2,DF,FF,FF,FF,FF,FF,
25241877,000001B9,false,Rx,0,5,FF,FF,FF,14,FF,00,00,00,
25242358,000007BD,false,Rx,0,8,04,00,00,00,00,00,00,80,
25242591,0000013A,false,Rx,0,8,DE,F3,00,00,00,0E,FF,FF,
25242845,000007BE,false,Rx,0,8,0B,00,00,00,00,00,00,00,
25243085,00000100,false,Rx,0,8,65,FD,7F,C0,5D,1B,80,70,
25244171,00000197,false,Rx,0,4,8C,06,0E,C0,00,00,00,00,
25245258,00000199,false,Rx,0,6,FF,FF,92,7E,FF,BF,00,00,
25245457,0000019A,false,Rx,0,6,FF,FF,F3,7E,FF,8F,00,00,
25245667,0000019F,false,Rx,0,6,FF,FF,05,80,FF,2F,00,00,
25245992,00000112,false,Rx,0,8,00,20,7F,0E,96,71,15,01,
25247109,000000A5,false,Rx,0,8,67,F7,FF,F7,7F,00,00,C1,
25247236,000000AC,false,Rx,0,2,00,F0,00,00,00,00,00,00,
25247476,000000D9,false,Rx,0,8,C3,F7,00,10,00,F0,7F,C8,
25247718,000000F3,false,Rx,0,8,05,07,00,FF,F0,C0,FF,FF,
25250453,000000EF,false,Rx,0,8,F6,F7,00,7D,21,00,7D,FF,
25251013,000001A1,false,Rx,0,5,14,C4,00,00,8A,00,00,00,
25252980,00000100,false,Rx,0,8,82,FE,7F,C0,5D,1B,80,70,
25254389,000002B0,false,Rx,0,6,3D,45,00,CD,FF,FF,00,00,
25255984,00000112,false,Rx,0,8,00,20,7F,0E,96,71,15,01,
25256225,00000431,false,Rx,0,8,C6,FF,FF,FF,FF,4D,F3,4B,
25258685,000003A7,false,Rx,0,7,1A,F2,00,00,1F,11,F0,00,
25258817,000003E6,false,Rx,0,2,59,00,00,00,00,00,00,00,
25260277,00000254,false,Rx,0,8,FF,7F,FF,7F,FF,7F,FF,7F,
25260518,0000015F,false,Rx,0,8,90,F8,00,7D,00,EE,00,7D,
25260646,00000258,false,Rx,0,2,11,11,00,00,00,00,00,00,
25260876,00000302,false,Rx,0,7,FF,FF,FF,7F,F8,FF,FF,00,
25262233,000002C5,false,Rx,0,7,FC,FD,00,20,04,70,C8,00,
25262473,0000013A,false,Rx,0,8,0D,F5,00,00,00,0E,FF,FF,
25263018,00000100,false,Rx,0,8,83,F0,7F,C0,5D,1B,80,70,
25265256,00000199,false,Rx,0,6,FF,FF,88,7E,FF,BF,00,00,
25265454,0000019A,false,Rx,0,6,FF,FF,F3,7E,FF,8F,00,00,
25265665,0000019F,false,Rx,0,6,FF,FF,1C,80,FF,2F,00,00,
25265969,00000112,false,Rx,0,8,00,20,7F,0E,96,71,15,01,
25266220,00000206,false,Rx,0,8,3D,2C,5A,FF,FF,FF,FF,FF,
25266450,00000432,false,Rx,0,8,FC,E7,10,AA,59,FF,00,FF,
25267167,000000A5,false,Rx,0,8,3B,F8,FF,F7,7F,00,00,C1,
25267293,000000AC,false,Rx,0,2,00,F0,00,00,00,00,00,00,
25267534,000000D9,false,Rx,0,8,9F,F8,00,10,00,F0,7F,C8,
25267776,000000F3,false,Rx,0,8,59,08,00,FF,F0,C0,FF,FF,
25268278,0000055E,false,Rx,0,8,00,00,00,00,00,00,00,5E,
25270461,000000EF,false,Rx,0,8,AA,F8,00,7D,21,00,7D,FF,
25271001,000001A1,false,Rx,0,5,33,C6,00,00,8A,00,00,00,
25272926,00000100,false,Rx,0,8,DE,F1,7F,C0,5D,1B,80,70,
25274177,00000197,false,Rx,0,4,03,07,0E,C0,00,00,00,00,
25275979,00000112,false,Rx,0,8,00,20,7F,0E,96,71,15,01,
25277363,0000036E,false,Rx,0,5,30,F7,66,02,14,00,00,00,
25280277,00000254,false,Rx,0,8,FF,7F,FF,7F,FF,7F,FF,7F,
25280519,0000015F,false,Rx,0,8,CD,F9,00,7D,00,EE,00,7D,
25280646,00000258,false,Rx,0,2,11,11,00,00,00,00,00,00,
25282500,0000013A,false,Rx,0,8,B7,F7,00,00,00,0E,FF,FF,
25282999,00000100,false,Rx,0,8,39,F2,7F,C0,5D,1B,80,70,
25285258,00000199,false,Rx,0,6,FF,FF,92,7E,FF,BF,00,00,
25285457,0000019A,false,Rx,0,6,FF,FF,F3,7E,FF,8F,00,00,
25285667,0000019F,false,Rx,0,6,FF,FF,10,80,FF,2F,00,00,
25286002,00000112,false,Rx,0,8,00,20,7F,0E,96,71,15,01,
25286243,000001FA,false,Rx,0,8,45,45,45,F0,44,46,44,44,
25286483,000003B4,false,Rx,0,8,00,00,0C,F0,B8,FF,00,FF,
25287158,000000A5,false,Rx,0,8,66,F9,FF,F7,7F,00,00,C1,
25287296,000000AC,false,Rx,0,2,00,F0,00,00,00,00,00,00,
25287536,000000D9,false,Rx,0,8,C2,F9,00,10,00,F0,7F,C8,
25287767,000000F3,false,Rx,0,8,04,09,00,FF,F0,C0,FF,FF,
25290459,000000EF,false,Rx,0,8,F7,F9,00,7D,21,00,7D,FF,
25291019,000001A1,false,Rx,0,5,C6,C8,00,00,8A,00,00,00,
25291552,000003C0,false,Rx,0,8,DD,DD,DD,FD,FF,FF,FF,FF,
25292366,000007BD,false,Rx,0,8,00,00,00,C0,FF,C0,01,01,
25292639,000007BE,false,Rx,0,8,05,00,00,00,00,00,00,E0,
25292977,00000100,false,Rx,0,8,64,F3,7F,C0,5D,1B,80,70,
25295987,00000112,false,Rx,0,8,00,20,7F,0E,96,71,15,01,
25296383,00000459,false,Rx,0,8,D7,1A,55,7F,6E,04,10,8C,
25296626,00000363,false,Rx,0,8,3C,D3,EA,07,FF,FF,FF,FF,
25297513,0000021A,false,Rx,0,3,00,1C,F7,00,00,00,00,00,
25297702,00000349,false,Rx,0,5,FE,FF,3E,08,00,00,00,00,
25297828,0000036A,false,Rx,0,2,F5,FF,00,00,00,00,00,00,
25300276,00000254,false,Rx,0,8,FF,7F,FF,7F,FF,7F,FF,7F,
25300403,00000258,false,Rx,0,2,11,11,00,00,00,00,00,00,
25300644,0000015F,false,Rx,0,8,2A,FA,00,7D,00,EE,00,7D,
25300875,00000302,false,Rx,0,7,FF,FF,FF,7F,F8,FF,FF,00,
25302493,0000013A,false,Rx,0,8,B6,F9,00,00,00,0E,FF,FF,
25303075,00000100,false,Rx,0,8,EA,F4,7F,C0,5D,1B,80,70,
25304171,00000197,false,Rx,0,4,85,08,0E,C0,00,00,00,00,
25304547,0000059A,false,Rx,0,8,11,00,00,03,64,64,28,00,
25305268,00000199,false,Rx,0,6,FF,FF,7E,7E,FF,BF,00,00,
25305477,0000019A,false,Rx,0,6,FF,FF,F3,7E,FF,8F,00,00,
25305687,0000019F,false,Rx,0,6,FF,FF,0E,80,FF,2F,00,00,
25306095,00000206,false,Rx,0,8,60,2D,5A,FF,FF,FF,FF,FF,
25306325,00000112,false,Rx,0,8,00,20,7F,0E,96,71,15,01,
25307217,000002C4,false,Rx,0,8,00,00,FF,00,C8,64,FF,CF,
25307458,000000A5,false,Rx,0,8,81,FA,FF,F7,7F,00,00,C1,
25307585,000000AC,false,Rx,0,2,00,F0,00,00,00,00,00,00,
25307826,000000D9,false,Rx,0,8,25,FA,00,10,00,F0,7F,C8,
25308067,000000F3,false,Rx,0,8,E3,0A,00,FF,F0,C0,FF,FF,
25308266,000001E1,false,Rx,0,6,C2,F9,00,FF,FF,FF,00,00,
25308403,000001AE,false,Rx,0,2,FB,FF,00,00,00,00,00,00,
25308832,00000297,false,Rx,0,7,C8,E8,F0,FF,F2,92,EA,00,
25310447,000000EF,false,Rx,0,8,10,FA,00,7D,21,00,7D,FF,
25311000,000001A1,false,Rx,0,5,E1,CA,00,00,8A,00,00,00,
25313011,00000100,false,Rx,0,8,B7,F5,7F,C0,5D,1B,80,70,
25315984,00000112,false,Rx,0,8,00,20,7F,0E,96,71,15,01,
25316460,000002F5,false,Rx,0,8,71,0F,60,29,22,0A,06,10,
25317379,000002A7,false,Rx,0,5,C0,FD,FE,FF,14,00,00,00,
25320277,00000163,false,Rx,0,8,FF,FF,09,A5,FF,FF,FF,FF,
25320515,00000173,false,Rx,0,8,46,F5,00,0E,E0,00,DE,00,
25320746,0000015F,false,Rx,0,8,77,FB,00,7D,00,EE,00,7D,
25320997,00000254,false,Rx,0,8,FF,7F,FF,7F,FF,7F,FF,7F,
25321125,00000258,false,Rx,0,2,11,11,00,00,00,00,00,00,
25322553,0000013A,false,Rx,0,8,0C,FB,00,00,00,0E,FF,FF,
25322890,00000100,false,Rx,0,8,50,F6,7F,C0,5D,1B,80,70,
25324236,000002E8,false,Rx,0,8,C0,50,C4,FF,FF,F0,FC,25,
25324477,000000A9,false,Rx,0,8,70,78,00,90,F1,00,00,FF,
25325250,00000199,false,Rx,0,6,FF,FF,88,7E,FF,BF,00,00,
25325449,0000019A,false,Rx,0,6,FF,FF,F3,7E,FF,8F,00,00,
25325659,0000019F,false,Rx,0,6,FF,FF,02,80,FF,2F,00,00,
25325994,00000112,false,Rx,0,8,00,20,7F,0E,96,71,15,01,
25326235,00000108,false,Rx,0,8,00,7D,FF,FF,07,F1,FF,FF,
25326419,000003FD,false,Rx,0,5,66,0C,00,00,FF,00,00,00,
25326682,00000212,false,Rx,0,8,CC,FD,F9,FF,FF,FF,FF,FF,
25326934,000002DB,false,Rx,0,8,FF,FF,FF,FF,BF,FF,FF,FF,
25327174,000002F1,false,Rx,0,8,B4,0F,00,00,00,00,00,A0,
25327416,000000A5,false,Rx,0,8,DC,FB,FF,F7,7F,00,00,C1,
25327553,000000AC,false,Rx,0,2,00,F0,00,00,00,00,00,00,
25327783,000000D9,false,Rx,0,8,78,FB,00,10,00,F0,7F,C8,
25328024,000000F3,false,Rx,0,8,BE,0B,00,FF,F0,C0,FF,FF,
25328255,0000012F,false,Rx,0,8,DD,2B,86,1C,F1,35,30,00,
25328497,00000289,false,Rx,0,8,61,FB,E0,FF,FD,00,EC,01,
25328676,000002BB,false,Rx,0,5,21,FC,00,00,F2,00,00,00,
25330447,000000EF,false,Rx,0,8,4D,FB,00,7D,21,00,7D,FF,
25330980,000001A1,false,Rx,0,5,88,CC,00,00,8A,00,00,00,
25333001,00000100,false,Rx,0,8,0D,F7,7F,C0,5D,1B,80,70,
25333137,000000C0,false,Rx,0,2,F6,40,00,00,00,00,00,00,
25333388,0000003C,false,Rx,0,8,FF,5F,00,00,00,00,FF,FF,
25334182,00000197,false,Rx,0,4,0A,09,0E,C0,00,00,00,00,
25334401,000002A1,false,Rx,0,5,00,58,02,00,F0,00,00,00,
25335990,00000112,false,Rx,0,8,00,20,7F,0E,96,71,15,01,
25340270,00000254,false,Rx,0,8,FF,7F,FF,7F,FF,7F,FF,7F,
25340404,00000258,false,Rx,0,2,11,11,00,00,00,00,00,00,
25340645,0000015F,false,Rx,0,8,F9,FC,00,7D,00,EE,00,7D,
25340875,00000302,false,Rx,0,7,FF,FF,FF,7F,F8,FF,FF,00,
25342355,000007BD,false,Rx,0,8,11,00,00,00,00,00,00,00,
25342598,0000013A,false,Rx,0,8,DF,FD,00,00,00,0E,FF,FF,
25342839,000007BE,false,Rx,0,8,0C,01,04,6B,00,00,00,00,
25343069,00000100,false,Rx,0,8,51,F8,7F,C0,5D,1B,80,70,
25345251,00000199,false,Rx,0,6,FF,FF,92,7E,FF,BF,00,00,
25345460,0000019A,false,Rx,0,6,FF,FF,F3,7E,FF,8F,00,00,
25345662,0000019F,false,Rx,0,6,FF,FF,05,80,FF,2F,00,00,
25345975,00000112,false,Rx,0,8,00,20,7F,0E,96,71,15,01,
25346215,00000206,false,Rx,0,8,87,2E,5A,FF,FF,FF,FF,FF,
25347097,000000A5,false,Rx,0,8,52,FC,FF,F7,7F,00,00,C1,
25347224,000000AC,false,Rx,0,2,00,F0,00,00,00,00,00,00,
25347464,000000D9,false,Rx,0,8,F6,FC,00,10,00,F0,7F,C8,
