Time Stamp,ID,Extended,Dir,Bus,LEN,D1,D2,D3,D4,D5,D6,D7,D8
1103125348,00000540,false,Rx,0,8,00,00,00,00,1D,58,FF,40,
1103126325,000002FC,false,Rx,0,8,81,00,01,FF,FF,FF,FF,FF,
1103130130,000001D6,false,Rx,0,2,F0,CC,00,00,00,00,00,00,
1103130259,000001EE,false,Rx,0,2,00,FC,00,00,00,00,00,00,
1103130393,000002A6,false,Rx,0,2,00,A4,00,00,00,00,00,00,
1103130529,000002CF,false,Rx,0,2,FA,FF,00,00,00,00,00,00,
1103130684,00000314,false,Rx,0,3,FF,FF,FF,00,00,00,00,00,
1103130871,00000349,false,Rx,0,5,FE,FF,D4,08,00,00,00,00,
1103130995,000003AC,false,Rx,0,2,FE,CF,00,00,00,00,00,00,
1103131150,000003BE,false,Rx,0,3,3C,F0,00,00,00,00,00,00,
1103134082,0000012F,false,Rx,0,8,09,23,86,1C,F1,31,30,00,
1103140111,000001EE,false,Rx,0,2,00,FC,00,00,00,00,00,00,
1103143297,000003A0,false,Rx,0,8,FF,FF,C0,FF,FF,FF,FF,FD,
1103143481,000003A5,false,Rx,0,5,E1,D5,FF,FF,FF,00,00,00,
1103143729,00000510,false,Rx,0,8,40,10,20,00,00,00,00,00,
1103146212,0000003C,false,Rx,0,8,FF,5F,00,00,00,00,FF,FF,
1103159044,0000012F,false,Rx,0,8,87,24,86,1C,F1,31,30,00,
1103180927,0000019D,false,Rx,0,8,5B,AD,01,07,FF,FF,FF,FF,
1103181152,000002C5,false,Rx,0,7,F5,FF,00,30,C4,70,C8,00,
1103181298,000002CA,false,Rx,0,2,6E,6E,00,00,00,00,00,00,
1103181504,000002F7,false,Rx,0,6,02,D8,8A,0B,11,F2,00,00,
1103181753,000002F8,false,Rx,0,8,12,1B,17,03,64,E5,07,F1,
1103182662,0000038E,false,Rx,0,8,00,00,11,11,99,0E,82,F5,
1103185847,00000328,false,Rx,0,6,4B,BE,53,0E,91,1E,00,00,
1103186100,00000330,false,Rx,0,8,2E,CB,01,07,00,FF,5C,0D,
1103186359,00000356,false,Rx,0,8,39,90,03,FF,FF,FF,FF,FF,
1103186568,00000373,false,Rx,0,6,33,D1,05,78,F0,FF,00,00,
1103186766,00000393,false,Rx,0,4,FF,FF,FF,FF,00,00,00,00,
1103195331,000000A9,false,Rx,0,8,00,7D,00,90,F1,00,00,FF,
1103195938,00000336,false,Rx,0,7,00,00,00,FE,FF,FE,FF,00,
1103196207,000007BE,false,Rx,0,8,06,01,20,00,00,01,83,00,
1103202665,000005E3,false,Rx,0,8,01,00,A1,FF,FF,FF,FF,FF,
1103202798,000003BB,false,Rx,0,2,02,FF,00,00,00,00,00,00,
1103205430,000002A1,false,Rx,0,5,80,58,02,00,F8,00,00,00,
1103210404,000001AE,false,Rx,0,2,FB,FF,00,00,00,00,00,00,
1103215207,00000397,false,Rx,0,7,00,2A,00,6D,09,28,01,00,
1103225173,000002B0,false,Rx,0,6,3B,44,00,BF,FF,FF,00,00,
1103226097,000000C0,false,Rx,0,2,F9,40,00,00,00,00,00,00,
1103226355,0000003C,false,Rx,0,8,FF,5F,00,00,00,00,FF,FF,
1103230318,000002FC,false,Rx,0,8,81,01,01,FF,FF,FF,FF,FF,
1103231715,00000197,false,Rx,0,4,64,E0,9E,C0,00,00,00,00,
1103240134,000002A6,false,Rx,0,2,00,A4,00,00,00,00,00,00,
1103240265,000003AC,false,Rx,0,2,FE,CF,00,00,00,00,00,00,
1103240409,00000314,false,Rx,0,3,FF,FF,FF,00,00,00,00,00,
1103240564,000003BE,false,Rx,0,3,47,F0,00,00,00,00,00,00,
1103241184,00000510,false,Rx,0,8,40,10,20,00,00,00,00,00,
1103243144,00000540,false,Rx,0,8,00,00,00,00,1D,58,FF,40,
1103245120,000003D2,false,Rx,0,2,F3,FF,00,00,00,00,00,00,
1103245904,00000364,false,Rx,0,5,00,A0,FC,FF,FF,00,00,00,
1103246173,000003CA,false,Rx,0,8,7B,C0,25,07,07,80,FF,FF,
1103246432,000005E0,false,Rx,0,8,11,03,00,04,06,00,C4,1B,
1103246701,000007BD,false,Rx,0,8,00,00,00,C0,FF,40,01,01,
1103246838,00000337,false,Rx,0,2,FF,FF,00,00,00,00,00,00,
1103247116,000003B4,false,Rx,0,8,00,00,0C,F0,98,FF,00,FF,
1103248780,000002E7,false,Rx,0,8,BC,C0,07,FF,DF,FF,00,00,
1103259049,0000012F,false,Rx,0,8,DA,25,86,1C,F1,31,30,00,
1103261707,00000197,false,Rx,0,4,06,01,0E,C0,00,00,00,00,
1103276315,000001D0,false,Rx,0,8,6C,F0,DF,FF,FF,FF,FF,FF,
1103276561,000002C4,false,Rx,0,8,FF,FF,FF,64,64,64,FF,FF,
1103276790,000000A5,false,Rx,0,8,4A,F0,FF,F7,7F,FF,FF,FF,
1103276925,000000AC,false,Rx,0,2,FF,F7,00,00,00,00,00,00,
1103277164,000000D9,false,Rx,0,8,64,F0,FF,FF,FF,EF,7F,FF,
1103277412,000000F3,false,Rx,0,8,85,F0,FF,FF,F0,FF,FF,FF,
1103277619,00000304,false,Rx,0,6,FF,FF,FF,FF,FF,FF,00,00,
1103277859,000003F9,false,Rx,0,8,8A,F0,FF,F3,30,30,CF,FF,
1103281191,00000340,false,Rx,0,2,FC,FF,00,00,00,00,00,00,
1103281321,00000389,false,Rx,0,2,FF,F0,00,00,00,00,00,00,
1103281579,00000592,false,Rx,0,8,01,00,00,FF,FF,FF,FF,FF,
1103281768,000001B9,false,Rx,0,5,FF,FF,FF,00,FF,00,00,00,
1103281985,000003B3,false,Rx,0,7,0F,00,00,00,00,F0,08,00,
1103282223,000003F9,false,Rx,0,8,35,F1,80,C0,A6,30,C0,FF,
1103286273,00000509,false,Rx,0,8,00,00,00,00,6E,32,00,09,
1103286930,00000272,false,Rx,0,8,5C,F1,FC,02,FF,FF,FF,FF,
1103287139,00000390,false,Rx,0,4,F0,FF,FF,FF,00,00,00,00,
1103289013,000001E1,false,Rx,0,6,54,FE,01,FF,FF,FF,00,00,
1103291709,00000197,false,Rx,0,4,8A,02,0E,C0,00,00,00,00,
1103295514,000000A9,false,Rx,0,8,40,78,00,90,F1,00,00,FF,
1103295792,000003FD,false,Rx,0,5,29,01,00,00,FF,00,00,00,
1103296040,00000108,false,Rx,0,8,00,00,FF,00,00,F0,FF,FF,
1103296300,00000201,false,Rx,0,8,00,00,00,00,FF,FF,FF,FF,
1103296538,000000A5,false,Rx,0,8,B4,F1,FF,F7,7F,00,00,C1,
1103296663,000000AC,false,Rx,0,2,00,F0,00,00,00,00,00,00,
1103296902,000000D9,false,Rx,0,8,10,F1,00,10,00,F0,7F,C8,
1103297141,000000F3,false,Rx,0,8,D6,01,00,FF,F0,C0,FF,FF,
1103297379,00000206,false,Rx,0,8,E8,21,66,FF,FF,FF,FF,FF,
1103297627,00000212,false,Rx,0,8,31,F1,F8,FF,FF,FF,FF,FF,
1103297888,000002DB,false,Rx,0,8,FF,FF,FF,FF,3F,FF,FF,FF,
1103298137,000002F1,false,Rx,0,8,00,00,00,00,00,00,00,00,
1103298396,000002FA,false,Rx,0,8,00,00,00,FF,FF,FF,FF,FF,
1103298645,0000032B,false,Rx,0,8,00,00,00,00,00,00,00,FF,
1103298895,00000331,false,Rx,0,8,FF,FF,FF,0F,00,FE,F7,FF,
1103299030,0000038C,false,Rx,0,2,FC,FF,00,00,00,00,00,00,
1103299288,000003AD,false,Rx,0,8,00,F0,FF,FF,FF,FF,FF,F0,
1103299445,000003E5,false,Rx,0,3,FC,FF,FF,00,00,00,00,00,
1103299602,000003E8,false,Rx,0,2,F0,FF,00,00,00,00,00,00,
1103299840,000003E9,false,Rx,0,8,00,00,00,00,00,00,00,00,
1103300172,000001EE,false,Rx,0,2,00,FC,00,00,00,00,00,00,
1103301161,000003A5,false,Rx,0,5,E1,D5,FF,FF,FF,00,00,00,
1103302317,000000EF,false,Rx,0,8,25,F1,00,7D,21,00,7D,FF,
1103302556,00000254,false,Rx,0,8,FF,7F,FF,7F,FF,7F,FF,7F,
1103302796,00000173,false,Rx,0,8,2F,F1,00,0E,E0,00,DE,00,
1103303034,00000100,false,Rx,0,8,31,F2,7F,C0,5D,00,00,00,
1103303222,000001A1,false,Rx,0,5,09,C6,00,00,88,00,00,00,
1103303459,00000163,false,Rx,0,8,FF,FF,00,85,FF,FF,FF,FF,
1103303595,00000258,false,Rx,0,2,11,11,00,00,00,00,00,00,
1103303820,00000302,false,Rx,0,7,FF,FF,FF,7F,F8,FF,FF,00,
1103304070,00000512,false,Rx,0,8,00,00,00,00,00,00,00,12,
1103304318,00000592,false,Rx,0,8,41,00,00,00,00,00,00,00,
1103305309,00000369,false,Rx,0,5,FF,F0,FF,FF,FF,00,00,00,
1103305495,000002A1,false,Rx,0,5,80,58,02,00,F8,00,00,00,
1103305903,00000112,false,Rx,0,8,FF,FF,FF,FF,FF,7F,F5,FF,
1103307481,00000199,false,Rx,0,6,FF,FF,F3,7E,FF,8F,00,00,
1103307685,0000019A,false,Rx,0,6,FF,FF,F3,7E,FF,8F,00,00,
1103307895,0000019F,false,Rx,0,6,FF,FF,00,80,FF,8F,00,00,
1103308122,00000301,false,Rx,0,7,FF,FF,FF,7F,FF,FF,8F,00,
1103309360,000002BB,false,Rx,0,5,07,F7,00,00,F2,00,00,00,
1103309598,00000289,false,Rx,0,8,54,F0,E0,FF,FD,00,EC,01,
1103310428,000001AE,false,Rx,0,2,FB,FF,00,00,00,00,00,00,
1103310841,0000036F,false,Rx,0,5,7F,F1,38,00,14,00,00,00,
1103311080,0000031C,false,Rx,0,8,FF,FF,FF,FF,FF,FF,FF,FF,
1103311297,0000033B,false,Rx,0,6,00,FF,FF,FF,FF,FF,00,00,
1103311545,000001D0,false,Rx,0,8,31,F1,DF,FF,FF,FF,FF,FF,
1103311738,000001B9,false,Rx,0,5,FF,FF,FF,00,FF,00,00,00,
1103312317,0000015F,false,Rx,0,8,1F,F1,00,7D,00,EE,00,7D,
1103312741,00000100,false,Rx,0,8,6C,F3,7F,C0,5D,00,00,00,
1103314299,0000013A,false,Rx,0,8,EB,F8,00,00,00,0E,FF,FF,
1103315229,000002ED,false,Rx,0,3,C3,01,00,00,00,00,00,00,
1103315867,00000112,false,Rx,0,8,FF,FF,FF,FF,FF,7F,F5,FF,
1103316507,000000A5,false,Rx,0,8,53,F2,FF,F7,7F,00,00,C1,
1103316747,000000D9,false,Rx,0,8,F7,F2,00,10,00,F0,7F,C8,
1103316883,000000AC,false,Rx,0,2,00,F0,00,00,00,00,00,00,
1103317121,000000F3,false,Rx,0,8,31,02,00,FF,F0,C0,FF,FF,
1103318475,00000348,false,Rx,0,8,3C,2C,0A,FE,FE,FC,74,21,
1103321503,000003B3,false,Rx,0,7,1F,00,FF,0F,00,F3,08,00,
1103321711,00000197,false,Rx,0,4,05,03,0E,C0,00,00,00,00,
1103322235,00000254,false,Rx,0,8,FF,7F,FF,7F,FF,7F,FF,7F,
1103322474,000000EF,false,Rx,0,8,C2,F2,00,7D,21,00,7D,FF,
1103322712,00000100,false,Rx,0,8,E2,F4,7F,C0,5D,00,00,00,
1103322839,00000258,false,Rx,0,2,11,11,00,00,00,00,00,00,
1103323024,000001A1,false,Rx,0,5,FC,C8,00,00,88,00,00,00,
1103325388,0000021F,false,Rx,0,8,FF,FF,FF,FF,FF,FF,FF,FF,
1103325587,000002B0,false,Rx,0,6,3B,44,00,BF,FF,FF,00,00,
1103325865,00000112,false,Rx,0,8,FF,FF,FF,FF,FF,7F,F5,FF,
1103326072,000002C5,false,Rx,0,7,90,F0,00,30,04,70,C8,00,
1103326321,0000003C,false,Rx,0,8,FF,5F,00,00,00,00,FF,FF,
1103326570,00000431,false,Rx,0,8,FE,FF,FF,FF,FF,FF,FF,00,
1103327222,00000199,false,Rx,0,6,FF,FF,F3,7E,FF,8F,00,00,
1103327429,0000019A,false,Rx,0,6,FF,FF,F3,7E,FF,8F,00,00,
1103327636,0000019F,false,Rx,0,6,FF,FF,00,80,FF,8F,00,00,
1103329294,000002A7,false,Rx,0,5,10,F0,71,02,14,00,00,00,
1103330322,00000349,false,Rx,0,5,FE,FF,D4,08,00,00,00,00,
1103331425,000003F9,false,Rx,0,8,52,F2,80,C0,A6,3B,C0,FF,
1103332321,0000015F,false,Rx,0,8,F8,F2,00,7D,00,EE,00,7D,
1103332787,00000100,false,Rx,0,8,BF,F5,7F,C0,5D,00,00,00,
1103334291,0000013A,false,Rx,0,8,51,FA,00,00,00,0E,FF,FF,
1103334540,000003E9,false,Rx,0,8,08,52,00,00,00,00,00,00,
1103334791,00000201,false,Rx,0,8,FF,FF,FF,FF,FF,FF,FF,FF,
1103335049,000002FA,false,Rx,0,8,FD,FF,00,FF,FF,FF,FF,FF,
1103335308,0000032B,false,Rx,0,8,FF,FF,FF,FF,FF,FF,00,FF,
1103335568,0000041E,false,Rx,0,8,00,00,CF,FF,FF,FF,FF,FF,
1103335817,0000059A,false,Rx,0,8,65,01,FF,00,00,00,FF,02,
1103336054,00000112,false,Rx,0,8,FF,FF,FF,FF,FF,7F,F5,FF,
1103336304,00000206,false,Rx,0,8,0F,22,66,FF,FF,FF,FF,FF,
1103336542,0000059A,false,Rx,0,8,0C,18,01,32,10,03,FF,FF,
1103336782,000000A5,false,Rx,0,8,0E,F3,FF,F7,7F,00,00,C1,
1103337032,00000432,false,Rx,0,8,FC,FF,FF,FF,FF,FF,00,FF,
1103337167,000000AC,false,Rx,0,2,00,F0,00,00,00,00,00,00,
1103337404,000000D9,false,Rx,0,8,AA,F3,00,10,00,F0,7F,C8,
1103337643,000000F3,false,Rx,0,8,6C,03,00,FF,F0,C0,FF,FF,
1103337873,0000059A,false,Rx,0,8,12,06,00,0A,1E,20,00,FF,
1103338113,0000059A,false,Rx,0,8,65,01,FF,00,00,00,FF,02,
1103340460,000003CB,false,Rx,0,4,DE,AD,C8,AB,00,00,00,00,
1103340916,0000043D,false,Rx,0,8,0A,81,EE,FF,1E,47,01,F0,
1103341185,00000510,false,Rx,0,8,40,10,20,00,00,00,00,00,
1103341619,000003F9,false,Rx,0,8,20,F3,80,F0,A6,3B,C0,FF,
1103342261,00000254,false,Rx,0,8,FF,7F,FF,7F,FF,7F,FF,7F,
1103342490,000000EF,false,Rx,0,8,9F,F3,00,7D,21,00,7D,FF,
1103342615,00000258,false,Rx,0,2,11,11,00,00,00,00,00,00,
1103342854,00000100,false,Rx,0,8,C8,F6,7F,C0,5D,00,80,70,
1103343030,000001A1,false,Rx,0,5,DB,CA,00,00,88,00,00,00,
1103343280,00000540,false,Rx,0,8,00,00,00,00,1D,58,FF,40,
1103343507,00000302,false,Rx,0,7,FF,FF,FF,7F,F8,FF,FF,00,
1103345877,00000112,false,Rx,0,8,FF,FF,FF,FF,FF,7F,F5,FF,
1103346121,000007BD,false,Rx,0,8,00,00,00,C0,FF,40,01,01,
1103346391,000007BE,false,Rx,0,8,05,00,00,00,00,00,00,E0,
1103347218,00000199,false,Rx,0,6,FF,FF,F3,7E,FF,8F,00,00,
1103347425,0000019A,false,Rx,0,6,FF,FF,F3,7E,FF,8F,00,00,
1103347632,0000019F,false,Rx,0,6,FF,FF,00,80,FF,8F,00,00,
1103350319,00000314,false,Rx,0,3,50,00,FF,00,00,00,00,00,
1103351716,00000197,false,Rx,0,4,8F,04,0E,C0,00,00,00,00,
1103351986,00000514,false,Rx,0,8,00,00,00,00,00,00,00,14,
1103352234,00000592,false,Rx,0,8,40,00,00,00,FF,FF,FF,FF,
1103352474,0000015F,false,Rx,0,8,A5,F3,00,7D,00,EE,00,7D,
1103352712,00000100,false,Rx,0,8,9E,F7,7F,FF,FF,00,80,70,
1103353137,00000242,false,Rx,0,5,D1,F3,FF,FF,FF,00,00,00,
1103353375,000002E6,false,Rx,0,8,00,00,00,32,0B,00,1F,20,
1103353520,000002F0,false,Rx,0,3,30,CC,F0,00,00,00,00,00,
1103353820,000002F9,false,Rx,0,7,00,00,00,08,00,C0,F0,00,
1103354296,0000013A,false,Rx,0,8,82,FC,00,00,00,0E,FF,FF,
1103355563,000001FA,false,Rx,0,8,40,49,05,F0,FF,42,FF,FF,
1103355803,000003D8,false,Rx,0,8,A0,FF,FF,FF,FF,FF,FF,FF,
1103356051,00000112,false,Rx,0,8,FF,FF,FF,FF,FF,7F,F5,FF,
1103356971,000000A5,false,Rx,0,8,80,F4,FF,F7,7F,00,00,C1,
1103357106,000000AC,false,Rx,0,2,00,F0,00,00,00,00,00,00,
1103357343,000000D9,false,Rx,0,8,24,F4,00,10,00,F0,7F,C8,
1103357582,000000F3,false,Rx,0,8,E2,04,00,FF,F0,C0,FF,FF,
1103359049,0000012F,false,Rx,0,8,3D,26,86,1C,F1,31,30,00,
1103359246,0000024D,false,Rx,0,2,C0,FF,00,00,00,00,00,00,
1103359433,000002C3,false,Rx,0,5,F9,FF,FF,FF,FF,00,00,00,
1103360576,00000297,false,Rx,0,7,33,E0,F3,F2,F2,92,EA,00,
1103361146,0000043C,false,Rx,0,8,FE,FE,FF,FF,FF,FF,FF,FF,
1103362260,00000254,false,Rx,0,8,FF,7F,FF,7F,FF,7F,FF,7F,
1103362499,000000EF,false,Rx,0,8,11,F4,00,7D,21,00,7D,FF,
1103362624,00000258,false,Rx,0,2,11,11,00,00,00,00,00,00,
1103362873,00000100,false,Rx,0,8,C2,F8,7F,FF,FF,00,80,70,
1103363060,000001A1,false,Rx,0,5,B2,CC,00,00,88,00,00,00,
1103364164,000003E8,false,Rx,0,2,F1,FF,00,00,00,00,00,00,
1103365890,00000112,false,Rx,0,8,FF,FF,FF,FF,FF,7F,F5,FF,
1103366335,00000363,false,Rx,0,8,3C,D3,EA,07,FF,FF,FF,FF,
1103367231,00000199,false,Rx,0,6,FF,FF,F3,7E,FF,8F,00,00,
1103367428,0000019A,false,Rx,0,6,FF,FF,F3,7E,FF,8F,00,00,
1103367635,0000019F,false,Rx,0,6,FF,FF,00,80,FF,8F,00,00,
1103369296,0000036E,false,Rx,0,5,45,F1,06,03,14,00,00,00,
1103372322,0000015F,false,Rx,0,8,2B,F4,00,7D,00,EE,00,7D,
1103372877,00000100,false,Rx,0,8,9C,F9,7F,FF,FF,02,80,70,
1103374197,00000239,false,Rx,0,8,FF,FF,FF,FF,FF,24,FF,FF,
1103374446,0000013A,false,Rx,0,8,38,FE,00,00,00,0E,FF,FF,
1103374675,000002F5,false,Rx,0,8,60,0F,0A,20,20,0A,D4,1E,
1103375895,00000206,false,Rx,0,8,52,23,66,FF,FF,FF,FF,FF,
1103376133,00000112,false,Rx,0,8,FF,FF,FF,FF,71,72,25,FF,
1103376847,00000431,false,Rx,0,8,F6,FF,FF,FF,FF,FF,FF,4B,
1103377086,000000A5,false,Rx,0,8,DD,F5,FF,F7,7F,00,00,C1,
1103377335,000000D9,false,Rx,0,8,79,F5,00,10,00,F0,7F,C8,
1103377460,000000AC,false,Rx,0,2,00,F0,00,00,00,00,00,00,
1103377697,000000F3,false,Rx,0,8,BF,05,00,FF,F0,C0,FF,FF,
1103377937,000002C4,false,Rx,0,8,00,00,FF,00,C8,64,FF,CF,
1103378175,00000592,false,Rx,0,8,26,85,F5,01,15,FF,FF,FF,
1103379041,0000012F,false,Rx,0,8,47,27,86,1C,F1,31,30,03,
1103380853,000002C5,false,Rx,0,7,D6,F1,00,30,04,70,C8,00,
1103381081,0000034A,false,Rx,0,8,BB,A2,9C,FD,C2,E3,E4,27,
1103381721,00000197,false,Rx,0,4,00,05,0E,C0,00,00,00,00,
1103382257,00000254,false,Rx,0,8,FF,7F,FF,7F,FF,7F,FF,7F,
1103382486,000000EF,false,Rx,0,8,4C,F5,00,7D,21,00,7D,FF,
1103382616,00000258,false,Rx,0,2,11,11,00,00,00,00,00,00,
1103382854,00000100,false,Rx,0,8,7B,FA,7F,FF,FF,02,80,70,
1103383041,000001A1,false,Rx,0,5,95,CE,00,00,88,00,00,00,
1103383464,00000302,false,Rx,0,7,FF,FF,FF,7F,F8,FF,FF,00,
1103383702,000003C0,false,Rx,0,8,DD,DD,DD,FD,FF,FF,FF,FF,
1103385842,00000112,false,Rx,0,8,FF,FF,FF,FF,71,72,25,FF,
1103386317,00000432,false,Rx,0,8,6C,F0,FF,C8,9C,FF,00,FF,
1103387244,00000199,false,Rx,0,6,FF,FF,F3,7E,FF,8F,00,00,
1103387451,0000019A,false,Rx,0,6,FF,FF,F3,7E,FF,8F,00,00,
1103387658,0000019F,false,Rx,0,6,FF,FF,00,80,FF,8F,00,00,
1103388619,0000051D,false,Rx,0,8,00,00,00,00,00,00,00,1D,
1103390384,000002FC,false,Rx,0,8,81,01,01,FF,FF,FF,FF,FF,
1103392309,0000015F,false,Rx,0,8,76,F5,00,7D,00,EE,00,7D,
1103392718,00000100,false,Rx,0,8,26,FB,7F,FF,FF,02,80,70,
1103394287,0000013A,false,Rx,0,8,64,F1,00,00,00,0E,FF,FF,
1103394525,000002E8,false,Rx,0,8,C0,ED,C3,FF,FF,F2,F2,C5,
1103395249,000000A9,false,Rx,0,8,40,78,00,90,F1,00,00,FF,
1103395778,000002CA,false,Rx,0,2,6E,6E,00,00,00,00,00,00,
1103396025,00000108,false,Rx,0,8,00,7D,FF,FF,07,F1,FF,FF,
1103396264,00000112,false,Rx,0,8,FF,FF,FF,FF,71,72,25,FF,
1103396502,000002F5,false,Rx,0,8,60,0F,0A,20,20,0A,D4,1E,
1103396689,000003FD,false,Rx,0,5,93,02,00,00,FF,00,00,00,
1103396935,00000212,false,Rx,0,8,D6,F2,F8,FF,FF,FF,FF,FF,
1103397183,000002DB,false,Rx,0,8,FF,FF,FF,FF,BF,FF,FF,FF,
1103397422,000000A5,false,Rx,0,8,3A,F6,FF,F7,7F,00,00,C1,
1103397557,000000AC,false,Rx,0,2,00,F0,00,00,00,00,00,00,
1103397787,000000D9,false,Rx,0,8,9E,F6,00,10,00,F0,7F,C8,
1103398025,000000F3,false,Rx,0,8,58,06,00,FF,F0,C0,FF,FF,
1103398274,000002F1,false,Rx,0,8,A2,0F,00,00,00,00,00,A0,
1103399046,0000012F,false,Rx,0,8,3C,28,86,1C,F1,31,30,00,
1103400100,000002A6,false,Rx,0,2,00,A4,00,00,00,00,00,00,
1103400234,000003AC,false,Rx,0,2,FE,CF,00,00,00,00,00,00,
1103400389,000003BE,false,Rx,0,3,47,F0,00,00,00,00,00,00,
1103401092,0000034C,false,Rx,0,8,8E,00,04,00,5E,13,F0,FF,
1103401970,000003F9,false,Rx,0,8,B1,F4,80,F0,41,3B,C0,FF,
1103402270,00000173,false,Rx,0,8,1A,FA,00,0E,E0,00,DE,00,
1103402519,00000254,false,Rx,0,8,FF,7F,FF,7F,FF,7F,FF,7F,
1103402759,000000EF,false,Rx,0,8,AB,F6,00,7D,21,00,7D,FF,
1103403001,00000100,false,Rx,0,8,A8,FC,7F,FF,FF,02,80,70,
1103403189,000001A1,false,Rx,0,5,FD,C1,00,00,88,00,00,00,
1103403314,00000258,false,Rx,0,2,11,11,00,00,00,00,00,00,
1103403664,00000163,false,Rx,0,8,FF,FF,00,85,FF,FF,FF,FF,
1103404646,00000212,false,Rx,0,8,CD,F3,F9,FF,FF,FF,FF,FF,
1103405238,000002A1,false,Rx,0,5,80,58,02,00,F8,00,00,00,
1103405859,00000112,false,Rx,0,8,FF,FF,FF,FF,71,72,25,FF,
1103406107,000001FA,false,Rx,0,8,45,49,45,F0,FF,42,FF,FF,
1103407284,00000199,false,Rx,0,6,FF,FF,F3,7E,FF,8F,00,00,
1103407491,0000019A,false,Rx,0,6,FF,FF,F3,7E,FF,8F,00,00,
1103407699,0000019F,false,Rx,0,6,FF,FF,00,80,FF,8F,00,00,
1103409349,000002BB,false,Rx,0,5,D4,F2,00,00,F2,00,00,00,
1103409587,00000289,false,Rx,0,8,09,F1,E0,FF,FD,00,EC,01,
1103409764,000002A7,false,Rx,0,5,12,F1,FE,FF,14,00,00,00,
1103410414,000001AE,false,Rx,0,2,FB,FF,00,00,00,00,00,00,
1103411714,00000197,false,Rx,0,4,8C,06,0E,C0,00,00,00,00,
1103412314,0000015F,false,Rx,0,8,91,F6,00,7D,00,EE,00,7D,
1103412799,00000100,false,Rx,0,8,F5,FD,7F,FF,FF,02,80,70,
1103413801,000002E7,false,Rx,0,8,D4,C1,07,FF,5F,FF,00,00,
1103414348,0000013A,false,Rx,0,8,DE,F3,00,00,00,0E,FF,FF,
1103415904,00000206,false,Rx,0,8,DC,24,66,FF,FF,FF,FF,FF,
1103416133,00000112,false,Rx,0,8,FF,FF,FF,FF,71,72,25,FF,
1103416866,000000A5,false,Rx,0,8,67,F7,FF,F7,7F,00,00,C1,
1103417003,000000AC,false,Rx,0,2,00,F0,00,00,00,00,00,00,
1103417240,000000D9,false,Rx,0,8,C3,F7,00,10,00,F0,7F,C8,
1103417478,000000F3,false,Rx,0,8,05,07,00,FF,F0,C0,FF,FF,
1103420994,0000051A,false,Rx,0,8,00,00,00,00,50,00,00,1A,
1103421548,000001B9,false,Rx,0,5,FF,FF,FF,14,FF,00,00,00,
1103422251,00000254,false,Rx,0,8,FF,7F,FF,7F,FF,7F,FF,7F,
1103422489,000000EF,false,Rx,0,8,F6,F7,00,7D,21,00,7D,FF,
1103422614,00000258,false,Rx,0,2,11,11,00,00,00,00,00,00,
1103422852,00000100,false,Rx,0,8,12,FE,7F,FF,FF,02,80,70,
1103423054,000001A1,false,Rx,0,5,DA,C3,00,00,88,00,00,00,
1103423476,00000302,false,Rx,0,7,FF,FF,FF,7F,F8,FF,FF,00,
1103423714,000003C0,false,Rx,0,8,DD,DD,DD,FD,FF,FF,FF,FF,
1103424933,000002F9,false,Rx,0,7,00,00,00,08,00,C0,F3,00,
1103425081,000002F0,false,Rx,0,3,31,CC,F0,00,00,00,00,00,
1103425287,000002B0,false,Rx,0,6,3B,44,00,BF,FF,FF,00,00,
1103425506,000002F9,false,Rx,0,7,00,00,00,08,AA,C0,F3,00,
1103425651,000002F0,false,Rx,0,3,35,DD,F0,00,00,00,00,00,
1103425900,000002E6,false,Rx,0,8,00,64,00,32,0B,00,1F,20,
1103426129,00000112,false,Rx,0,8,FF,FF,FF,FF,71,72,25,FF,
1103426275,000000C0,false,Rx,0,2,FA,40,00,00,00,00,00,00,
1103426522,0000003C,false,Rx,0,8,FF,5F,00,00,00,00,FF,FF,
1103426761,000002F8,false,Rx,0,8,12,1B,18,03,64,E5,07,F1,
1103426970,00000328,false,Rx,0,6,4C,BE,53,0E,91,1E,00,00,
1103427221,00000330,false,Rx,0,8,2E,CB,01,07,00,0F,5C,0D,
1103427418,00000199,false,Rx,0,6,FF,FF,F3,7E,FF,8F,00,00,
1103427626,0000019A,false,Rx,0,6,FF,FF,F3,7E,FF,8F,00,00,
1103427834,0000019F,false,Rx,0,6,FF,FF,00,80,FF,8F,00,00,
1103432315,0000015F,false,Rx,0,8,CC,F7,00,7D,00,EE,00,7D,
1103432757,00000100,false,Rx,0,8,13,F0,7F,FF,FF,02,80,70,
1103432964,00000246,false,Rx,0,5,3F,FB,00,FF,FF,00,00,00,
1103433172,00000299,false,Rx,0,6,FF,FF,FF,FF,FF,00,00,00,
1103433379,0000037B,false,Rx,0,6,40,00,00,FF,FF,00,00,00,
1103433586,000003E4,false,Rx,0,6,00,00,00,00,FF,FF,00,00,
1103433950,0000059D,false,Rx,0,8,08,0F,00,02,00,00,00,00,
1103434116,00000323,false,Rx,0,2,F0,FF,00,00,00,00,00,00,
1103434381,0000013A,false,Rx,0,8,0D,F5,00,00,00,0E,FF,FF,
1103434600,0000059A,false,Rx,0,8,65,03,FF,00,00,00,FF,04,
1103435858,000002C5,false,Rx,0,7,1C,F2,00,30,04,70,C8,00,
1103436087,00000112,false,Rx,0,8,FF,FF,FF,FF,71,72,25,FF,
1103436482,00000432,false,Rx,0,8,6C,F0,10,C8,9C,FF,00,FF,
1103436979,000000A5,false,Rx,0,8,3B,F8,FF,F7,7F,00,00,C1,
1103437105,000000AC,false,Rx,0,2,00,F0,00,00,00,00,00,00,
1103437352,000000D9,false,Rx,0,8,9F,F8,00,10,00,F0,7F,C8,
1103437590,000000F3,false,Rx,0,8,59,08,00,FF,F0,C0,FF,FF,
1103439523,000005D6,false,Rx,0,8,01,B6,03,FF,FF,FF,FF,FF,
1103441716,00000197,false,Rx,0,4,03,07,0E,C0,00,00,00,00,
1103442254,00000254,false,Rx,0,8,FF,7F,FF,7F,FF,7F,FF,7F,
1103442500,000000EF,false,Rx,0,8,AA,F8,00,7D,21,00,7D,FF,
1103442625,00000258,false,Rx,0,2,11,11,00,00,00,00,00,00,
1103442863,00000100,false,Rx,0,8,4E,F1,7F,FF,FF,02,80,70,
1103443051,000001A1,false,Rx,0,5,B3,C5,00,00,88,00,00,00,
1103444867,000005D6,false,Rx,0,8,01,B7,03,FF,FF,FF,FF,FF,
1103445991,00000112,false,Rx,0,8,FF,FF,FF,FF,71,72,25,FF,
1103446230,000007BD,false,Rx,0,8,00,00,00,C0,FF,40,01,01,
1103446510,000007BE,false,Rx,0,8,0C,01,04,16,00,00,00,00,
1103447110,000003B4,false,Rx,0,8,00,00,0C,F0,98,FF,00,FF,
1103447318,00000199,false,Rx,0,6,FF,FF,F3,7E,FF,8F,00,00,
1103447514,0000019A,false,Rx,0,6,FF,FF,F3,7E,FF,8F,00,00,
1103447722,0000019F,false,Rx,0,6,FF,FF,00,80,FF,8F,00,00,
1103449016,000001E1,false,Rx,0,6,42,F0,01,FF,FF,FF,00,00,
1103452312,0000015F,false,Rx,0,8,90,F8,00,7D,00,EE,00,7D,
1103452598,00000100,false,Rx,0,8,C8,F2,7F,C1,5D,02,80,70,
1103454352,0000013A,false,Rx,0,8,B7,F7,00,00,00,0E,FF,FF,
1103455920,00000206,false,Rx,0,8,81,25,66,FF,FF,FF,FF,FF,
1103456160,00000112,false,Rx,0,8,FF,FF,FF,FF,71,72,25,FF,
1103456881,000000A5,false,Rx,0,8,66,F9,FF,F7,7F,00,00,C1,
1103457006,000000AC,false,Rx,0,2,00,F0,00,00,00,00,00,00,
1103457243,000000D9,false,Rx,0,8,C2,F9,00,10,00,F0,7F,C8,
1103457481,000000F3,false,Rx,0,8,04,09,00,FF,F0,C0,FF,FF,
1103459010,000001E1,false,Rx,0,6,28,F1,01,FF,FF,FF,00,00,
1103460166,000001EE,false,Rx,0,2,00,FC,00,00,00,00,00,00,
1103460311,00000314,false,Rx,0,3,40,00,FF,00,00,00,00,00,
1103461145,000003A5,false,Rx,0,5,E1,D5,FF,FF,FF,00,00,00,
1103461425,00000340,false,Rx,0,2,FC,FF,00,00,00,00,00,00,
1103461560,00000389,false,Rx,0,2,FF,F0,00,00,00,00,00,00,
1103462251,00000254,false,Rx,0,8,FF,7F,FF,7F,FF,7F,FF,7F,
1103462489,000000EF,false,Rx,0,8,F7,F9,00,7D,21,00,7D,FF,
1103462617,00000258,false,Rx,0,2,11,11,00,00,00,00,00,00,
1103462855,00000100,false,Rx,0,8,FF,F3,7F,C0,5D,02,80,70,
1103463033,000001A1,false,Rx,0,5,94,C7,00,00,88,00,00,00,
1103463528,00000302,false,Rx,0,7,FF,FF,FF,7F,F8,FF,FF,00,
1103463673,000002D1,false,Rx,0,2,FF,75,00,00,00,00,00,00,
1103465821,00000393,false,Rx,0,4,80,FE,90,FD,00,00,00,00,
1103466060,00000112,false,Rx,0,8,FF,FF,FF,FF,71,72,25,FF,
1103467223,00000199,false,Rx,0,6,FF,FF,F3,7E,FF,8F,00,00,
1103467429,0000019A,false,Rx,0,6,FF,FF,F3,7E,FF,8F,00,00,
1103467638,0000019F,false,Rx,0,6,FF,FF,00,80,FF,8F,00,00,
1103470163,000001EE,false,Rx,0,2,00,FC,00,00,00,00,00,00,
1103470768,0000036F,false,Rx,0,5,D8,F2,38,00,15,00,00,00,
1103471715,00000197,false,Rx,0,4,85,08,0E,C0,00,00,00,00,
1103472305,0000015F,false,Rx,0,8,CD,F9,00,7D,00,EE,00,7D,
1103472770,00000100,false,Rx,0,8,71,F4,7F,C0,5D,02,80,70,
1103474244,00000431,false,Rx,0,8,F6,FF,FF,FF,FF,4E,F4,4B,
1103474483,0000013A,false,Rx,0,8,B6,F9,00,00,00,0E,FF,FF,
1103474722,00000239,false,Rx,0,8,FF,C2,2F,F5,00,24,FF,FF,
1103475920,00000112,false,Rx,0,8,00,20,FF,FF,71,72,25,FF,
1103476981,000002C4,false,Rx,0,8,00,00,FF,00,C8,64,FF,CF,
1103477220,000000A5,false,Rx,0,8,81,FA,FF,F7,7F,00,00,C1,
1103477355,000000AC,false,Rx,0,2,00,F0,00,00,00,00,00,00,
1103477593,000000D9,false,Rx,0,8,25,FA,00,10,00,F0,7F,C8,
1103477834,000000F3,false,Rx,0,8,E3,0A,00,FF,F0,C0,FF,FF,
1103478041,00000304,false,Rx,0,6,FF,FF,E5,30,FF,FF,00,00,
1103479037,0000012F,false,Rx,0,8,61,29,86,1C,F1,31,30,00,
1103482252,00000254,false,Rx,0,8,FF,7F,FF,7F,FF,7F,FF,7F,
1103482490,000000EF,false,Rx,0,8,10,FA,00,7D,21,00,7D,FF,
1103482615,00000258,false,Rx,0,2,11,11,00,00,00,00,00,00,
1103482853,00000100,false,Rx,0,8,2C,F5,7F,C0,5D,02,80,70,
1103483030,000001A1,false,Rx,0,5,61,C9,00,00,88,00,00,00,
1103485893,00000356,false,Rx,0,8,65,90,03,FF,FF,FF,FF,FF,
1103486132,00000112,false,Rx,0,8,00,20,FF,FF,71,72,25,00,
1103486371,000005E0,false,Rx,0,8,11,03,00,05,12,0A,C4,1B,
1103486742,000002F5,false,Rx,0,8,60,0F,0A,20,20,0A,D4,1E,
1103486975,00000432,false,Rx,0,8,1C,EF,10,AA,9C,FF,00,FF,
1103487213,00000272,false,Rx,0,8,BB,F2,FC,02,FF,FF,FF,FF,
1103487421,00000199,false,Rx,0,6,FF,FF,F3,7E,FF,8F,00,00,
1103487619,0000019A,false,Rx,0,6,FF,FF,F3,7E,FF,8F,00,00,
1103487827,0000019F,false,Rx,0,6,FF,FF,00,80,FF,8F,00,00,
1103489336,000002A7,false,Rx,0,5,A8,F2,FE,FF,14,00,00,00,
1103492312,0000015F,false,Rx,0,8,2A,FA,00,7D,00,EE,00,7D,
1103492725,00000100,false,Rx,0,8,CB,F6,7F,C0,5D,02,80,70,
1103494045,000002E8,false,Rx,0,8,C0,F7,D3,FF,FF,F0,F3,3C,
1103494355,0000013A,false,Rx,0,8,0C,FB,00,00,00,0E,FF,FF,
1103494594,0000059A,false,Rx,0,8,0C,18,01,32,10,03,FF,FF,
1103495236,000000A9,false,Rx,0,8,40,78,00,90,F1,00,00,FF,
1103495825,000003FD,false,Rx,0,5,0E,03,00,00,FF,00,00,00,
1103496063,00000108,false,Rx,0,8,00,7D,FF,FF,07,F1,FF,FF,
1103496302,00000112,false,Rx,0,8,00,20,FF,FF,71,72,25,00,
1103496550,00000206,false,Rx,0,8,AC,26,65,FF,FF,FF,FF,FF,
1103496791,000007BE,false,Rx,0,8,00,C0,FA,1C,02,00,00,00,
1103497035,00000212,false,Rx,0,8,43,F4,F9,FF,FF,FF,FF,FF,
1103497273,000000A5,false,Rx,0,8,DC,FB,FF,F7,7F,00,00,C1,
1103497409,000000AC,false,Rx,0,2,00,F0,00,00,00,00,00,00,
1103497647,000000D9,false,Rx,0,8,78,FB,00,10,00,F0,7F,C8,
1103497886,000000F3,false,Rx,0,8,BE,0B,00,FF,F0,C0,FF,FF,
1103498135,000002DB,false,Rx,0,8,FF,FF,FF,FF,BF,FF,FF,FF,
1103498384,000002F1,false,Rx,0,8,A2,0F,00,00,00,00,00,A0,
1103498654,0000032B,false,Rx,0,8,FF,FF,FF,FF,FF,FF,00,FF,
1103498903,00000331,false,Rx,0,8,FF,FF,FF,EF,7F,FE,F7,FF,
1103499153,000003E9,false,Rx,0,8,08,52,00,00,00,00,00,00,
1103501718,00000197,false,Rx,0,4,0A,09,0E,C0,00,00,00,00,
1103502246,00000173,false,Rx,0,8,46,F5,00,0E,E0,00,DE,00,
1103502494,00000254,false,Rx,0,8,FF,7F,FF,7F,FF,7F,FF,7F,
1103502732,000000EF,false,Rx,0,8,4D,FB,00,7D,21,00,7D,FF,
1103502975,00000100,false,Rx,0,8,96,F7,7F,C0,5D,02,80,70,
1103503151,000001A1,false,Rx,0,5,B2,CC,00,00,88,00,00,00,
1103503286,00000258,false,Rx,0,2,11,11,00,00,00,00,00,00,
1103503646,00000163,false,Rx,0,8,FF,FF,00,85,FF,FF,FF,FF,
1103503877,00000302,false,Rx,0,7,FF,FF,FF,7F,F8,FF,FF,00,
1103505189,000002A1,false,Rx,0,5,80,58,02,00,F8,00,00,00,
1103506016,00000112,false,Rx,0,8,00,20,FF,FF,71,72,25,00,
1103507230,00000199,false,Rx,0,6,FF,FF,F3,7E,FF,8F,00,00,
1103507437,0000019A,false,Rx,0,6,FF,FF,F3,7E,FF,8F,00,00,
1103507645,0000019F,false,Rx,0,6,FF,FF,00,80,FF,8F,00,00,
1103507864,00000301,false,Rx,0,7,FF,FF,FF,7F,FF,FF,8F,00,
1103509351,000002BB,false,Rx,0,5,21,FC,00,00,F2,00,00,00,
1103509578,00000289,false,Rx,0,8,EE,F2,E0,FF,FD,00,EC,01,
1103510435,000001AE,false,Rx,0,2,FB,FF,00,00,00,00,00,00,
1103510901,0000031C,false,Rx,0,8,FF,FF,FF,FF,FF,FF,FF,FF,
1103511120,0000033B,false,Rx,0,6,00,FF,FF,FF,FF,FF,00,00,
1103512306,0000015F,false,Rx,0,8,77,FB,00,7D,00,EE,00,7D,
1103512740,00000100,false,Rx,0,8,CA,F8,7F,C0,5D,02,80,70,
1103514288,0000013A,false,Rx,0,8,DF,FD,00,00,00,0E,FF,FF,
1103514980,00000242,false,Rx,0,5,D1,F3,FF,FF,FF,00,00,00,
1103515350,000002E6,false,Rx,0,8,00,64,00,32,0B,00,1F,20,
1103516002,00000112,false,Rx,0,8,00,20,FF,FF,71,72,25,00,
1103516487,00000239,false,Rx,0,8,FF,C2,2F,F5,00,24,FF,FF,
1103516912,000000A5,false,Rx,0,8,52,FC,FF,F7,7F,00,00,C1,
1103517050,000000AC,false,Rx,0,2,00,F0,00,00,00,00,00,00,
1103517287,000000D9,false,Rx,0,8,F6,FC,00,10,00,F0,7F,C8,
1103517527,000000F3,false,Rx,0,8,30,0C,00,FF,F0,C0,FF,FF,
1103519341,000005A9,false,Rx,0,8,01,03,80,FF,FF,FF,FF,FF,
1103519932,00000380,false,Rx,0,7,56,58,36,31,35,34,37,00,
1103520603,00000297,false,Rx,0,7,84,E1,F0,FF,F2,92,EA,00,
1103522254,00000254,false,Rx,0,8,FF,7F,FF,7F,FF,7F,FF,7F,
1103522492,000000EF,false,Rx,0,8,C3,FC,00,7D,21,00,7D,FF,
1103522617,00000258,false,Rx,0,2,11,11,00,00,00,00,00,00,
1103522856,00000100,false,Rx,0,8,97,F9,7F,C0,5D,02,80,70,
1103523033,000001A1,false,Rx,0,5,95,CE,00,00,88,00,00,00,
1103525243,000002B0,false,Rx,0,6,3B,44,00,BF,FF,FF,00,00,
1103525879,0000019D,false,Rx,0,8,5B,AD,01,07,FF,FF,FF,FF,
1103526119,00000112,false,Rx,0,8,00,20,FF,FF,71,72,25,00,
1103526367,0000003C,false,Rx,0,8,FF,5F,00,00,00,00,FF,FF,
1103526585,000002C5,false,Rx,0,7,5A,F3,00,30,04,70,C8,00,
1103526815,00000431,false,Rx,0,8,F6,FF,FF,FF,FF,4E,F4,4B,
1103527228,00000199,false,Rx,0,6,FF,FF,F3,7E,FF,8F,00,00,
1103527430,0000019A,false,Rx,0,6,FF,FF,F3,7E,FF,8F,00,00,
1103527639,0000019F,false,Rx,0,6,FF,FF,00,80,FF,8F,00,00,
1103529289,0000036E,false,Rx,0,5,FF,F2,06,03,14,00,00,00,
1103530237,00000349,false,Rx,0,5,FE,FF,D4,08,00,00,00,00,
1103531717,00000197,false,Rx,0,4,86,0A,0E,C0,00,00,00,00,
1103532317,0000015F,false,Rx,0,8,F9,FC,00,7D,00,EE,00,7D,
1103532555,00000100,false,Rx,0,8,70,FA,7F,C0,5D,02,80,70,
1103534339,0000059A,false,Rx,0,8,65,05,FF,00,00,00,FF,06,
1103534589,0000013A,false,Rx,0,8,39,F0,00,00,00,0E,FF,FF,
1103534828,0000059A,false,Rx,0,8,65,05,FF,00,00,00,FF,06,
1103535923,00000206,false,Rx,0,8,3B,27,66,FF,FF,FF,FF,FF,
1103536161,00000112,false,Rx,0,8,00,20,FF,FF,71,72,25,00,
1103536389,00000432,false,Rx,0,8,1C,EF,10,AA,9C,FF,00,FF,
1103536897,000000A5,false,Rx,0,8,0F,FD,FF,F7,7F,00,00,C1,
1103537032,000000AC,false,Rx,0,2,00,F0,00,00,00,00,00,00,
1103537269,000000D9,false,Rx,0,8,AB,FD,00,10,00,F0,7F,C8,
1103537504,000000F3,false,Rx,0,8,6D,0D,00,FF,F0,C0,FF,FF,
1103539258,000005D6,false,Rx,0,8,01,B8,03,FF,FF,FF,FF,FF,
1103542230,00000254,false,Rx,0,8,FF,7F,FF,7F,FF,7F,FF,7F,
1103542474,000000EF,false,Rx,0,8,9E,FD,00,7D,21,00,7D,FF,
1103542712,00000100,false,Rx,0,8,2D,FB,7F,C0,5D,02,80,70,
1103542840,00000258,false,Rx,0,2,11,11,00,00,00,00,00,00,
1103543026,000001A1,false,Rx,0,5,FD,C1,00,00,88,00,00,00,
1103543489,00000302,false,Rx,0,7,FF,FF,FF,7F,F8,FF,FF,00,
1103544794,000005D6,false,Rx,0,8,01,B9,03,FF,FF,FF,FF,FF,
1103545856,00000201,false,Rx,0,8,FF,FF,FF,FF,FF,FF,FF,FF,
1103546096,00000112,false,Rx,0,8,00,20,FF,FF,71,72,25,00,
1103546345,000007BD,false,Rx,0,8,00,00,00,C0,FF,40,01,01,
1103546613,000007BE,false,Rx,0,8,05,00,00,00,00,00,00,E0,
1103547214,00000199,false,Rx,0,6,FF,FF,F3,7E,FF,8F,00,00,
1103547421,0000019A,false,Rx,0,6,FF,FF,F3,7E,FF,8F,00,00,
1103547629,0000019F,false,Rx,0,6,FF,FF,00,80,FF,8F,00,00,
1103550364,000002FC,false,Rx,0,8,81,01,01,FF,FF,FF,FF,FF,
1103552331,0000015F,false,Rx,0,8,A4,FD,00,7D,00,EE,00,7D,
1103552761,00000100,false,Rx,0,8,A3,FC,7F,C0,5D,02,80,70,
1103554287,0000013A,false,Rx,0,8,83,F2,00,00,00,0E,FF,FF,
1103555761,000002CA,false,Rx,0,2,6E,6E,00,00,00,00,00,00,
1103556010,00000112,false,Rx,0,8,00,20,FF,FF,71,72,25,00,
1103556905,000000A5,false,Rx,0,8,E8,FE,FF,F7,7F,00,00,C1,
1103557041,000000AC,false,Rx,0,2,00,F0,00,00,00,00,00,00,
1103557278,000000D9,false,Rx,0,8,4C,FE,00,10,00,F0,7F,C8,
1103557517,000000F3,false,Rx,0,8,8A,0E,00,FF,F0,C0,FF,FF,
1103560158,000002A6,false,Rx,0,2,00,AC,00,00,00,00,00,00,
1103560282,000003AC,false,Rx,0,2,FE,CF,00,00,00,00,00,00,
1103560437,000003BE,false,Rx,0,3,47,F0,00,00,00,00,00,00,
1103560653,00000297,false,Rx,0,7,4E,E2,F0,FF,F2,92,EA,00,
1103561716,00000197,false,Rx,0,4,09,0B,0E,C0,00,00,00,00,
1103562233,00000254,false,Rx,0,8,FF,7F,FF,7F,FF,7F,FF,7F,
1103562481,000000EF,false,Rx,0,8,79,FE,00,7D,21,00,7D,FF,
1103562709,00000100,false,Rx,0,8,FE,FD,7F,C0,5D,02,80,70,
1103562837,00000258,false,Rx,0,2,11,11,00,00,00,00,00,00,
1103563012,000001A1,false,Rx,0,5,DA,C3,00,00,88,00,00,00,
1103566004,00000112,false,Rx,0,8,00,20,FF,FF,71,72,25,00,
1103567217,00000199,false,Rx,0,6,FF,FF,F3,7E,FF,8F,00,00,
1103567425,0000019A,false,Rx,0,6,FF,FF,F3,7E,FF,8F,00,00,
1103567632,0000019F,false,Rx,0,6,FF,FF,00,80,FF,8F,00,00,
1103569292,000002A7,false,Rx,0,5,35,F3,FE,FF,14,00,00,00,
1103572308,0000015F,false,Rx,0,8,43,FE,00,7D,00,EE,00,7D,
1103572769,00000100,false,Rx,0,8,19,FE,7F,C0,5D,02,80,70,
1103574349,0000013A,false,Rx,0,8,50,F4,00,00,00,0E,FF,FF,
1103575876,00000206,false,Rx,0,8,67,28,66,FF,FF,FF,FF,FF,
1103576114,00000112,false,Rx,0,8,00,20,FF,FF,71,72,25,00,
1103576836,000002C4,false,Rx,0,8,00,00,FF,00,C8,64,FF,CF,
1103577084,000000A5,false,Rx,0,8,E9,F0,FF,F7,7F,00,00,C1,
1103577209,000000AC,false,Rx,0,2,00,F0,00,00,00,00,00,00,
1103577458,000000D9,false,Rx,0,8,4D,F0,00,10,00,F0,7F,C8,
1103577696,000000F3,false,Rx,0,8,8B,00,00,FF,F0,C0,FF,FF,
1103579042,0000012F,false,Rx,0,8,86,2A,86,1C,F1,31,30,00,
1103580528,000002F0,false,Rx,0,3,35,DD,F0,00,00,00,00,00,
1103582268,00000254,false,Rx,0,8,FF,7F,FF,7F,FF,7F,FF,7F,
1103582506,000000EF,false,Rx,0,8,78,F0,00,7D,21,00,7D,FF,
1103582639,00000258,false,Rx,0,2,11,11,00,00,00,00,00,00,
1103582879,00000100,false,Rx,0,8,18,F0,7F,C0,5D,02,80,70,
1103583055,000001A1,false,Rx,0,5,B3,C5,00,00,88,00,00,00,
1103583499,00000302,false,Rx,0,7,FF,FF,FF,7F,F8,FF,FF,00,
1103586027,00000112,false,Rx,0,8,00,20,FF,FF,71,72,25,00,
1103586747,000002F5,false,Rx,0,8,60,0F,0A,20,20,0A,D4,1E,
1103587211,00000199,false,Rx,0,6,FF,FF,F3,7E,FF,8F,00,00,
1103587419,0000019A,false,Rx,0,6,FF,FF,F3,7E,FF,8F,00,00,
1103587626,0000019F,false,Rx,0,6,FF,FF,00,80,FF,8F,00,00,
1103591715,00000197,false,Rx,0,4,83,0C,0E,C0,00,00,00,00,
1103592310,0000015F,false,Rx,0,8,42,F0,00,7D,00,EE,00,7D,
1103592703,00000100,false,Rx,0,8,45,F1,7F,C0,5D,02,80,70,
1103594054,000002E8,false,Rx,0,8,C0,01,C4,FF,FF,F0,F4,CF,
1103594293,0000013A,false,Rx,0,8,EA,F6,00,00,00,0E,FF,FF,
1103594490,00000202,false,Rx,0,2,FE,FF,00,00,00,00,00,00,
1103595244,00000350,false,Rx,0,6,F3,FF,FF,FF,FF,FF,00,00,
1103595481,000000A9,false,Rx,0,8,40,78,00,90,F1,00,00,FF,
1103595807,000003FD,false,Rx,0,5,FA,04,00,00,FF,00,00,00,
1103596045,00000108,false,Rx,0,8,00,7D,FF,FF,07,F1,FF,FF,
1103596284,00000112,false,Rx,0,8,00,20,FF,FF,71,72,25,00,
1103596532,00000212,false,Rx,0,8,1E,F5,F9,FF,FF,FF,FF,FF,
1103596783,000007BD,false,Rx,0,8,10,00,00,00,00,00,00,00,
1103597021,000002DB,false,Rx,0,8,FF,FF,FF,FF,BF,FF,FF,FF,
1103597259,000000A5,false,Rx,0,8,B4,F1,FF,F7,7F,00,00,C1,
1103597396,000000AC,false,Rx,0,2,00,F0,00,00,00,00,00,00,
1103597633,000000D9,false,Rx,0,8,10,F1,00,10,00,F0,7F,C8,
1103597874,000000F3,false,Rx,0,8,D6,01,00,FF,F0,C0,FF,FF,
1103598112,000002F1,false,Rx,0,8,A2,0F,00,00,00,00,00,A0,
1103598362,000007BE,false,Rx,0,8,0B,00,00,00,00,00,00,00,
1103598497,00000323,false,Rx,0,2,F0,FF,00,00,00,00,00,00,
1103602274,00000173,false,Rx,0,8,72,F0,00,0E,E0,00,DE,00,
1103602518,00000254,false,Rx,0,8,FF,7F,FF,7F,FF,7F,FF,7F,
1103602759,000000EF,false,Rx,0,8,25,F1,00,7D,21,00,7D,FF,
1103602987,00000100,false,Rx,0,8,28,F2,7F,C0,5D,05,80,70,
1103603173,000001A1,false,Rx,0,5,94,C7,00,00,88,00,00,00,
1103603298,00000258,false,Rx,0,2,11,11,00,00,00,00,00,00,
1103603588,00000163,false,Rx,0,8,FF,FF,00,85,FF,FF,FF,FF,
1103605215,000002A1,false,Rx,0,5,80,58,02,00,F8,00,00,00,
1103606010,00000112,false,Rx,0,8,00,20,FF,FF,71,72,25,00,
1103607245,00000199,false,Rx,0,6,FF,FF,F3,7E,FF,8F,00,00,
1103607453,0000019A,false,Rx,0,6,FF,FF,F3,7E,FF,8F,00,00,
1103607660,0000019F,false,Rx,0,6,FF,FF,00,80,FF,8F,00,00,
1103609352,000002BB,false,Rx,0,5,07,F7,00,00,F2,00,00,00,
1103609589,00000289,false,Rx,0,8,B3,F3,E0,FF,FD,00,EC,01,
1103610272,00000314,false,Rx,0,3,40,00,FF,00,00,00,00,00,
1103610427,000001AE,false,Rx,0,2,FB,FF,00,00,00,00,00,00,
1103612334,0000015F,false,Rx,0,8,1F,F1,00,7D,00,EE,00,7D,
1103612747,00000100,false,Rx,0,8,75,F3,7F,C0,5D,05,80,70,
1103614284,0000013A,false,Rx,0,8,EB,F8,00,00,00,0E,FF,FF,
1103615912,00000206,false,Rx,0,8,F0,29,65,FF,FF,FF,FF,FF,
1103616150,00000112,false,Rx,0,8,00,20,FF,FF,71,72,25,00,
1103616872,000000A5,false,Rx,0,8,53,F2,FF,F7,7F,00,00,C1,
1103617007,000000AC,false,Rx,0,2,00,F0,00,00,00,00,00,00,
1103617244,000000D9,false,Rx,0,8,F7,F2,00,10,00,F0,7F,C8,
1103617484,000000F3,false,Rx,0,8,31,02,00,FF,F0,C0,FF,FF,
1103621718,00000197,false,Rx,0,4,0C,0D,0E,C0,00,00,00,00,
1103622251,00000254,false,Rx,0,8,FF,7F,FF,7F,FF,7F,FF,7F,
1103622479,000000EF,false,Rx,0,8,C2,F2,00,7D,21,00,7D,FF,
1103622719,00000100,false,Rx,0,8,FB,F4,7F,C0,5D,05,80,70,
1103622855,00000258,false,Rx,0,2,11,11,00,00,00,00,00,00,
1103623031,000001A1,false,Rx,0,5,61,C9,00,00,88,00,00,00,
1103623506,00000302,false,Rx,0,7,FF,FF,FF,7F,F8,FF,FF,00,
1103625246,000002B0,false,Rx,0,6,3B,44,00,C8,FF,FF,00,00,
1103625852,000002C5,false,Rx,0,7,95,F4,00,30,04,70,C8,00,
1103626090,00000112,false,Rx,0,8,00,20,FF,FF,71,72,25,00,
1103626225,000000C0,false,Rx,0,2,FB,40,00,00,00,00,00,00,
1103626472,0000003C,false,Rx,0,8,FF,5F,00,00,00,00,FF,FF,
1103627124,00000200,false,Rx,0,8,00,00,70,00,00,00,FA,FF,
1103627322,00000199,false,Rx,0,6,FF,FF,F3,7E,FF,8F,00,00,
1103627529,0000019A,false,Rx,0,6,FF,FF,F3,7E,FF,8F,00,00,
1103627736,0000019F,false,Rx,0,6,FF,FF,00,80,FF,8F,00,00,
1103630752,0000036F,false,Rx,0,5,45,F3,38,00,15,00,00,00,
1103632304,0000015F,false,Rx,0,8,F8,F2,00,7D,00,EE,00,7D,
1103632760,00000100,false,Rx,0,8,A6,F5,7F,C0,5D,05,80,70,
1103633841,0000059D,false,Rx,0,8,8D,01,01,FC,00,00,03,00,
1103634286,0000013A,false,Rx,0,8,51,FA,00,00,00,0E,FF,FF,
1103634524,0000059A,false,Rx,0,8,65,07,FF,00,00,00,FF,08,
1103634763,0000059A,false,Rx,0,8,65,07,FF,00,00,00,FF,08,
1103636014,00000112,false,Rx,0,8,00,20,FF,FF,71,72,25,00,
1103636878,000000A5,false,Rx,0,8,0E,F3,FF,F7,7F,00,00,C1,
1103637013,000000AC,false,Rx,0,2,00,F0,00,00,00,00,00,00,
1103637250,000000D9,false,Rx,0,8,AA,F3,00,10,00,F0,7F,C8,
1103637490,000000F3,false,Rx,0,8,6C,03,00,FF,F0,C0,FF,FF,
1103639491,000005D6,false,Rx,0,8,01,F0,02,FF,FF,FF,FF,FF,
1103639917,000002F0,false,Rx,0,3,35,DD,F0,00,00,00,00,00,
1103640196,000002CF,false,Rx,0,2,FA,FF,00,00,00,00,00,00,
1103642226,00000254,false,Rx,0,8,FF,7F,FF,7F,FF,7F,FF,7F,
1103642465,000000EF,false,Rx,0,8,9F,F3,00,7D,21,00,7D,FF,
1103642590,00000258,false,Rx,0,2,11,11,00,00,00,00,00,00,
1103642829,00000100,false,Rx,0,8,41,F6,7F,C0,5D,05,80,70,
1103643007,000001A1,false,Rx,0,5,46,CB,00,00,88,00,00,00,
1103645860,00000560,false,Rx,0,8,00,00,00,00,00,00,00,60,
1103646099,00000112,false,Rx,0,8,00,20,FF,FF,71,72,25,00,
1103646347,000007BD,false,Rx,0,8,00,00,00,C0,FF,40,01,01,
1103646607,000007BE,false,Rx,0,8,07,3C,04,73,06,67,00,00,
1103647208,00000199,false,Rx,0,6,FF,FF,F3,7E,FF,8F,00,00,
1103647416,0000019A,false,Rx,0,6,FF,FF,F3,7E,FF,8F,00,00,
1103647623,0000019F,false,Rx,0,6,FF,FF,00,80,FF,8F,00,00,
1103647862,000003B4,false,Rx,0,8,00,00,0C,F0,98,FF,00,FF,
1103649277,000002A7,false,Rx,0,5,C1,F4,FE,FF,14,00,00,00,
1103651715,00000197,false,Rx,0,4,80,0E,0E,C0,00,00,00,00,
1103652305,0000015F,false,Rx,0,8,A5,F3,00,7D,00,EE,00,7D,
1103652543,00000100,false,Rx,0,8,1C,F7,7F,C0,5D,05,80,70,
1103654297,0000013A,false,Rx,0,8,82,FC,00,00,00,0E,FF,FF,
1103654535,0000059A,false,Rx,0,8,0C,18,01,32,10,03,FF,FF,
1103655896,00000206,false,Rx,0,8,DD,2A,66,FF,FF,FF,FF,FF,
1103656135,00000112,false,Rx,0,8,00,20,FF,FF,71,72,25,00,
1103656859,000000A5,false,Rx,0,8,80,F4,FF,F7,7F,00,00,C1,
1103656994,000000AC,false,Rx,0,2,00,F0,00,00,00,00,00,00,
1103657231,000000D9,false,Rx,0,8,24,F4,00,10,00,F0,7F,C8,
1103657471,000000F3,false,Rx,0,8,E2,04,00,FF,F0,C0,FF,FF,
1103659008,000001E1,false,Rx,0,6,96,F2,01,FF,FF,FF,00,00,
1103662230,00000254,false,Rx,0,8,FF,7F,FF,7F,FF,7F,FF,7F,
1103662468,000000EF,false,Rx,0,8,11,F4,00,7D,21,00,7D,FF,
1103662593,00000258,false,Rx,0,2,11,11,00,00,00,00,00,00,
1103662844,00000100,false,Rx,0,8,40,F8,7F,C0,5D,05,80,70,
1103663022,000001A1,false,Rx,0,5,15,CD,00,00,8A,00,00,00,
1103663466,00000302,false,Rx,0,7,FF,FF,FF,7F,F8,FF,FF,00,
1103665371,000002C3,false,Rx,0,5,0A,15,0F,00,FF,00,00,00,
1103666002,00000112,false,Rx,0,8,00,20,FF,FF,71,72,25,00,
1103667206,00000199,false,Rx,0,6,FF,FF,F3,7E,FF,8F,00,00,
1103667414,0000019A,false,Rx,0,6,FF,FF,F3,7E,FF,8F,00,00,
1103667621,0000019F,false,Rx,0,6,FF,FF,00,80,FF,8F,00,00,
1103669384,000001B6,false,Rx,0,7,00,C0,00,FF,FF,FF,FF,00,
1103670159,000002A6,false,Rx,0,2,00,B4,00,00,00,00,00,00,
1103670943,00000242,false,Rx,0,5,D1,F3,FF,FF,FF,00,00,00,
1103671181,000002E6,false,Rx,0,8,00,64,00,32,0B,00,1F,20,
1103672305,0000015F,false,Rx,0,8,2B,F4,00,7D,00,EE,00,7D,
1103672761,00000100,false,Rx,0,8,1D,F9,7F,C0,5D,05,80,70,
1103674308,0000013A,false,Rx,0,8,38,FE,00,00,00,0E,FF,FF,
1103676048,00000112,false,Rx,0,8,00,20,FF,FF,71,72,25,00,
1103676286,00000239,false,Rx,0,8,FF,C2,2F,F5,00,24,FF,FF,
1103676927,000002C4,false,Rx,0,8,00,00,FF,00,C8,64,FF,CF,
1103677165,000000A5,false,Rx,0,8,DD,F5,FF,F7,7F,00,00,C1,
1103677292,000000AC,false,Rx,0,2,00,F0,00,00,00,00,00,00,
1103677539,000000D9,false,Rx,0,8,79,F5,00,10,00,F0,7F,C8,
1103677779,000000F3,false,Rx,0,8,BF,05,00,FF,F0,C0,FF,FF,
1103677986,00000304,false,Rx,0,6,FF,FF,C4,30,FF,FF,00,00,
1103679039,0000012F,false,Rx,0,8,DB,2B,86,1C,F1,31,30,00,
1103680509,00000297,false,Rx,0,7,08,E3,F0,FF,F2,92,EA,00,
1103681711,00000197,false,Rx,0,4,89,00,0E,C0,00,00,00,00,
1103682228,00000254,false,Rx,0,8,FF,7F,FF,7F,FF,7F,FF,7F,
1103682456,000000EF,false,Rx,0,8,4C,F5,00,7D,21,00,7D,FF,
1103682592,00000258,false,Rx,0,2,11,11,00,00,00,00,00,00,
1103682831,00000100,false,Rx,0,8,FA,FA,7F,C0,5D,05,80,70,
1103683008,000001A1,false,Rx,0,5,5A,C0,00,00,8A,00,00,00,
1103685894,000005E0,false,Rx,0,8,11,03,00,06,00,00,C4,00,
1103686139,00000112,false,Rx,0,8,00,20,FF,FF,71,72,25,00,
1103686738,000002F5,false,Rx,0,8,60,0F,0A,20,20,0A,D4,1E,
1103686977,00000592,false,Rx,0,8,0C,15,01,32,14,01,FF,FF,
1103687227,00000199,false,Rx,0,6,FF,FF,E8,7D,FF,AF,00,00,
1103687434,0000019A,false,Rx,0,6,FF,FF,F3,7E,FF,8F,00,00,
1103687641,0000019F,false,Rx,0,6,FF,FF,00,80,FF,8F,00,00,
1103687880,00000272,false,Rx,0,8,E6,F3,FC,02,FF,FF,FF,FF,
1103689270,0000036E,false,Rx,0,5,62,F3,06,03,14,00,00,00,
1103692299,0000015F,false,Rx,0,8,76,F5,00,7D,00,EE,00,7D,
1103692751,00000100,false,Rx,0,8,A7,FB,7F,C0,5D,05,80,70,
1103694101,000002E8,false,Rx,0,8,C0,0B,C4,FF,FF,F0,F5,54,
1103694390,0000013A,false,Rx,0,8,64,F1,00,00,00,0E,FF,FF,
1103695289,000000A9,false,Rx,0,8,40,78,00,90,F1,00,00,FF,
1103695818,0000055E,false,Rx,0,8,00,00,00,00,00,00,00,5E,
1103696066,00000108,false,Rx,0,8,00,7D,FF,FF,07,F1,FF,FF,
1103696304,00000112,false,Rx,0,8,00,20,FF,FF,71,72,25,00,
1103696487,000003FD,false,Rx,0,5,67,05,00,00,FF,00,00,00,
1103696745,000007BD,false,Rx,0,8,11,00,00,00,00,00,00,00,
1103696984,00000206,false,Rx,0,8,4A,2B,65,FF,FF,FF,FF,FF,
1103697234,00000212,false,Rx,0,8,F9,F6,F9,FF,FF,FF,FF,FF,
1103697472,000000A5,false,Rx,0,8,3A,F6,FF,F7,7F,00,00,C1,
1103697607,000000AC,false,Rx,0,2,00,F0,00,00,00,00,00,00,
1103697846,000000D9,false,Rx,0,8,9E,F6,00,10,00,F0,7F,C8,
1103698085,000000F3,false,Rx,0,8,58,06,00,FF,F0,C0,FF,FF,
1103698333,000002DB,false,Rx,0,8,FF,FF,FF,FF,BF,FF,FF,FF,
1103698584,000002F1,false,Rx,0,8,A2,0F,00,00,00,00,00,A0,
1103698834,0000032B,false,Rx,0,8,FF,FF,FF,FF,FF,FF,00,FF,
1103699083,00000331,false,Rx,0,8,FF,FF,FF,EF,7F,FE,F7,FF,
1103699331,000003E9,false,Rx,0,8,08,52,00,00,00,00,00,00,
1103702252,00000173,false,Rx,0,8,1A,FA,00,0E,E0,00,DE,00,
1103702496,00000254,false,Rx,0,8,FF,7F,FF,7F,FF,7F,FF,7F,
1103702736,000000EF,false,Rx,0,8,AB,F6,00,7D,21,00,7D,FF,
1103702975,00000100,false,Rx,0,8,29,FC,7F,C0,5D,05,80,70,
1103703152,000001A1,false,Rx,0,5,7D,C2,00,00,8A,00,00,00,
1103703287,00000258,false,Rx,0,2,11,11,00,00,00,00,00,00,
1103703679,00000163,false,Rx,0,8,FF,FF,00,A5,FF,FF,FF,FF,
1103703908,00000302,false,Rx,0,7,FF,FF,FF,7F,F8,FF,FF,00,
1103704137,0000012F,false,Rx,0,8,72,2C,86,1C,F1,31,30,03,
1103705230,000002A1,false,Rx,0,5,80,58,02,00,F8,00,00,00,
1103706015,00000112,false,Rx,0,8,00,20,FF,FF,71,72,25,00,
1103707230,00000199,false,Rx,0,6,FF,FF,E8,7D,FF,AF,00,00,
1103707437,0000019A,false,Rx,0,6,FF,FF,F3,7E,FF,8F,00,00,
1103707644,0000019F,false,Rx,0,6,FF,FF,07,80,FF,AF,00,00,
1103707873,00000301,false,Rx,0,7,FF,FF,FF,7F,FF,FF,8F,00,
1103709421,000002BB,false,Rx,0,5,D4,F2,00,00,F2,00,00,00,
1103709660,00000289,false,Rx,0,8,3D,F4,E0,FF,FD,00,EC,01,
1103709900,00000348,false,Rx,0,8,3C,2C,0A,FE,FE,31,B5,21,
1103710417,000001AE,false,Rx,0,2,FB,FF,00,00,00,00,00,00,
1103710883,0000031C,false,Rx,0,8,FF,FF,FF,FF,FF,FF,FF,FF,
1103711091,0000033B,false,Rx,0,6,00,FF,FF,FF,FF,FF,00,00,
1103711719,00000197,false,Rx,0,4,06,01,0E,C0,00,00,00,00,
1103712309,0000015F,false,Rx,0,8,91,F6,00,7D,00,EE,00,7D,
1103712767,00000100,false,Rx,0,8,74,FD,7F,C0,5D,05,80,70,
1103714282,0000013A,false,Rx,0,8,DE,F3,00,00,00,0E,FF,FF,
1103715849,000002C5,false,Rx,0,7,F6,F5,00,20,04,70,C8,00,
1103716087,00000112,false,Rx,0,8,00,20,FF,FF,71,72,25,00,
1103716212,000002CA,false,Rx,0,2,6E,6E,00,00,00,00,00,00,
1103716913,000000A5,false,Rx,0,8,67,F7,FF,F7,7F,00,00,C1,
1103717049,000000AC,false,Rx,0,2,00,F0,00,00,00,00,00,00,
1103717287,000000D9,false,Rx,0,8,C3,F7,00,10,00,F0,7F,C8,
1103717536,000000F3,false,Rx,0,8,05,07,00,FF,F0,C0,FF,FF,
1103722228,00000254,false,Rx,0,8,FF,7F,FF,7F,FF,7F,FF,7F,
1103722451,000000EF,false,Rx,0,8,F6,F7,00,7D,21,00,7D,FF,
1103722588,00000258,false,Rx,0,2,11,11,00,00,00,00,00,00,
1103722816,00000100,false,Rx,0,8,93,FE,7F,C0,5D,05,80,70,
1103723003,000001A1,false,Rx,0,5,14,C4,00,00,8A,00,00,00,
1103725262,000002B0,false,Rx,0,6,3B,44,00,C7,FF,FF,00,00,
1103726016,00000112,false,Rx,0,8,00,20,FF,FF,71,72,25,00,
1103726264,0000003C,false,Rx,0,8,FF,5F,00,00,00,00,FF,FF,
1103726503,00000431,false,Rx,0,8,F6,FF,FF,FF,FF,4E,F4,4B,
1103727206,00000199,false,Rx,0,6,FF,FF,CA,7D,FF,BF,00,00,
1103727413,0000019A,false,Rx,0,6,FF,FF,F3,7E,FF,8F,00,00,
1103727620,0000019F,false,Rx,0,6,FF,FF,F3,7F,FF,AF,00,00,
1103729046,0000012F,false,Rx,0,8,08,2D,86,1C,F1,31,30,00,
1103729284,000002A7,false,Rx,0,5,5C,F5,FE,FF,14,00,00,00,
1103730265,00000349,false,Rx,0,5,FE,FF,D4,08,00,00,00,00,
1103731142,0000043D,false,Rx,0,8,0A,81,EE,FF,1E,47,01,F0,
1103732297,0000015F,false,Rx,0,8,CC,F7,00,7D,00,EE,00,7D,
1103732803,00000100,false,Rx,0,8,92,F0,7F,C0,5D,05,80,70,
1103734329,0000059A,false,Rx,0,8,65,09,FF,00,00,00,FF,0A,
1103734575,0000013A,false,Rx,0,8,0D,F5,00,00,00,0E,FF,FF,
1103734815,0000059A,false,Rx,0,8,65,09,FF,00,00,00,FF,0A,
1103735899,00000206,false,Rx,0,8,C4,2C,65,FF,FF,FF,FF,FF,
1103736137,00000112,false,Rx,0,8,00,20,FF,FF,71,72,25,00,
1103736483,00000432,false,Rx,0,8,1C,EF,10,AA,9C,FF,00,FF,
1103736927,000000A5,false,Rx,0,8,3B,F8,FF,F7,7F,00,00,C1,
1103737063,000000AC,false,Rx,0,2,00,F0,00,00,00,00,00,00,
1103737301,000000D9,false,Rx,0,8,9F,F8,00,10,00,F0,7F,C8,
1103737539,000000F3,false,Rx,0,8,59,08,00,FF,F0,C0,FF,FF,
1103741621,000003F9,false,Rx,0,8,D6,F5,80,E0,41,3B,C3,FF,
1103741787,00000197,false,Rx,0,4,8A,02,0E,C0,00,00,00,00,
1103742220,00000254,false,Rx,0,8,FF,7F,FF,7F,FF,7F,FF,7F,
1103742458,000000EF,false,Rx,0,8,AA,F8,00,7D,21,00,7D,FF,
1103742697,00000100,false,Rx,0,8,CF,F1,7F,C0,5D,05,80,70,
1103742824,00000258,false,Rx,0,2,11,11,00,00,00,00,00,00,
1103743009,000001A1,false,Rx,0,5,33,C6,00,00,8A,00,00,00,
1103743474,00000302,false,Rx,0,7,FF,FF,FF,7F,F8,FF,FF,00,
1103745990,000007BD,false,Rx,0,8,00,00,00,C0,FF,C0,01,01,
1103746224,00000112,false,Rx,0,8,00,20,FF,FF,71,72,25,00,
1103746474,000007BE,false,Rx,0,8,05,00,00,00,00,00,00,E0,
1103747207,00000199,false,Rx,0,6,FF,FF,D4,7D,FF,BF,00,00,
1103747414,0000019A,false,Rx,0,6,FF,FF,F3,7E,FF,8F,00,00,
1103747611,0000019F,false,Rx,0,6,FF,FF,0A,80,FF,AF,00,00,
1103751128,0000043C,false,Rx,0,8,FE,FE,FF,FF,FF,FF,FF,FF,
1103752299,0000015F,false,Rx,0,8,90,F8,00,7D,00,EE,00,7D,
1103752797,00000100,false,Rx,0,8,2B,F2,7F,C0,5D,07,80,70,
1103754280,0000013A,false,Rx,0,8,B7,F7,00,00,00,0E,FF,FF,
1103756009,00000112,false,Rx,0,8,00,20,FF,FF,71,72,25,00,
1103756877,000000A5,false,Rx,0,8,66,F9,FF,F7,7F,00,00,C1,
1103757002,000000AC,false,Rx,0,2,00,F0,00,00,00,00,00,00,
1103757240,000000D9,false,Rx,0,8,C2,F9,00,10,00,F0,7F,C8,
1103757488,000000F3,false,Rx,0,8,04,09,00,FF,F0,C0,FF,FF,
1103760538,00000297,false,Rx,0,7,C7,E4,F0,FF,F2,92,EA,00,
1103762215,00000254,false,Rx,0,8,FF,7F,FF,7F,FF,7F,FF,7F,
1103762453,000000EF,false,Rx,0,8,F7,F9,00,7D,21,00,7D,FF,
1103762580,00000258,false,Rx,0,2,11,11,00,00,00,00,00,00,
1103762818,00000100,false,Rx,0,8,76,F3,7F,C0,5D,07,80,70,
1103763005,000001A1,false,Rx,0,5,C6,C8,00,00,8A,00,00,00,
1103763555,00000314,false,Rx,0,3,30,00,FF,00,00,00,00,00,
1103764093,0000012F,false,Rx,0,8,E9,2E,86,1C,F1,35,30,00,
1103765998,00000112,false,Rx,0,8,00,20,FF,FF,71,72,25,00,
1103767206,00000199,false,Rx,0,6,FF,FF,FC,7D,FF,BF,00,00,
1103767411,0000019A,false,Rx,0,6,FF,FF,F3,7E,FF,8F,00,00,
1103767618,0000019F,false,Rx,0,6,FF,FF,FE,7F,FF,AF,00,00,
1103770843,000002C5,false,Rx,0,7,3C,F6,00,20,04,70,C8,00,
1103771706,00000459,false,Rx,0,8,8F,85,47,7F,76,B9,09,8C,
1103771873,00000197,false,Rx,0,4,05,03,0E,C0,00,00,00,00,
1103772295,0000015F,false,Rx,0,8,CD,F9,00,7D,00,EE,00,7D,
1103772783,00000100,false,Rx,0,8,F8,F4,7F,C0,5D,07,80,70,
1103774341,0000013A,false,Rx,0,8,B6,F9,00,00,00,0E,FF,FF,
1103775855,00000206,false,Rx,0,8,53,2D,66,FF,FF,FF,FF,FF,
1103776093,00000112,false,Rx,0,8,00,20,FF,FF,71,72,25,00,
1103776962,000002C4,false,Rx,0,8,00,00,FF,00,C8,64,FF,CF,
1103777201,000000A5,false,Rx,0,8,81,FA,FF,F7,7F,00,00,C1,
1103777329,000000AC,false,Rx,0,2,00,F0,00,00,00,00,00,00,
1103777576,000000D9,false,Rx,0,8,25,FA,00,10,00,F0,7F,C8,
1103777815,000000F3,false,Rx,0,8,E3,0A,00,FF,F0,C0,FF,FF,
1103782221,00000254,false,Rx,0,8,FF,7F,FF,7F,FF,7F,FF,7F,
1103782457,000000EF,false,Rx,0,8,10,FA,00,7D,21,00,7D,FF,
1103782592,00000258,false,Rx,0,2,11,11,00,00,00,00,00,00,
1103782830,00000100,false,Rx,0,8,A5,F5,7F,C0,5D,07,80,70,
1103783007,000001A1,false,Rx,0,5,E1,CA,00,00,8A,00,00,00,
1103783451,00000302,false,Rx,0,7,FF,FF,FF,7F,F8,FF,FF,00,
1103786013,00000112,false,Rx,0,8,00,20,F1,0E,71,72,25,00,
1103786731,000002F5,false,Rx,0,8,60,0F,0A,20,20,0A,D4,1E,
1103787229,00000199,false,Rx,0,6,FF,FF,06,7E,FF,BF,00,00,
1103787436,0000019A,false,Rx,0,6,FF,FF,F3,7E,FF,8F,00,00,
1103787643,0000019F,false,Rx,0,6,FF,FF,F7,7F,FF,AF,00,00,
1103789038,0000012F,false,Rx,0,8,E8,20,86,1C,F1,35,30,00,
1103790767,0000036F,false,Rx,0,5,B1,F4,38,00,15,00,00,00,
1103792303,0000015F,false,Rx,0,8,2A,FA,00,7D,00,EE,00,7D,
1103792725,00000100,false,Rx,0,8,42,F6,7F,C0,5D,07,80,70,
1103794057,000002E8,false,Rx,0,8,C0,15,C4,FF,FF,F0,F6,E4,
1103794295,0000013A,false,Rx,0,8,0C,FB,00,00,00,0E,FF,FF,
1103794533,000001FA,false,Rx,0,8,45,45,45,F0,FF,42,FF,FF,
1103795288,000000A9,false,Rx,0,8,40,78,00,90,F1,00,00,FF,
1103795857,000003FD,false,Rx,0,5,DD,06,00,00,FF,00,00,00,
1103796105,00000108,false,Rx,0,8,00,7D,FF,FF,07,F1,FF,FF,
1103796334,00000112,false,Rx,0,8,00,20,F1,0E,71,72,25,00,
1103796587,00000201,false,Rx,0,8,FF,FF,FF,FF,FF,FF,FF,FF,
1103796826,000007BE,false,Rx,0,8,0C,01,04,6A,00,00,00,00,
1103797076,00000212,false,Rx,0,8,A4,F7,F9,FF,FF,FF,FF,FF,
1103797314,000000A5,false,Rx,0,8,DC,FB,FF,F7,7F,00,00,C1,
1103797439,000000AC,false,Rx,0,2,00,F0,00,00,00,00,00,00,
1103797676,000000D9,false,Rx,0,8,78,FB,00,10,00,F0,7F,C8,
1103797917,000000F3,false,Rx,0,8,BE,0B,00,FF,F0,C0,FF,FF,
1103798165,000002DB,false,Rx,0,8,FF,FF,FF,FF,BF,FF,FF,FF,
1103798414,000002F1,false,Rx,0,8,A2,0F,00,00,00,00,00,A0,
1103801719,00000197,false,Rx,0,4,8F,04,0E,C0,00,00,00,00,
1103802235,00000173,false,Rx,0,8,46,F5,00,0E,E0,00,DE,00,
1103802483,00000254,false,Rx,0,8,FF,7F,FF,7F,FF,7F,FF,7F,
1103802721,000000EF,false,Rx,0,8,4D,FB,00,7D,21,00,7D,FF,
1103802960,00000100,false,Rx,0,8,1F,F7,7F,C0,5D,07,80,70,
1103803137,000001A1,false,Rx,0,5,88,CC,00,00,8A,00,00,00,
1103803273,00000258,false,Rx,0,2,11,11,00,00,00,00,00,00,
1103803561,00000163,false,Rx,0,8,FF,FF,06,A5,FF,FF,FF,FF,
1103805228,000002A1,false,Rx,0,5,80,58,02,00,F8,00,00,00,
1103806002,00000112,false,Rx,0,8,00,20,F1,0E,71,72,25,00,
1103807279,00000199,false,Rx,0,6,FF,FF,DE,7D,FF,BF,00,00,
1103807486,0000019A,false,Rx,0,6,FF,FF,F3,7E,FF,8F,00,00,
1103807693,0000019F,false,Rx,0,6,FF,FF,0C,80,FF,AF,00,00,
1103809334,000002BB,false,Rx,0,5,21,FC,00,00,F2,00,00,00,
1103809572,00000289,false,Rx,0,8,60,F5,E0,FF,FD,00,EC,01,
1103809750,000002A7,false,Rx,0,5,E6,F6,FE,FF,14,00,00,00,
1103810399,000001AE,false,Rx,0,2,FB,FF,00,00,00,00,00,00,
1103812297,0000015F,false,Rx,0,8,77,FB,00,7D,00,EE,00,7D,
1103812790,00000100,false,Rx,0,8,43,F8,7F,C0,5D,07,80,70,
1103814337,0000013A,false,Rx,0,8,DF,FD,00,00,00,0E,FF,FF,
1103815893,00000206,false,Rx,0,8,B4,2E,66,FF,FF,FF,FF,FF,
1103816121,00000112,false,Rx,0,8,00,20,F1,0E,71,72,25,00,
1103816874,000000A5,false,Rx,0,8,52,FC,FF,F7,7F,00,00,C1,
1103817010,000000AC,false,Rx,0,2,00,F0,00,00,00,00,00,00,
1103817247,000000D9,false,Rx,0,8,F6,FC,00,10,00,F0,7F,C8,
1103817485,000000F3,false,Rx,0,8,30,0C,00,FF,F0,C0,FF,FF,
1103822219,00000254,false,Rx,0,8,FF,7F,FF,7F,FF,7F,FF,7F,
1103822454,000000EF,false,Rx,0,8,C3,FC,00,7D,21,00,7D,FF,
1103822589,00000258,false,Rx,0,2,11,11,00,00,00,00,00,00,
1103822828,00000100,false,Rx,0,8,1E,F9,7F,C0,5D,07,80,70,
1103823015,000001A1,false,Rx,0,5,AF,CE,00,00,8A,00,00,00,
1103823479,00000302,false,Rx,0,7,FF,FF,FF,7F,F8,FF,FF,00,
1103825236,000002B0,false,Rx,0,6,3B,44,00,C7,FF,FF,00,00,
1103825867,0000019D,false,Rx,0,8,5B,AD,01,07,FF,FF,FF,FF,
1103826105,00000112,false,Rx,0,8,00,20,F1,0E,71,72,25,00,
1103826354,0000003C,false,Rx,0,8,FF,5F,00,00,00,00,FF,FF,
1103826490,000000C0,false,Rx,0,2,FC,40,00,00,00,00,00,00,
1103826696,000002C5,false,Rx,0,7,7A,F7,00,20,04,70,C8,00,
1103827203,00000199,false,Rx,0,6,FF,FF,FC,7D,FF,BF,00,00,
1103827411,0000019A,false,Rx,0,6,FF,FF,F3,7E,FF,8F,00,00,
1103827617,0000019F,false,Rx,0,6,FF,FF,05,80,FF,AF,00,00,
1103828448,00000200,false,Rx,0,8,05,00,71,00,00,00,FA,FF,
1103830840,00000242,false,Rx,0,5,D1,F3,FF,FF,FF,00,00,00,
1103831109,000002E6,false,Rx,0,8,00,64,00,32,0B,00,1F,20,
1103831718,00000197,false,Rx,0,4,00,05,0E,C0,00,00,00,00,
1103832152,00000100,false,Rx,0,8,F9,FA,7F,C0,5D,07,80,70,
1103832393,0000015F,false,Rx,0,8,F9,FC,00,7D,00,EE,00,7D,
1103833755,0000059D,false,Rx,0,8,8E,01,01,32,00,FF,7F,03,
1103834282,0000013A,false,Rx,0,8,39,F0,00,00,00,0E,FF,FF,
1103834520,0000059A,false,Rx,0,8,65,0B,FF,00,00,00,FF,0C,
1103834761,0000059A,false,Rx,0,8,65,0B,FF,00,00,00,FF,0C,
1103835998,00000112,false,Rx,0,8,00,20,F1,0E,71,72,25,00,
1103836876,000000A5,false,Rx,0,8,0F,FD,FF,F7,7F,00,00,C1,
1103837013,000000AC,false,Rx,0,2,00,F0,00,00,00,00,00,00,
1103837250,000000D9,false,Rx,0,8,AB,FD,00,10,00,F0,7F,C8,
1103837488,000000F3,false,Rx,0,8,6D,0D,00,FF,F0,C0,FF,FF,
1103840511,00000297,false,Rx,0,7,81,E5,F0,FF,F2,92,EA,00,
1103842219,00000254,false,Rx,0,8,FF,7F,FF,7F,FF,7F,FF,7F,
1103842459,000000EF,false,Rx,0,8,9E,FD,00,7D,21,00,7D,FF,
1103842582,00000258,false,Rx,0,2,11,11,00,00,00,00,00,00,
1103842820,00000100,false,Rx,0,8,A4,FB,7F,C0,5D,07,80,70,
1103843007,000001A1,false,Rx,0,5,C7,C1,00,00,8A,00,00,00,
1103845975,000007BD,false,Rx,0,8,00,00,00,C0,FF,C0,01,01,
1103846204,00000112,false,Rx,0,8,00,20,F1,0E,71,72,25,00,
1103846453,000007BE,false,Rx,0,8,00,C0,FA,1C,02,00,00,00,
1103846918,00000592,false,Rx,0,8,0C,15,01,32,14,01,FF,FF,
1103847209,00000199,false,Rx,0,6,FF,FF,E8,7D,FF,BF,00,00,
1103847416,0000019A,false,Rx,0,6,FF,FF,F3,7E,FF,8F,00,00,
1103847623,0000019F,false,Rx,0,6,FF,FF,06,80,FF,AF,00,00,
1103847863,000003B4,false,Rx,0,8,00,00,0C,F0,98,FF,00,FF,
1103849271,0000036E,false,Rx,0,5,05,F4,67,02,14,00,00,00,
1103852296,0000015F,false,Rx,0,8,A4,FD,00,7D,00,EE,00,7D,
1103852789,00000100,false,Rx,0,8,2A,FC,7F,C0,5D,07,80,70,
1103854346,0000013A,false,Rx,0,8,83,F2,00,00,00,0E,FF,FF,
1103855181,000002ED,false,Rx,0,3,2D,02,02,00,00,00,00,00,
1103855914,00000206,false,Rx,0,8,B5,20,66,FF,FF,FF,FF,FF,
1103856152,00000112,false,Rx,0,8,00,20,F1,0E,71,72,25,00,
1103856865,000000A5,false,Rx,0,8,E8,FE,FF,F7,7F,00,00,C1,
1103856991,000000AC,false,Rx,0,2,00,F0,00,00,00,00,00,00,
1103857239,000000D9,false,Rx,0,8,4C,FE,00,10,00,F0,7F,C8,
1103857477,000000F3,false,Rx,0,8,8A,0E,00,FF,F0,C0,FF,FF,
1103859006,000001E1,false,Rx,0,6,FC,F3,01,FF,FF,FF,00,00,
1103861723,00000197,false,Rx,0,4,8C,06,0E,C0,00,00,00,00,
1103862218,00000254,false,Rx,0,8,FF,7F,FF,7F,FF,7F,FF,7F,
1103862458,000000EF,false,Rx,0,8,79,FE,00,7D,21,00,7D,FF,
1103862583,00000258,false,Rx,0,2,11,11,00,00,00,00,00,00,
1103862823,00000100,false,Rx,0,8,77,FD,7F,C0,5D,07,80,70,
1103863010,000001A1,false,Rx,0,5,E0,C3,00,00,8A,00,00,00,
1103863454,00000302,false,Rx,0,7,FF,FF,FF,7F,F8,FF,FF,00,
1103865991,00000112,false,Rx,0,8,00,20,F1,0E,71,72,25,00,
1103867204,00000199,false,Rx,0,6,FF,FF,F2,7D,FF,BF,00,00,
1103867411,0000019A,false,Rx,0,6,FF,FF,F3,7E,FF,8F,00,00,
1103867618,0000019F,false,Rx,0,6,FF,FF,03,80,FF,AF,00,00,
1103870238,00000314,false,Rx,0,3,30,00,FF,00,00,00,00,00,
1103872295,0000015F,false,Rx,0,8,43,FE,00,7D,00,EE,00,7D,
1103872809,00000100,false,Rx,0,8,90,FE,7F,C0,5D,07,80,70,
1103874274,0000013A,false,Rx,0,8,50,F4,00,00,00,0E,FF,FF,
1103874657,00000239,false,Rx,0,8,FF,97,2F,F5,00,24,FF,FF,
1103875596,000001FA,false,Rx,0,8,45,45,45,F0,43,42,43,43,
1103876082,00000112,false,Rx,0,8,00,20,F1,0E,71,72,25,00,
1103876980,000002C4,false,Rx,0,8,00,00,FF,00,C8,64,FF,CF,
1103877218,000000A5,false,Rx,0,8,E9,F0,FF,F7,7F,00,00,C1,
1103877353,000000AC,false,Rx,0,2,00,F0,00,00,00,00,00,00,
1103877590,000000D9,false,Rx,0,8,4D,F0,00,10,00,F0,7F,C8,
1103877831,000000F3,false,Rx,0,8,8B,00,00,FF,F0,C0,FF,FF,
1103878069,000002F5,false,Rx,0,8,72,0F,2E,26,22,0A,06,10,
1103878276,00000304,false,Rx,0,6,FF,FF,7A,30,FF,FF,00,00,
1103882219,00000254,false,Rx,0,8,FF,7F,FF,7F,FF,7F,FF,7F,
1103882454,000000EF,false,Rx,0,8,78,F0,00,7D,21,00,7D,FF,
1103882590,00000258,false,Rx,0,2,11,11,00,00,00,00,00,00,
1103882828,00000100,false,Rx,0,8,91,F0,7F,C0,5D,07,80,70,
1103883005,000001A1,false,Rx,0,5,89,C5,00,00,8A,00,00,00,
1103885893,000005E0,false,Rx,0,8,11,03,00,02,FF,FF,C0,00,
1103886122,00000112,false,Rx,0,8,00,20,F1,0E,71,72,25,00,
1103887203,00000199,false,Rx,0,6,FF,FF,D4,7D,FF,BF,00,00,
1103887410,0000019A,false,Rx,0,6,FF,FF,F3,7E,FF,8F,00,00,
1103887617,0000019F,false,Rx,0,6,FF,FF,07,80,FF,AF,00,00,
1103887857,00000272,false,Rx,0,8,68,F4,FC,02,FF,FF,FF,FF,
1103889035,0000012F,false,Rx,0,8,B5,21,86,1C,F1,35,30,00,
1103889305,000002A7,false,Rx,0,5,7B,F7,FE,FF,14,00,00,00,
1103891725,00000197,false,Rx,0,4,03,07,0E,C0,00,00,00,00,
1103892293,0000015F,false,Rx,0,8,42,F0,00,7D,00,EE,00,7D,
1103892797,00000100,false,Rx,0,8,CC,F1,7F,C0,5D,07,80,70,
1103894067,000002E8,false,Rx,0,8,C0,1F,C4,FF,FF,F0,F7,7F,
1103894344,0000013A,false,Rx,0,8,EA,F6,00,00,00,0E,FF,FF,
1103895284,000000A9,false,Rx,0,8,40,78,00,90,F1,00,00,FF,
1103895802,000003FD,false,Rx,0,5,40,07,00,00,FF,00,00,00,
1103896049,00000108,false,Rx,0,8,00,7D,FF,FF,07,F1,FF,FF,
1103896279,00000112,false,Rx,0,8,00,20,F1,0E,71,72,25,00,
1103896521,00000206,false,Rx,0,8,22,21,65,FF,FF,FF,FF,FF,
1103896770,000007BE,false,Rx,0,8,0B,00,00,00,00,00,00,00,
1103897020,00000212,false,Rx,0,8,F8,F8,F9,FF,FF,FF,FF,FF,
1103897248,000000A5,false,Rx,0,8,B4,F1,FF,F7,7F,00,00,C1,
1103897383,000000AC,false,Rx,0,2,00,F0,00,00,00,00,00,00,
1103897620,000000D9,false,Rx,0,8,10,F1,00,10,00,F0,7F,C8,
1103897861,000000F3,false,Rx,0,8,D6,01,00,FF,F0,C0,FF,FF,
1103898110,000002DB,false,Rx,0,8,FF,FF,FF,FF,BF,FF,FF,FF,
1103898348,000002F1,false,Rx,0,8,B5,0F,00,00,00,00,00,A0,
1103898599,0000032B,false,Rx,0,8,FF,FF,FF,FF,FF,FF,00,FF,
1103898849,00000331,false,Rx,0,8,FF,FF,FF,EF,7F,FE,F7,FF,
1103899098,000003E9,false,Rx,0,8,08,52,00,00,00,00,00,00,
1103902232,00000173,false,Rx,0,8,72,F0,00,0E,E0,00,DE,00,
1103902477,00000254,false,Rx,0,8,FF,7F,FF,7F,FF,7F,FF,7F,
1103902715,000000EF,false,Rx,0,8,25,F1,00,7D,21,00,7D,FF,
1103902965,00000100,false,Rx,0,8,2B,F2,7F,C0,5D,07,80,70,
1103903142,000001A1,false,Rx,0,5,AE,C7,00,00,8A,00,00,00,
1103903267,00000258,false,Rx,0,2,11,11,00,00,00,00,00,00,
1103903638,00000163,false,Rx,0,8,FF,FF,0B,A5,FF,FF,FF,FF,
1103903868,00000302,false,Rx,0,7,FF,FF,FF,7F,F8,FF,FF,00,
1103905217,000002A1,false,Rx,0,5,80,58,02,00,F8,00,00,00,
1103906001,00000112,false,Rx,0,8,00,20,F1,0E,71,72,25,01,
1103906230,000002F5,false,Rx,0,8,72,0F,6B,26,22,0A,06,10,
1103907210,00000199,false,Rx,0,6,FF,FF,F2,7D,FF,BF,00,00,
1103907418,0000019A,false,Rx,0,6,FF,FF,F3,7E,FF,8F,00,00,
1103907614,0000019F,false,Rx,0,6,FF,FF,1D,80,FF,AF,00,00,
1103907844,00000301,false,Rx,0,7,FF,FF,FF,7F,FF,FF,8F,00,
1103909331,000002BB,false,Rx,0,5,6F,F8,00,00,F2,00,00,00,
1103909568,00000289,false,Rx,0,8,87,F6,E0,FF,FD,00,EC,01,
1103910425,000001AE,false,Rx,0,2,FB,FF,00,00,00,00,00,00,
1103910900,0000031C,false,Rx,0,8,FF,FF,FF,FF,FF,FF,FF,FF,
1103911118,0000033B,false,Rx,0,6,00,FF,FF,FF,FF,FF,00,00,
1103912294,0000015F,false,Rx,0,8,1F,F1,00,7D,00,EE,00,7D,
1103912791,00000100,false,Rx,0,8,F3,F3,7F,C0,5D,0A,80,70,
1103914276,0000013A,false,Rx,0,8,EB,F8,00,00,00,0E,FF,FF,
1103915997,00000112,false,Rx,0,8,00,20,F1,0E,71,72,25,01,
1103916483,00000239,false,Rx,0,8,FF,97,2F,F5,00,24,FF,FF,
1103916917,000000A5,false,Rx,0,8,53,F2,FF,F7,7F,00,00,C1,
1103917042,000000AC,false,Rx,0,2,00,F0,00,00,00,00,00,00,
1103917279,000000D9,false,Rx,0,8,F7,F2,00,10,00,F0,7F,C8,
1103917527,000000F3,false,Rx,0,8,31,02,00,FF,F0,C0,FF,FF,
1103921721,00000197,false,Rx,0,4,85,08,0E,C0,00,00,00,00,
1103922212,00000254,false,Rx,0,8,FF,7F,FF,7F,FF,7F,FF,7F,
1103922451,000000EF,false,Rx,0,8,C2,F2,00,7D,21,00,7D,FF,
1103922689,00000100,false,Rx,0,8,7D,F4,7F,C0,5D,0A,80,70,
1103922815,00000258,false,Rx,0,2,11,11,00,00,00,00,00,00,
1103923002,000001A1,false,Rx,0,5,5B,C9,00,00,8A,00,00,00,
1103925242,000002B0,false,Rx,0,6,3B,44,00,C8,FF,FF,00,00,
1103925848,000002C5,false,Rx,0,7,BF,F8,00,20,04,70,C8,00,
1103926087,00000112,false,Rx,0,8,00,20,F1,0E,71,72,25,01,
1103926336,0000003C,false,Rx,0,8,FF,5F,00,00,00,00,FF,FF,
1103926574,00000431,false,Rx,0,8,F6,FF,FF,FF,FF,4E,F4,4B,
1103926813,00000509,false,Rx,0,8,00,00,00,00,FF,FF,00,09,
1103927196,00000199,false,Rx,0,6,FF,FF,E8,7D,FF,BF,00,00,
1103927403,0000019A,false,Rx,0,6,FF,FF,F3,7E,FF,8F,00,00,
1103927611,0000019F,false,Rx,0,6,FF,FF,FF,7F,FF,AF,00,00,
1103930243,00000349,false,Rx,0,5,FE,FF,D4,08,00,00,00,00,
1103932301,0000015F,false,Rx,0,8,F8,F2,00,7D,00,EE,00,7D,
1103932793,00000100,false,Rx,0,8,20,F5,7F,C0,5D,0A,80,70,
1103934346,0000013A,false,Rx,0,8,51,FA,00,00,00,0E,FF,FF,
1103934575,0000059A,false,Rx,0,8,65,0D,FF,00,00,00,FF,0E,
1103934804,0000059A,false,Rx,0,8,65,0D,FF,00,00,00,FF,0E,
1103935867,00000206,false,Rx,0,8,C5,22,65,FF,FF,FF,FF,FF,
1103936106,00000112,false,Rx,0,8,00,20,F1,0E,71,72,25,01,
1103936334,000002F5,false,Rx,0,8,72,0F,E3,26,22,0A,06,10,
1103936712,00000432,false,Rx,0,8,1C,EF,10,AA,9C,FF,00,FF,
1103936953,000000A5,false,Rx,0,8,0E,F3,FF,F7,7F,00,00,C1,
1103937088,000000AC,false,Rx,0,2,00,F0,00,00,00,00,00,00,
1103937325,000000D9,false,Rx,0,8,AA,F3,00,10,00,F0,7F,C8,
1103937563,000000F3,false,Rx,0,8,6C,03,00,FF,F0,C0,FF,FF,
1103941856,00000512,false,Rx,0,8,00,00,00,00,00,00,00,12,
1103942246,00000254,false,Rx,0,8,FF,7F,FF,7F,FF,7F,FF,7F,
1103942484,000000EF,false,Rx,0,8,9F,F3,00,7D,21,00,7D,FF,
1103942712,00000100,false,Rx,0,8,C7,F6,7F,C0,5D,0A,80,70,
1103942848,00000258,false,Rx,0,2,11,11,00,00,00,00,00,00,
1103943025,000001A1,false,Rx,0,5,7C,CB,00,00,8A,00,00,00,
1103943499,00000302,false,Rx,0,7,FF,FF,FF,7F,F8,FF,FF,00,
1103945969,000007BD,false,Rx,0,8,00,00,00,C0,FF,C0,01,01,
1103946205,00000112,false,Rx,0,8,00,20,F1,0E,71,72,25,01,
1103946453,000007BE,false,Rx,0,8,05,00,00,00,00,00,00,E0,
1103947197,00000199,false,Rx,0,6,FF,FF,E8,7D,FF,BF,00,00,
1103947404,0000019A,false,Rx,0,6,FF,FF,F3,7E,FF,8F,00,00,
1103947612,0000019F,false,Rx,0,6,FF,FF,EB,7F,FF,AF,00,00,
1103950755,0000036F,false,Rx,0,5,D5,F5,FE,FF,14,00,00,00,
1103951719,00000197,false,Rx,0,4,0A,09,0E,C0,00,00,00,00,
1103952298,0000015F,false,Rx,0,8,A5,F3,00,7D,00,EE,00,7D,
1103952774,00000100,false,Rx,0,8,9A,F7,7F,C0,5D,0A,80,70,
1103953797,000002E7,false,Rx,0,8,F9,C2,04,FF,5F,FF,00,00,
1103954272,0000013A,false,Rx,0,8,82,FC,00,00,00,0E,FF,FF,
1103956002,00000112,false,Rx,0,8,00,20,F1,0E,71,72,25,01,
1103956877,000000A5,false,Rx,0,8,80,F4,FF,F7,7F,00,00,C1,
1103957002,000000AC,false,Rx,0,2,00,F0,00,00,00,00,00,00,
1103957239,000000D9,false,Rx,0,8,24,F4,00,10,00,F0,7F,C8,
1103957477,000000F3,false,Rx,0,8,E2,04,00,FF,F0,C0,FF,FF,
1103960541,00000297,false,Rx,0,7,4B,E6,F0,FF,F2,92,EA,00,
1103962210,00000254,false,Rx,0,8,FF,7F,FF,7F,FF,7F,FF,7F,
1103962448,000000EF,false,Rx,0,8,11,F4,00,7D,21,00,7D,FF,
1103962583,00000258,false,Rx,0,2,11,11,00,00,00,00,00,00,
1103962822,00000100,false,Rx,0,8,C6,F8,7F,C0,5D,0A,80,70,
1103963001,000001A1,false,Rx,0,5,15,CD,00,00,8A,00,00,00,
1103965377,000002D1,false,Rx,0,2,68,75,00,00,00,00,00,00,
1103965985,00000112,false,Rx,0,8,00,20,F1,0E,71,72,25,01,
1103966471,000002F5,false,Rx,0,8,72,0F,1F,27,22,0A,06,10,
1103967194,00000199,false,Rx,0,6,FF,FF,E8,7D,FF,BF,00,00,
1103967401,0000019A,false,Rx,0,6,FF,FF,F3,7E,FF,8F,00,00,
1103967609,0000019F,false,Rx,0,6,FF,FF,EB,7F,FF,AF,00,00,
1103969280,000002A7,false,Rx,0,5,13,F8,FE,FF,14,00,00,00,
1103972297,0000015F,false,Rx,0,8,2B,F4,00,7D,00,EE,00,7D,
1103972773,00000100,false,Rx,0,8,9B,F9,7F,C0,5D,0A,80,70,
1103974338,0000013A,false,Rx,0,8,38,FE,00,00,00,0E,FF,FF,
1103974711,00000239,false,Rx,0,8,FF,97,2F,FD,00,24,FF,FF,
1103975908,00000206,false,Rx,0,8,52,23,66,FF,FF,FF,FF,FF,
1103976147,00000112,false,Rx,0,8,00,20,F1,0E,71,72,25,01,
1103976961,000002C4,false,Rx,0,8,00,00,FF,00,C8,64,FF,CF,
1103977199,000000A5,false,Rx,0,8,DD,F5,FF,F7,7F,00,00,C1,
1103977335,000000AC,false,Rx,0,2,00,F0,00,00,00,00,00,00,
1103977573,000000D9,false,Rx,0,8,79,F5,00,10,00,F0,7F,C8,
1103977813,000000F3,false,Rx,0,8,BF,05,00,FF,F0,C0,FF,FF,
1103980179,00000314,false,Rx,0,3,30,00,FF,00,00,00,00,00,
1103981267,00000510,false,Rx,0,8,40,10,20,00,00,00,00,00,
1103981722,00000197,false,Rx,0,4,86,0A,0E,C0,00,00,00,00,
1103982208,00000254,false,Rx,0,8,FF,7F,FF,7F,FF,7F,FF,7F,
1103982446,000000EF,false,Rx,0,8,4C,F5,00,7D,21,00,7D,FF,
1103982571,00000258,false,Rx,0,2,11,11,00,00,00,00,00,00,
1103982809,00000100,false,Rx,0,8,7C,FA,7F,C0,5D,0A,80,70,
1103983013,000001A1,false,Rx,0,5,5A,C0,00,00,8A,00,00,00,
1103983241,00000540,false,Rx,0,8,00,00,00,00,1D,58,FF,40,
1103983469,00000302,false,Rx,0,7,FF,FF,FF,7F,F8,FF,FF,00,
1103986006,00000112,false,Rx,0,8,00,20,F1,0E,71,72,25,01,
1103987198,00000199,false,Rx,0,6,FF,FF,F2,7D,FF,BF,00,00,
1103987405,0000019A,false,Rx,0,6,FF,FF,F3,7E,FF,8F,00,00,
1103987613,0000019F,false,Rx,0,6,FF,FF,ED,7F,FF,AF,00,00,
1103989026,0000012F,false,Rx,0,8,52,22,86,1C,F1,35,30,00,
1103992365,0000015F,false,Rx,0,8,76,F5,00,7D,00,EE,00,7D,
1103992630,00000514,false,Rx,0,8,00,00,00,00,00,00,00,14,
1103992871,00000100,false,Rx,0,8,21,FB,7F,C0,5D,0A,80,70,
1103994273,0000013A,false,Rx,0,8,64,F1,00,00,00,0E,FF,FF,
1103994512,000002E8,false,Rx,0,8,C0,29,C4,FF,FF,F0,F8,71,
1103995277,000000A9,false,Rx,0,8,40,78,00,90,F1,00,00,FF,
1103995794,000003FD,false,Rx,0,5,28,08,00,00,FF,00,00,00,
1103996043,00000108,false,Rx,0,8,00,7D,FF,FF,07,F1,FF,FF,
1103996281,00000112,false,Rx,0,8,00,20,F1,0E,71,72,25,01,
1103996523,00000212,false,Rx,0,8,A5,F9,F9,FF,FF,FF,FF,FF,
1103996753,000002F5,false,Rx,0,8,72,0F,98,27,22,0A,06,10,
1103997002,000002DB,false,Rx,0,8,FF,FF,FF,FF,BF,FF,FF,FF,
1103997240,000000A5,false,Rx,0,8,3A,F6,FF,F7,7F,00,00,C1,
1103997479,000000D9,false,Rx,0,8,9E,F6,00,10,00,F0,7F,C8,
1103997605,000000AC,false,Rx,0,2,00,F0,00,00,00,00,00,00,
1103997853,000000F3,false,Rx,0,8,58,06,00,FF,F0,C0,FF,FF,
1103998091,000002F1,false,Rx,0,8,B5,0F,00,00,00,00,00,A0,
1104002256,00000173,false,Rx,0,8,1A,FA,00,0E,E0,00,DE,00,
1104002501,00000254,false,Rx,0,8,FF,7F,FF,7F,FF,7F,FF,7F,
1104002739,000000EF,false,Rx,0,8,AB,F6,00,7D,21,00,7D,FF,
1104002979,00000100,false,Rx,0,8,AF,FC,7F,C0,5D,0A,80,70,
1104003166,000001A1,false,Rx,0,5,7D,C2,00,00,8A,00,00,00,
1104003291,00000258,false,Rx,0,2,11,11,00,00,00,00,00,00,
1104003642,00000163,false,Rx,0,8,FF,FF,0F,A5,FF,FF,FF,FF,
1104005206,000002A1,false,Rx,0,5,80,58,02,00,F8,00,00,00,
1104006001,00000112,false,Rx,0,8,00,20,F1,0E,71,72,25,01,
1104006815,00000592,false,Rx,0,8,0C,15,01,32,14,01,FF,FF,
1104007217,00000199,false,Rx,0,6,FF,FF,E8,7D,FF,BF,00,00,
1104007424,0000019A,false,Rx,0,6,FF,FF,F3,7E,FF,8F,00,00,
1104007632,0000019F,false,Rx,0,6,FF,FF,DA,7F,FF,AF,00,00,
1104009325,000002BB,false,Rx,0,5,49,F3,00,00,F2,00,00,00,
1104009563,00000289,false,Rx,0,8,DA,F7,E0,FF,FD,00,EC,01,
1104009739,0000036E,false,Rx,0,5,98,F5,67,02,14,00,00,00,
1104010390,000001AE,false,Rx,0,2,FB,FF,00,00,00,00,00,00,
1104011720,00000197,false,Rx,0,4,09,0B,0E,C0,00,00,00,00,
1104012299,0000015F,false,Rx,0,8,91,F6,00,7D,00,EE,00,7D,
1104012784,00000100,false,Rx,0,8,F2,FD,7F,C0,5D,0A,80,70,
1104014331,0000013A,false,Rx,0,8,DE,F3,00,00,00,0E,FF,FF,
1104015907,00000206,false,Rx,0,8,DC,24,66,FF,FF,FF,FF,FF,
1104016147,00000112,false,Rx,0,8,00,20,F1,0E,71,72,25,01,
1104016869,000000A5,false,Rx,0,8,67,F7,FF,F7,7F,00,00,C1,
1104017005,000000AC,false,Rx,0,2,00,F0,00,00,00,00,00,00,
1104017242,000000D9,false,Rx,0,8,C3,F7,00,10,00,F0,7F,C8,
1104017481,000000F3,false,Rx,0,8,05,07,00,FF,F0,C0,FF,FF,
1104022276,00000254,false,Rx,0,8,FF,7F,FF,7F,FF,7F,FF,7F,
1104022510,000000EF,false,Rx,0,8,F6,F7,00,7D,21,00,7D,FF,
1104022635,00000258,false,Rx,0,2,11,11,00,00,00,00,00,00,
1104022876,00000100,false,Rx,0,8,15,FE,7F,C0,5D,0A,80,70,
1104023052,000001A1,false,Rx,0,5,14,C4,00,00,8A,00,00,00,
1104023526,00000302,false,Rx,0,7,FF,FF,FF,7F,F8,FF,FF,00,
1104023673,0000021A,false,Rx,0,3,00,1C,F7,00,00,00,00,00,
1104023809,0000036A,false,Rx,0,2,F5,FF,00,00,00,00,00,00,
1104024928,0000037B,false,Rx,0,6,40,00,00,FF,FF,3E,00,00,
1104025188,0000037B,false,Rx,0,6,40,00,FF,FF,FF,3E,00,00,
1104025395,000002B0,false,Rx,0,6,3B,44,00,C7,FF,FF,00,00,
1104025839,000002C5,false,Rx,0,7,F9,F9,00,20,04,70,C8,00,
1104026078,00000112,false,Rx,0,8,00,20,F1,0E,71,72,25,01,
1104026214,000000C0,false,Rx,0,2,FD,40,00,00,00,00,00,00,
1104026466,0000003C,false,Rx,0,8,FF,5F,00,00,00,00,FF,FF,
1104026696,000002F5,false,Rx,0,8,72,0F,D4,27,22,0A,06,10,
1104027192,00000199,false,Rx,0,6,FF,FF,FC,7D,FF,BF,00,00,
1104027399,0000019A,false,Rx,0,6,FF,FF,F3,7E,FF,8F,00,00,
1104027607,0000019F,false,Rx,0,6,FF,FF,E7,7F,FF,AF,00,00,
1104027959,00000200,false,Rx,0,8,05,00,71,00,69,00,FA,FF,
1104028564,0000051D,false,Rx,0,8,00,00,00,00,00,00,00,1D,
1104032292,0000015F,false,Rx,0,8,CC,F7,00,7D,00,EE,00,7D,
1104032774,00000100,false,Rx,0,8,14,F0,7F,C0,5D,0A,80,70,
1104034270,0000013A,false,Rx,0,8,0D,F5,00,00,00,0E,FF,FF,
1104036002,00000112,false,Rx,0,8,00,20,F1,0E,71,72,25,01,
1104036947,000000A5,false,Rx,0,8,3B,F8,FF,F7,7F,00,00,C1,
1104037083,000000AC,false,Rx,0,2,00,F0,00,00,00,00,00,00,
1104037320,000000D9,false,Rx,0,8,9F,F8,00,10,00,F0,7F,C8,
1104037559,000000F3,false,Rx,0,8,59,08,00,FF,F0,C0,FF,FF,
1104041721,00000197,false,Rx,0,4,83,0C,0E,C0,00,00,00,00,
1104042214,00000254,false,Rx,0,8,FF,7F,FF,7F,FF,7F,FF,7F,
1104042452,000000EF,false,Rx,0,8,AA,F8,00,7D,21,00,7D,FF,
1104042577,00000258,false,Rx,0,2,11,11,00,00,00,00,00,00,
1104042816,00000100,false,Rx,0,8,49,F1,7F,C0,5D,0A,80,70,
1104042993,000001A1,false,Rx,0,5,33,C6,00,00,8A,00,00,00,
1104045896,00000201,false,Rx,0,8,FF,FF,FF,FF,FF,FF,FF,FF,
1104046130,00000112,false,Rx,0,8,00,20,F1,0E,71,72,25,01,
1104046378,000007BD,false,Rx,0,8,00,00,00,C0,FF,C0,01,01,
1104046649,000007BE,false,Rx,0,8,0C,01,04,6A,00,00,00,00,
1104047196,00000199,false,Rx,0,6,FF,FF,F2,7D,FF,BF,00,00,
1104047404,0000019A,false,Rx,0,6,FF,FF,F3,7E,FF,8F,00,00,
1104047611,0000019F,false,Rx,0,6,FF,FF,06,80,FF,AF,00,00,
1104047850,000003B4,false,Rx,0,8,00,00,0C,F0,98,FF,00,FF,
1104049261,000002A7,false,Rx,0,5,8E,F9,FE,FF,14,00,00,00,
1104052289,0000015F,false,Rx,0,8,90,F8,00,7D,00,EE,00,7D,
1104052793,00000100,false,Rx,0,8,AE,F2,7F,C0,5D,0A,80,70,
1104054267,0000013A,false,Rx,0,8,B7,F7,00,00,00,0E,FF,FF,
1104055897,00000206,false,Rx,0,8,81,25,66,FF,FF,FF,FF,FF,
1104056125,00000112,false,Rx,0,8,00,20,F1,0E,71,72,25,01,
1104056372,000002F5,false,Rx,0,8,72,0F,4D,28,22,0A,06,10,
1104056880,000000A5,false,Rx,0,8,66,F9,FF,F7,7F,00,00,C1,
1104057015,000000AC,false,Rx,0,2,00,F0,00,00,00,00,00,00,
1104057252,000000D9,false,Rx,0,8,C2,F9,00,10,00,F0,7F,C8,
1104057491,000000F3,false,Rx,0,8,04,09,00,FF,F0,C0,FF,FF,
1104059002,000001E1,false,Rx,0,6,F7,F4,01,FF,FF,FF,00,00,
1104060977,0000051A,false,Rx,0,8,00,00,00,00,50,00,00,1A,
1104062206,00000254,false,Rx,0,8,FF,7F,FF,7F,FF,7F,FF,7F,
1104062442,000000EF,false,Rx,0,8,F7,F9,00,7D,21,00,7D,FF,
1104062577,00000258,false,Rx,0,2,11,11,00,00,00,00,00,00,
1104062806,00000100,false,Rx,0,8,F3,F3,7F,C0,5D,0A,80,70,
1104062993,000001A1,false,Rx,0,5,C6,C8,00,00,8A,00,00,00,
1104063530,00000302,false,Rx,0,7,FF,FF,FF,7F,F8,FF,FF,00,
1104065988,00000112,false,Rx,0,8,00,20,F1,0E,71,72,25,01,
1104067200,00000199,false,Rx,0,6,FF,FF,DE,7D,FF,BF,00,00,
1104067398,0000019A,false,Rx,0,6,FF,FF,F3,7E,FF,8F,00,00,
1104067605,0000019F,false,Rx,0,6,FF,FF,02,80,FF,AF,00,00,
1104071725,00000197,false,Rx,0,4,0C,0D,0E,C0,00,00,00,00,
1104072289,0000015F,false,Rx,0,8,CD,F9,00,7D,00,EE,00,7D,
1104072548,00000100,false,Rx,0,8,78,F4,7F,C0,5D,0C,80,70,
1104074281,0000013A,false,Rx,0,8,B6,F9,00,00,00,0E,FF,FF,
1104076092,00000112,false,Rx,0,8,00,20,F1,0E,71,72,25,01,
1104076330,00000239,false,Rx,0,8,FF,97,2F,FD,00,24,FF,FF,
1104076982,000002C4,false,Rx,0,8,00,00,FF,00,C8,64,FF,CF,
1104077220,000000A5,false,Rx,0,8,81,FA,FF,F7,7F,00,00,C1,
1104077356,000000AC,false,Rx,0,2,00,F0,00,00,00,00,00,00,
1104077593,000000D9,false,Rx,0,8,25,FA,00,10,00,F0,7F,C8,
1104077839,000000F3,false,Rx,0,8,E3,0A,00,FF,F0,C0,FF,FF,
1104078047,00000304,false,Rx,0,6,FF,FF,61,30,FF,FF,00,00,
1104079316,000005A9,false,Rx,0,8,01,04,3F,FF,FF,FF,FF,FF,
1104082207,00000254,false,Rx,0,8,FF,7F,FF,7F,FF,7F,FF,7F,
1104082451,000000EF,false,Rx,0,8,10,FA,00,7D,21,00,7D,FF,
1104082576,00000258,false,Rx,0,2,11,11,00,00,00,00,00,00,
1104082816,00000100,false,Rx,0,8,25,F5,7F,C0,5D,0C,80,70,
1104082992,000001A1,false,Rx,0,5,E1,CA,00,00,8A,00,00,00,
1104085891,000005E0,false,Rx,0,8,11,04,00,03,FF,FF,C4,00,
1104086119,00000112,false,Rx,0,8,00,20,F1,0E,71,72,25,01,
1104086726,000002F5,false,Rx,0,8,72,0F,89,28,22,0A,06,10,
1104087191,00000199,false,Rx,0,6,FF,FF,F2,7D,FF,BF,00,00,
1104087399,0000019A,false,Rx,0,6,FF,FF,F3,7E,FF,8F,00,00,
1104087606,0000019F,false,Rx,0,6,FF,FF,FD,7F,FF,AF,00,00,
1104087845,00000272,false,Rx,0,8,35,F5,FC,02,FF,FF,FF,FF,
1104089036,0000012F,false,Rx,0,8,0F,23,86,1C,F1,35,30,00,
1104090233,00000314,false,Rx,0,3,30,00,FF,00,00,00,00,00,
1104092292,0000015F,false,Rx,0,8,2A,FA,00,7D,00,EE,00,7D,
1104092733,00000100,false,Rx,0,8,C2,F6,7F,C0,5D,0C,80,70,
1104094312,000002E8,false,Rx,0,8,C0,33,C4,FF,FF,F0,F9,FE,
1104094559,0000013A,false,Rx,0,8,0C,FB,00,00,00,0E,FF,FF,
1104095282,000000A9,false,Rx,0,8,40,78,00,90,F1,00,00,FF,
1104095790,000003FD,false,Rx,0,5,B5,09,00,00,FF,00,00,00,
1104096038,00000108,false,Rx,0,8,00,7D,FF,FF,07,F1,FF,FF,
1104096276,00000112,false,Rx,0,8,00,20,F1,0E,71,72,25,01,
1104096508,00000206,false,Rx,0,8,66,26,66,FF,FF,FF,FF,FF,
1104096759,000007BE,false,Rx,0,8,00,C0,FA,1C,02,00,00,00,
1104096997,00000212,false,Rx,0,8,42,FA,F9,FF,FF,FF,FF,FF,
1104097235,000000A5,false,Rx,0,8,DC,FB,FF,F7,7F,00,00,C1,
1104097372,000000AC,false,Rx,0,2,00,F0,00,00,00,00,00,00,
1104097609,000000D9,false,Rx,0,8,78,FB,00,10,00,F0,7F,C8,
1104097849,000000F3,false,Rx,0,8,BE,0B,00,FF,F0,C0,FF,FF,
1104098098,000002DB,false,Rx,0,8,FF,FF,FF,FF,BF,FF,FF,FF,
1104098346,000002F1,false,Rx,0,8,B5,0F,00,00,00,00,00,A0,
1104098597,0000032B,false,Rx,0,8,FF,FF,FF,FF,FF,FF,00,FF,
1104098847,00000331,false,Rx,0,8,FF,FF,FF,EF,7F,FE,F7,FF,
1104099097,000003E9,false,Rx,0,8,08,52,00,00,00,00,00,00,
1104101725,00000197,false,Rx,0,4,80,0E,0E,C0,00,00,00,00,
1104102222,00000173,false,Rx,0,8,46,F5,00,0E,E0,00,DE,00,
1104102468,00000254,false,Rx,0,8,FF,7F,FF,7F,FF,7F,FF,7F,
1104102707,000000EF,false,Rx,0,8,4D,FB,00,7D,21,00,7D,FF,
1104102936,00000100,false,Rx,0,8,9F,F7,7F,C0,5D,0C,80,70,
1104103123,000001A1,false,Rx,0,5,88,CC,00,00,8A,00,00,00,
1104103248,00000258,false,Rx,0,2,11,11,00,00,00,00,00,00,
1104103630,00000163,false,Rx,0,8,FF,FF,13,A5,FF,FF,FF,FF,
1104103859,00000302,false,Rx,0,7,FF,FF,FF,7F,F8,FF,FF,00,
1104105218,000002A1,false,Rx,0,5,80,58,02,00,F8,00,00,00,
1104106003,00000112,false,Rx,0,8,00,20,F1,0E,71,72,25,01,
1104107238,00000199,false,Rx,0,6,FF,FF,06,7E,FF,BF,00,00,
1104107446,0000019A,false,Rx,0,6,FF,FF,F3,7E,FF,8F,00,00,
1104107653,0000019F,false,Rx,0,6,FF,FF,0D,80,FF,AF,00,00,
1104107882,00000301,false,Rx,0,7,FF,FF,FF,7F,FF,FF,8F,00,
1104109081,00000348,false,Rx,0,8,3C,2C,0A,FE,FE,31,B5,21,
1104109381,000002BB,false,Rx,0,5,BC,FD,00,00,F2,00,00,00,
1104109620,00000289,false,Rx,0,8,86,F8,E0,FF,FD,00,EC,01,
1104110405,000001AE,false,Rx,0,2,FB,FF,00,00,00,00,00,00,
1104110809,0000036F,false,Rx,0,5,6F,F6,FE,FF,14,00,00,00,
1104111057,0000031C,false,Rx,0,8,FF,FF,FF,FF,FF,FF,FF,FF,
1104111265,0000033B,false,Rx,0,6,00,FF,FF,FF,FF,FF,00,00,
1104112287,0000015F,false,Rx,0,8,77,FB,00,7D,00,EE,00,7D,
1104112776,00000100,false,Rx,0,8,C3,F8,7F,C0,5D,0C,80,70,
1104114271,0000013A,false,Rx,0,8,DF,FD,00,00,00,0E,FF,FF,
1104115981,00000112,false,Rx,0,8,00,20,F1,0E,71,72,25,01,
1104116466,000002F5,false,Rx,0,8,72,0F,02,29,22,0A,06,10,
1104116900,000000A5,false,Rx,0,8,52,FC,FF,F7,7F,00,00,C1,
1104117035,000000AC,false,Rx,0,2,00,F0,00,00,00,00,00,00,
1104117272,000000D9,false,Rx,0,8,F6,FC,00,10,00,F0,7F,C8,
1104117512,000000F3,false,Rx,0,8,30,0C,00,FF,F0,C0,FF,FF,
1104122203,00000254,false,Rx,0,8,FF,7F,FF,7F,FF,7F,FF,7F,
1104122447,000000EF,false,Rx,0,8,C3,FC,00,7D,21,00,7D,FF,
1104122572,00000258,false,Rx,0,2,11,11,00,00,00,00,00,00,
1104122812,00000100,false,Rx,0,8,9E,F9,7F,C0,5D,0C,80,70,
1104122998,000001A1,false,Rx,0,5,AF,CE,00,00,8A,00,00,00,
1104125227,000002B0,false,Rx,0,6,3B,44,00,C8,FF,FF,00,00,
1104125857,0000019D,false,Rx,0,8,5B,AD,01,07,FF,FF,FF,FF,
1104126095,00000112,false,Rx,0,8,00,20,F1,0E,71,72,25,01,
1104126344,0000003C,false,Rx,0,8,FF,5F,00,00,00,00,FF,FF,
1104126563,000002C5,false,Rx,0,7,33,FA,00,20,04,70,C8,00,
1104126803,00000431,false,Rx,0,8,F6,FF,FF,FF,FF,4E,F4,4B,
1104127195,00000199,false,Rx,0,6,FF,FF,FC,7D,FF,BF,00,00,
1104127393,0000019A,false,Rx,0,6,FF,FF,F3,7E,FF,8F,00,00,
1104127600,0000019F,false,Rx,0,6,FF,FF,FE,7F,FF,AF,00,00,
1104129256,000002A7,false,Rx,0,5,34,FA,FE,FF,14,00,00,00,
1104130123,000001D6,false,Rx,0,2,F0,C0,00,00,00,00,00,00,
1104130316,00000349,false,Rx,0,5,FE,FF,D4,08,00,00,00,00,
1104130967,0000043D,false,Rx,0,8,0A,81,EE,FF,1E,47,01,F0,
1104131720,00000197,false,Rx,0,4,89,00,0E,C0,00,00,00,00,
1104132289,0000015F,false,Rx,0,8,F9,FC,00,7D,00,EE,00,7D,
1104132767,00000100,false,Rx,0,8,79,FA,7F,C0,5D,0C,80,70,
1104134335,0000013A,false,Rx,0,8,39,F0,00,00,00,0E,FF,FF,
1104135891,00000206,false,Rx,0,8,3B,27,66,FF,FF,FF,FF,FF,
1104136129,00000112,false,Rx,0,8,00,20,F1,0E,71,72,25,01,
1104136468,00000432,false,Rx,0,8,1C,EF,10,AA,9C,FF,00,FF,
1104136904,000000A5,false,Rx,0,8,0F,FD,FF,F7,7F,00,00,C1,
1104137029,000000AC,false,Rx,0,2,00,F0,00,00,00,00,00,00,
1104137267,000000D9,false,Rx,0,8,AB,FD,00,10,00,F0,7F,C8,
1104137505,000000F3,false,Rx,0,8,6D,0D,00,FF,F0,C0,FF,FF,
1104142210,00000254,false,Rx,0,8,FF,7F,FF,7F,FF,7F,FF,7F,
1104142444,000000EF,false,Rx,0,8,9E,FD,00,7D,21,00,7D,FF,
1104142569,00000258,false,Rx,0,2,11,11,00,00,00,00,00,00,
1104142808,00000100,false,Rx,0,8,24,FB,7F,C0,5D,0C,80,70,
1104142995,000001A1,false,Rx,0,5,C7,C1,00,00,8A,00,00,00,
1104143511,00000302,false,Rx,0,7,FF,FF,FF,7F,F8,FF,FF,00,
1104144331,0000059A,false,Rx,0,8,12,06,00,0A,1E,20,00,00,
1104145972,000007BD,false,Rx,0,8,00,00,00,C0,FF,C0,01,01,
1104146200,00000112,false,Rx,0,8,00,20,F1,0E,71,72,25,01,
1104146449,000007BE,false,Rx,0,8,05,00,00,00,00,00,00,E0,
1104146688,000002F5,false,Rx,0,8,72,0F,3E,29,22,0A,06,10,
1104147174,00000199,false,Rx,0,6,FF,FF,F2,7D,FF,BF,00,00,
1104147382,0000019A,false,Rx,0,6,FF,FF,F3,7E,FF,8F,00,00,
1104147589,0000019F,false,Rx,0,6,FF,FF,04,80,FF,AF,00,00,
1104151135,0000043C,false,Rx,0,8,FE,FE,FF,FF,FF,FF,FF,FF,
1104152286,0000015F,false,Rx,0,8,A4,FD,00,7D,00,EE,00,7D,
1104152730,00000100,false,Rx,0,8,AA,FC,7F,C0,5D,0C,80,70,
1104154276,0000013A,false,Rx,0,8,83,F2,00,00,00,0E,FF,FF,
1104156005,00000112,false,Rx,0,8,00,20,F1,0E,71,72,25,01,
1104156883,000000A5,false,Rx,0,8,E8,FE,FF,F7,7F,00,00,C1,
1104157008,000000AC,false,Rx,0,2,00,F0,00,00,00,00,00,00,
1104157256,000000D9,false,Rx,0,8,4C,FE,00,10,00,F0,7F,C8,
1104157494,000000F3,false,Rx,0,8,8A,0E,00,FF,F0,C0,FF,FF,
1104160523,00000297,false,Rx,0,7,0D,E7,F0,FF,F2,92,EA,00,
1104161726,00000197,false,Rx,0,4,06,01,0E,C0,00,00,00,00,
1104162202,00000254,false,Rx,0,8,FF,7F,FF,7F,FF,7F,FF,7F,
1104162440,000000EF,false,Rx,0,8,79,FE,00,7D,21,00,7D,FF,
1104162680,00000100,false,Rx,0,8,F7,FD,7F,C0,5D,0C,80,70,
1104162806,00000258,false,Rx,0,2,11,11,00,00,00,00,00,00,
1104162992,000001A1,false,Rx,0,5,E0,C3,00,00,8A,00,00,00,
1104165981,00000112,false,Rx,0,8,00,20,F1,0E,71,72,25,01,
1104167174,00000199,false,Rx,0,6,FF,FF,FC,7D,FF,BF,00,00,
1104167371,0000019A,false,Rx,0,6,FF,FF,F3,7E,FF,8F,00,00,
1104167578,0000019F,false,Rx,0,6,FF,FF,14,80,FF,AF,00,00,
1104169259,0000036E,false,Rx,0,5,AD,F6,66,02,14,00,00,00,
1104172287,0000015F,false,Rx,0,8,43,FE,00,7D,00,EE,00,7D,
1104172801,00000100,false,Rx,0,8,10,FE,7F,C0,5D,0C,80,70,
1104174334,0000013A,false,Rx,0,8,50,F4,00,00,00,0E,FF,FF,
1104175851,00000206,false,Rx,0,8,67,28,66,FF,FF,FF,FF,FF,
1104176090,00000112,false,Rx,0,8,00,20,F1,0E,71,72,25,01,
1104176813,000002F5,false,Rx,0,8,71,0F,60,29,22,0A,06,10,
1104177051,000000A5,false,Rx,0,8,E9,F0,FF,F7,7F,00,00,C1,
1104177291,000000D9,false,Rx,0,8,4D,F0,00,10,00,F0,7F,C8,
1104177426,000000AC,false,Rx,0,2,00,F0,00,00,00,00,00,00,
1104177663,000000F3,false,Rx,0,8,8B,00,00,FF,F0,C0,FF,FF,
1104177903,000002C4,false,Rx,0,8,00,00,FF,00,C8,64,FF,CF,
1104180147,0000021A,false,Rx,0,3,00,1C,F7,00,00,00,00,00,
1104180272,0000036A,false,Rx,0,2,F5,FF,00,00,00,00,00,00,
1104182206,00000254,false,Rx,0,8,FF,7F,FF,7F,FF,7F,FF,7F,
1104182440,000000EF,false,Rx,0,8,78,F0,00,7D,21,00,7D,FF,
1104182577,00000258,false,Rx,0,2,11,11,00,00,00,00,00,00,
1104182815,00000100,false,Rx,0,8,11,F0,7F,C0,5D,0C,80,70,
1104182991,000001A1,false,Rx,0,5,89,C5,00,00,8A,00,00,00,
1104183446,00000302,false,Rx,0,7,FF,FF,FF,7F,F8,FF,FF,00,
1104185491,0000038E,false,Rx,0,8,00,00,11,11,99,0E,83,F5,
1104185854,00000330,false,Rx,0,8,2E,CB,01,07,00,0F,2C,0D,
1104186093,00000112,false,Rx,0,8,00,20,F1,0E,71,72,25,01,
1104186331,00000356,false,Rx,0,8,65,70,03,FF,FF,FF,FF,FF,
1104186542,00000373,false,Rx,0,6,33,A1,05,78,F0,FF,00,00,
1104186812,00000439,false,Rx,0,8,FE,03,FF,FC,FF,44,C0,FE,
1104187195,00000199,false,Rx,0,6,FF,FF,10,7E,FF,BF,00,00,
1104187391,0000019A,false,Rx,0,6,FF,FF,F3,7E,FF,8F,00,00,
1104187598,0000019F,false,Rx,0,6,FF,FF,0B,80,FF,AF,00,00,
1104189037,0000012F,false,Rx,0,8,81,24,86,1C,F1,35,30,00,
1104191722,00000197,false,Rx,0,4,8A,02,0E,C0,00,00,00,00,
1104192292,0000015F,false,Rx,0,8,42,F0,00,7D,00,EE,00,7D,
1104192538,00000100,false,Rx,0,8,4C,F1,7F,C0,5D,0C,80,70,
1104194262,0000013A,false,Rx,0,8,EA,F6,00,00,00,0E,FF,FF,
1104194498,000002E8,false,Rx,0,8,C0,3D,C4,FF,FF,F0,FA,5A,
1104195304,000000A9,false,Rx,0,8,40,78,00,90,F1,00,00,FF,
1104195812,000003FD,false,Rx,0,5,0F,0A,00,00,FF,00,00,00,
1104196059,00000108,false,Rx,0,8,00,7D,FF,FF,07,F1,FF,FF,
1104196287,00000112,false,Rx,0,8,00,20,F1,0E,71,72,25,01,
1104196541,00000212,false,Rx,0,8,1F,FB,F9,FF,FF,FF,FF,FF,
1104196771,000007BD,false,Rx,0,8,01,2D,55,7F,49,4B,4B,00,
1104197009,000002DB,false,Rx,0,8,FF,FF,FF,FF,BF,FF,FF,FF,
1104197248,000000A5,false,Rx,0,8,B4,F1,FF,F7,7F,00,00,C1,
1104197383,000000AC,false,Rx,0,2,00,F0,00,00,00,00,00,00,
1104197621,000000D9,false,Rx,0,8,10,F1,00,10,00,F0,7F,C8,
1104197860,000000F3,false,Rx,0,8,D6,01,00,FF,F0,C0,FF,FF,
1104198099,000002F1,false,Rx,0,8,B4,0F,00,00,00,00,00,A0,
1104198348,000007BE,false,Rx,0,8,06,01,20,00,00,01,83,00,
1104202225,00000173,false,Rx,0,8,72,F0,00,0E,E0,00,DE,00,
1104202469,00000254,false,Rx,0,8,FF,7F,FF,7F,FF,7F,FF,7F,
1104202709,000000EF,false,Rx,0,8,25,F1,00,7D,21,00,7D,FF,
1104202938,00000100,false,Rx,0,8,AB,F2,7F,C0,5D,0C,80,70,
1104203125,000001A1,false,Rx,0,5,AE,C7,00,00,8A,00,00,00,
1104203249,00000258,false,Rx,0,2,11,11,00,00,00,00,00,00,
1104203539,00000163,false,Rx,0,8,FF,FF,17,A5,FF,FF,FF,FF,
1104204330,0000059A,false,Rx,0,8,11,00,00,03,64,64,28,00,
1104205207,000002A1,false,Rx,0,5,80,58,02,00,F8,00,00,00,
1104206003,00000112,false,Rx,0,8,00,20,F1,0E,71,72,25,01,
1104206231,000002F5,false,Rx,0,8,71,0F,60,29,22,0A,06,10,
1104207256,00000199,false,Rx,0,6,FF,FF,10,7E,FF,BF,00,00,
1104207463,0000019A,false,Rx,0,6,FF,FF,F3,7E,FF,8F,00,00,
1104207670,0000019F,false,Rx,0,6,FF,FF,2D,80,FF,AF,00,00,
1104209320,000002BB,false,Rx,0,5,6F,F8,00,00,F2,00,00,00,
1104209558,00000289,false,Rx,0,8,DB,F9,E0,FF,FD,00,EC,01,
1104209747,000002A7,false,Rx,0,5,A9,FB,FE,FF,14,00,00,00,
1104210386,000001AE,false,Rx,0,2,FB,FF,00,00,00,00,00,00,
1104212293,0000015F,false,Rx,0,8,1F,F1,00,7D,00,EE,00,7D,
1104212757,00000100,false,Rx,0,8,F6,F3,7F,C0,5D,0C,80,70,
1104214324,0000013A,false,Rx,0,8,EB,F8,00,00,00,0E,FF,FF,
1104214622,00000431,false,Rx,0,8,C6,FF,FF,FF,FF,4E,F4,4B,
1104215202,00000397,false,Rx,0,7,00,2A,00,6D,09,28,01,00,
1104215894,00000206,false,Rx,0,8,3A,29,66,FF,FF,FF,FF,FF,
1104216122,00000112,false,Rx,0,8,00,20,F1,0E,71,72,25,01,
1104216890,000000A5,false,Rx,0,8,53,F2,FF,F7,7F,00,00,C1,
1104217015,000000AC,false,Rx,0,2,00,F0,00,00,00,00,00,00,
1104217253,000000D9,false,Rx,0,8,F7,F2,00,10,00,F0,7F,C8,
1104217502,000000F3,false,Rx,0,8,31,02,00,FF,F0,C0,FF,FF,
1104221540,00000592,false,Rx,0,8,41,00,00,00,00,62,00,00,
1104221723,00000197,false,Rx,0,4,05,03,0E,C0,00,00,00,00,
1104222199,00000254,false,Rx,0,8,FF,7F,FF,7F,FF,7F,FF,7F,
1104222437,000000EF,false,Rx,0,8,C2,F2,00,7D,21,00,7D,FF,
1104222564,00000258,false,Rx,0,2,11,11,00,00,00,00,00,00,
1104222803,00000100,false,Rx,0,8,78,F4,7F,C0,5D,0C,80,70,
1104222979,000001A1,false,Rx,0,5,5B,C9,00,00,8A,00,00,00,
1104223444,00000302,false,Rx,0,7,FF,FF,FF,7F,F8,FF,FF,00,
1104225205,000002E6,false,Rx,0,8,00,64,64,32,0B,00,1F,20,
1104225412,000002B0,false,Rx,0,6,3B,44,00,C7,FF,FF,00,00,
1104225835,000002C5,false,Rx,0,7,75,FB,00,20,04,70,C8,00,
1104226063,00000112,false,Rx,0,8,00,20,F1,0E,71,72,25,01,
1104226208,000000C0,false,Rx,0,2,FE,40,00,00,00,00,00,00,
1104226457,0000003C,false,Rx,0,8,FF,5F,00,00,00,00,FF,FF,
1104226582,000002CA,false,Rx,0,2,6E,6E,00,00,00,00,00,00,
1104226790,000002F7,false,Rx,0,6,02,D8,8A,0B,11,F2,00,00,
1104227265,00000199,false,Rx,0,6,FF,FF,E8,7D,FF,BF,00,00,
1104227461,0000019A,false,Rx,0,6,FF,FF,F3,7E,FF,8F,00,00,
1104227667,0000019F,false,Rx,0,6,FF,FF,11,80,FF,AF,00,00,
1104228968,00000200,false,Rx,0,8,00,00,81,00,69,00,FA,FF,
1104232288,0000015F,false,Rx,0,8,F8,F2,00,7D,00,EE,00,7D,
1104232729,00000100,false,Rx,0,8,25,F5,7F,C0,5D,0C,80,70,
1104234267,0000013A,false,Rx,0,8,51,FA,00,00,00,0E,FF,FF,
1104235998,00000112,false,Rx,0,8,00,20,F1,0E,71,72,25,01,
1104236871,000000A5,false,Rx,0,8,0E,F3,FF,F7,7F,00,00,C1,
1104237007,000000AC,false,Rx,0,2,00,F0,00,00,00,00,00,00,
1104237245,000000D9,false,Rx,0,8,AA,F3,00,10,00,F0,7F,C8,
1104237483,000000F3,false,Rx,0,8,6C,03,00,FF,F0,C0,FF,FF,
1104242197,00000254,false,Rx,0,8,FF,7F,FF,7F,FF,7F,FF,7F,
1104242431,000000EF,false,Rx,0,8,9F,F3,00,7D,21,00,7D,FF,
1104242568,00000258,false,Rx,0,2,11,11,00,00,00,00,00,00,
1104242796,00000100,false,Rx,0,8,C1,F6,7F,C0,5D,0E,80,70,
1104242983,000001A1,false,Rx,0,5,7C,CB,00,00,8A,00,00,00,
1104245974,000007BD,false,Rx,0,8,00,00,00,C0,FF,C0,01,01,
1104246202,00000112,false,Rx,0,8,00,20,F1,0E,71,72,25,01,
1104246449,000007BE,false,Rx,0,8,07,37,03,B0,06,67,00,00,
1104247164,00000199,false,Rx,0,6,FF,FF,E8,7D,FF,BF,00,00,
1104247371,0000019A,false,Rx,0,6,FF,FF,F3,7E,FF,8F,00,00,
1104247578,0000019F,false,Rx,0,6,FF,FF,EB,7F,FF,AF,00,00,
1104247796,00000337,false,Rx,0,2,FF,FF,00,00,00,00,00,00,
1104248075,000003B4,false,Rx,0,8,00,00,0C,F0,98,FF,00,FF,
1104248700,000002E7,false,Rx,0,8,A4,C3,04,FF,5F,FF,00,00,
1104250259,00000314,false,Rx,0,3,30,00,FF,00,00,00,00,00,
1104251720,00000197,false,Rx,0,4,8F,04,0E,C0,00,00,00,00,
1104252287,0000015F,false,Rx,0,8,A5,F3,00,7D,00,EE,00,7D,
1104252545,00000100,false,Rx,0,8,9C,F7,7F,C0,5D,0E,80,70,
1104254335,0000013A,false,Rx,0,8,82,FC,00,00,00,0E,FF,FF,
1104255883,00000206,false,Rx,0,8,DD,2A,66,FF,FF,FF,FF,FF,
1104256121,00000112,false,Rx,0,8,00,20,F1,0E,71,72,25,01,
1104256855,000000A5,false,Rx,0,8,80,F4,FF,F7,7F,00,00,C1,
1104256991,000000AC,false,Rx,0,2,00,F0,00,00,00,00,00,00,
1104257229,000000D9,false,Rx,0,8,24,F4,00,10,00,F0,7F,C8,
1104257467,000000F3,false,Rx,0,8,E2,04,00,FF,F0,C0,FF,FF,
1104259006,000001E1,false,Rx,0,6,9D,F5,01,FF,FF,FF,00,00,
1104261838,000003B3,false,Rx,0,7,1F,00,FF,0F,00,F3,08,00,
1104262282,00000254,false,Rx,0,8,FF,7F,FF,7F,FF,7F,FF,7F,
1104262529,000000EF,false,Rx,0,8,11,F4,00,7D,21,00,7D,FF,
1104262654,00000258,false,Rx,0,2,11,11,00,00,00,00,00,00,
1104262893,00000100,false,Rx,0,8,C0,F8,7F,C0,5D,0E,80,70,
1104263080,000001A1,false,Rx,0,5,15,CD,00,00,8A,00,00,00,
1104263544,00000302,false,Rx,0,7,FF,FF,FF,7F,F8,FF,FF,00,
1104265982,00000112,false,Rx,0,8,00,20,F1,0E,71,72,25,01,
1104267186,00000199,false,Rx,0,6,FF,FF,E8,7D,FF,BF,00,00,
1104267393,0000019A,false,Rx,0,6,FF,FF,F3,7E,FF,8F,00,00,
1104267600,0000019F,false,Rx,0,6,FF,FF,04,80,FF,AF,00,00,
1104270735,0000036F,false,Rx,0,5,F2,F7,FE,FF,14,00,00,00,
1104272289,0000015F,false,Rx,0,8,2B,F4,00,7D,00,EE,00,7D,
1104272999,00000100,false,Rx,0,8,9D,F9,7F,C0,5D,0E,80,70,
1104274268,0000013A,false,Rx,0,8,38,FE,00,00,00,0E,FF,FF,
1104276081,00000112,false,Rx,0,8,00,20,F1,0E,71,72,25,01,
1104276320,00000239,false,Rx,0,8,FF,97,2F,FD,00,24,FF,FF,
1104276979,000002C4,false,Rx,0,8,00,00,FF,00,C8,64,FF,CF,
1104277218,000000A5,false,Rx,0,8,DD,F5,FF,F7,7F,00,00,C1,
1104277354,000000AC,false,Rx,0,2,00,F0,00,00,00,00,00,00,
1104277591,000000D9,false,Rx,0,8,79,F5,00,10,00,F0,7F,C8,
1104277831,000000F3,false,Rx,0,8,BF,05,00,FF,F0,C0,FF,FF,
1104278039,00000304,false,Rx,0,6,FF,FF,69,30,FF,FF,00,00,
1104278277,000003F9,false,Rx,0,8,31,F6,80,E0,41,3B,C3,FF,
1104281733,00000197,false,Rx,0,4,00,05,0E,C0,00,00,00,00,
1104282203,00000254,false,Rx,0,8,FF,7F,FF,7F,FF,7F,FF,7F,
1104282432,000000EF,false,Rx,0,8,4C,F5,00,7D,21,00,7D,FF,
1104282670,00000100,false,Rx,0,8,7A,FA,7F,C0,5D,0E,80,70,
1104282797,00000258,false,Rx,0,2,11,11,00,00,00,00,00,00,
1104282983,000001A1,false,Rx,0,5,5A,C0,00,00,8A,00,00,00,
1104285855,00000560,false,Rx,0,8,00,00,00,00,00,00,00,60,
1104286089,00000112,false,Rx,0,8,00,20,F1,0E,71,72,25,01,
1104286328,000003CA,false,Rx,0,8,7B,C0,25,07,07,81,FF,FF,
1104286597,000005E0,false,Rx,0,8,11,03,00,02,FF,FF,C0,00,
1104286826,000002F5,false,Rx,0,8,71,0F,60,29,22,0A,06,10,
1104287169,00000199,false,Rx,0,6,FF,FF,D4,7D,FF,BF,00,00,
1104287375,0000019A,false,Rx,0,6,FF,FF,F3,7E,FF,8F,00,00,
1104287582,0000019F,false,Rx,0,6,FF,FF,F2,7F,FF,AF,00,00,
1104287944,00000272,false,Rx,0,8,D2,F6,FC,02,FF,FF,FF,FF,
1104289027,0000012F,false,Rx,0,8,DC,25,86,1C,F1,35,30,00,
1104289275,000002A7,false,Rx,0,5,5D,FC,FE,FF,14,00,00,00,
1104292288,0000015F,false,Rx,0,8,76,F5,00,7D,00,EE,00,7D,
1104292739,00000100,false,Rx,0,8,27,FB,7F,C0,5D,0E,80,70,
1104294335,0000013A,false,Rx,0,8,64,F1,00,00,00,0E,FF,FF,
1104294822,000002E8,false,Rx,0,8,C0,47,C4,FF,FF,F0,FB,AD,
1104295276,000000A9,false,Rx,0,8,40,78,00,90,F1,00,00,FF,
1104295794,000003FD,false,Rx,0,5,92,0B,00,00,FF,00,00,00,
1104296041,00000108,false,Rx,0,8,00,7D,FF,FF,07,F1,FF,FF,
1104296271,00000112,false,Rx,0,8,00,20,F1,0E,71,72,25,01,
1104296515,00000201,false,Rx,0,8,FF,FF,FF,FF,FF,FF,FF,FF,
1104296765,000007BD,false,Rx,0,8,04,00,00,00,00,00,00,80,
1104297014,00000206,false,Rx,0,8,80,2B,66,FF,FF,FF,FF,FF,
1104297253,000000A5,false,Rx,0,8,3A,F6,FF,F7,7F,00,00,C1,
1104297378,000000AC,false,Rx,0,2,00,F0,00,00,00,00,00,00,
1104297615,000000D9,false,Rx,0,8,9E,F6,00,10,00,F0,7F,C8,
1104297855,000000F3,false,Rx,0,8,58,06,00,FF,F0,C0,FF,FF,
1104298104,00000212,false,Rx,0,8,91,FC,F9,FF,FF,FF,FF,FF,
1104298352,000007BE,false,Rx,0,8,0B,00,00,00,00,00,00,00,
1104298594,000002DB,false,Rx,0,8,FF,FF,FF,FF,BF,FF,FF,FF,
1104298844,000002F1,false,Rx,0,8,B4,0F,00,00,00,00,00,A0,
1104299102,000002FA,false,Rx,0,8,FD,FF,00,FF,FF,FF,FF,FF,
1104299352,0000032B,false,Rx,0,8,FF,FF,FF,FF,FF,FF,00,FF,
1104299590,00000331,false,Rx,0,8,FF,FF,FF,EF,7F,FE,F7,FF,
1104299840,000003AD,false,Rx,0,8,00,F0,FF,FF,FF,FF,FF,F1,
1104299986,000003E8,false,Rx,0,2,F1,FF,00,00,00,00,00,00,
1104300245,000003E9,false,Rx,0,8,08,52,00,00,00,00,00,00,
1104302204,00000173,false,Rx,0,8,1A,FA,00,0E,E0,00,DE,00,
1104302449,00000254,false,Rx,0,8,FF,7F,FF,7F,FF,7F,FF,7F,
1104302687,000000EF,false,Rx,0,8,AB,F6,00,7D,21,00,7D,FF,
1104302917,00000100,false,Rx,0,8,A9,FC,7F,C0,5D,0E,80,70,
1104303103,000001A1,false,Rx,0,5,7D,C2,00,00,8A,00,00,00,
1104303229,00000258,false,Rx,0,2,11,11,00,00,00,00,00,00,
1104303620,00000163,false,Rx,0,8,FF,FF,1A,A5,FF,FF,FF,FF,
1104303849,00000302,false,Rx,0,7,FF,FF,FF,7F,F8,FF,FF,00,
1104305208,000002A1,false,Rx,0,5,80,58,02,00,F8,00,00,00,
1104306065,00000112,false,Rx,0,8,00,20,F1,0E,71,72,25,01,
1104307199,00000199,false,Rx,0,6,FF,FF,DE,7D,FF,BF,00,00,
1104307396,0000019A,false,Rx,0,6,FF,FF,F3,7E,FF,8F,00,00,
1104307603,0000019F,false,Rx,0,6,FF,FF,EA,7F,FF,2F,00,00,
1104307833,00000301,false,Rx,0,7,FF,FF,FF,7F,FF,FF,8F,00,
1104309361,000002BB,false,Rx,0,5,49,F3,00,00,F2,00,00,00,
1104309608,00000289,false,Rx,0,8,3C,FA,E0,FF,FD,00,EC,01,
1104310394,000001AE,false,Rx,0,2,FB,FF,00,00,00,00,00,00,
1104310859,0000031C,false,Rx,0,8,FF,FF,FF,FF,FF,FF,FF,FF,
1104311066,0000033B,false,Rx,0,6,00,FF,FF,FF,FF,FF,00,00,
1104311294,000003A7,false,Rx,0,7,1A,F2,00,00,1F,11,F0,00,
1104311532,000001D0,false,Rx,0,8,D6,F2,DF,FF,FF,FF,FF,FF,
1104311668,000003E6,false,Rx,0,2,59,00,00,00,00,00,00,00,
1104311824,00000197,false,Rx,0,4,8C,06,0E,C0,00,00,00,00,
1104312010,000001B9,false,Rx,0,5,FF,FF,FF,14,FF,00,00,00,
1104312299,0000015F,false,Rx,0,8,91,F6,00,7D,00,EE,00,7D,
1104312579,00000100,false,Rx,0,8,F4,FD,7F,C0,5D,0E,80,70,
1104314261,0000013A,false,Rx,0,8,DE,F3,00,00,00,0E,FF,FF,
1104315167,000002ED,false,Rx,0,3,61,03,02,00,00,00,00,00,
1104315982,00000112,false,Rx,0,8,00,20,F1,0E,71,72,25,01,
1104316919,000000A5,false,Rx,0,8,67,F7,FF,F7,7F,00,00,C1,
1104317045,000000AC,false,Rx,0,2,00,F0,00,00,00,00,00,00,
1104317282,000000D9,false,Rx,0,8,C3,F7,00,10,00,F0,7F,C8,
1104317531,000000F3,false,Rx,0,8,05,07,00,FF,F0,C0,FF,FF,
1104322201,00000254,false,Rx,0,8,FF,7F,FF,7F,FF,7F,FF,7F,
1104322426,000000EF,false,Rx,0,8,F6,F7,00,7D,21,00,7D,FF,
1104322562,00000258,false,Rx,0,2,11,11,00,00,00,00,00,00,
1104322790,00000100,false,Rx,0,8,13,FE,7F,C0,5D,0E,80,70,
1104322977,000001A1,false,Rx,0,5,14,C4,00,00,8A,00,00,00,
1104325215,000002B0,false,Rx,0,6,3B,44,00,C8,FF,FF,00,00,
1104325465,0000021F,false,Rx,0,8,FF,FF,FF,FF,FF,FF,FF,FF,
1104325828,000002C5,false,Rx,0,7,BA,FC,00,20,04,70,C8,00,
1104326066,00000112,false,Rx,0,8,00,20,F1,0E,71,72,25,01,
1104326318,0000003C,false,Rx,0,8,FF,5F,00,00,00,00,FF,FF,
1104326546,00000431,false,Rx,0,8,C6,FF,FF,FF,FF,4E,F4,4B,
1104327167,00000199,false,Rx,0,6,FF,FF,CA,7D,FF,BF,00,00,
1104327363,0000019A,false,Rx,0,6,FF,FF,F3,7E,FF,8F,00,00,
1104327581,0000019F,false,Rx,0,6,FF,FF,FA,7F,FF,2F,00,00,
1104329245,0000036E,false,Rx,0,5,30,F7,66,02,14,00,00,00,
1104330236,00000349,false,Rx,0,5,FE,FF,D4,08,00,00,00,00,
1104332285,0000015F,false,Rx,0,8,CC,F7,00,7D,00,EE,00,7D,
1104332768,00000100,false,Rx,0,8,12,F0,7F,C0,5D,0E,80,70,
1104334331,0000013A,false,Rx,0,8,0D,F5,00,00,00,0E,FF,FF,
1104335828,0000055E,false,Rx,0,8,00,00,00,00,00,00,00,5E,
1104336066,00000112,false,Rx,0,8,00,20,F1,0E,71,72,25,01,
1104336305,00000206,false,Rx,0,8,0E,2C,66,FF,FF,FF,FF,FF,
1104336536,00000432,false,Rx,0,8,1C,EF,10,AA,9C,FF,00,FF,
1104336941,000000A5,false,Rx,0,8,3B,F8,FF,F7,7F,00,00,C1,
1104337066,000000AC,false,Rx,0,2,00,F0,00,00,00,00,00,00,
1104337313,000000D9,false,Rx,0,8,9F,F8,00,10,00,F0,7F,C8,
1104337552,000000F3,false,Rx,0,8,59,08,00,FF,F0,C0,FF,FF,
1104340145,0000021A,false,Rx,0,3,00,1C,F7,00,00,00,00,00,
1104340279,0000036A,false,Rx,0,2,F5,FF,00,00,00,00,00,00,
1104341730,00000197,false,Rx,0,4,03,07,0E,C0,00,00,00,00,
1104342195,00000254,false,Rx,0,8,FF,7F,FF,7F,FF,7F,FF,7F,
1104342432,000000EF,false,Rx,0,8,AA,F8,00,7D,21,00,7D,FF,
1104342670,00000100,false,Rx,0,8,4F,F1,7F,C0,5D,0E,80,70,
1104342797,00000258,false,Rx,0,2,11,11,00,00,00,00,00,00,
1104342983,000001A1,false,Rx,0,5,33,C6,00,00,8A,00,00,00,
1104343438,00000302,false,Rx,0,7,FF,FF,FF,7F,F8,FF,FF,00,
1104345967,000007BD,false,Rx,0,8,00,00,00,C0,FF,C0,01,01,
1104346207,00000112,false,Rx,0,8,00,20,F1,0E,71,72,25,01,
1104346453,000007BE,false,Rx,0,8,05,00,00,00,00,00,00,E0,
1104347166,00000199,false,Rx,0,6,FF,FF,CA,7D,FF,BF,00,00,
1104347363,0000019A,false,Rx,0,6,FF,FF,F3,7E,FF,8F,00,00,
1104347580,0000019F,false,Rx,0,6,FF,FF,FB,7F,FF,2F,00,00,
1104351329,000002F9,false,Rx,0,7,00,00,00,08,AA,C0,F3,00,
1104352308,0000015F,false,Rx,0,8,90,F8,00,7D,00,EE,00,7D,
1104352659,00000100,false,Rx,0,8,A8,F2,7F,C0,5D,0E,80,70,
1104354256,0000013A,false,Rx,0,8,B7,F7,00,00,00,0E,FF,FF,
1104355542,000003D8,false,Rx,0,8,A0,FF,FF,FF,FF,FF,FF,FF,
1104355998,00000112,false,Rx,0,8,00,20,F1,0E,71,72,25,01,
1104356237,000001FA,false,Rx,0,8,45,45,45,F0,43,42,43,43,
1104356930,000000A5,false,Rx,0,8,66,F9,FF,F7,7F,00,00,C1,
1104357055,000000AC,false,Rx,0,2,00,F0,00,00,00,00,00,00,
1104357292,000000D9,false,Rx,0,8,C2,F9,00,10,00,F0,7F,C8,
1104357536,000000F3,false,Rx,0,8,04,09,00,FF,F0,C0,FF,FF,
1104360513,00000297,false,Rx,0,7,C8,E8,F0,FF,F2,92,EA,00,
1104362190,00000254,false,Rx,0,8,FF,7F,FF,7F,FF,7F,FF,7F,
1104362429,000000EF,false,Rx,0,8,F7,F9,00,7D,21,00,7D,FF,
1104362555,00000258,false,Rx,0,2,11,11,00,00,00,00,00,00,
1104362793,00000100,false,Rx,0,8,F5,F3,7F,C0,5D,0E,80,70,
1104362969,000001A1,false,Rx,0,5,C6,C8,00,00,8A,00,00,00,
1104364242,0000059A,false,Rx,0,8,11,00,00,03,64,64,28,00,
1104365981,00000112,false,Rx,0,8,00,20,F1,0E,71,72,25,01,
1104366693,00000363,false,Rx,0,8,3C,D3,EA,07,FF,FF,FF,FF,
1104367159,00000199,false,Rx,0,6,FF,FF,E8,7D,FF,BF,00,00,
1104367366,0000019A,false,Rx,0,6,FF,FF,F3,7E,FF,8F,00,00,
1104367575,0000019F,false,Rx,0,6,FF,FF,E8,7F,FF,2F,00,00,
1104368216,0000034A,false,Rx,0,8,BB,A2,9C,FD,C2,E3,E4,27,
1104369270,000002A7,false,Rx,0,5,C0,FD,FE,FF,14,00,00,00,
1104371723,00000197,false,Rx,0,4,85,08,0E,C0,00,00,00,00,
1104372287,0000015F,false,Rx,0,8,CD,F9,00,7D,00,EE,00,7D,
1104372546,00000100,false,Rx,0,8,7B,F4,7F,C0,5D,0E,80,70,
1104374369,0000013A,false,Rx,0,8,B6,F9,00,00,00,0E,FF,FF,
1104374629,00000239,false,Rx,0,8,81,95,2F,FD,00,24,FF,FF,
1104375908,00000206,false,Rx,0,8,53,2D,66,FF,FF,FF,FF,FF,
1104376137,00000112,false,Rx,0,8,00,20,F1,0E,71,72,25,01,
1104376964,000002C4,false,Rx,0,8,00,00,FF,00,C8,64,FF,CF,
