Time Stamp,ID,Extended,Dir,Bus,LEN,D1,D2,D3,D4,D5,D6,D7,D8
28275210,000001AE,false,Rx,0,2,F7,FF,00,00,00,00,00,00,
28275728,0000013A,false,Rx,0,8,38,FE,00,00,00,0E,FF,FF,
28276009,000000C3,false,Rx,0,8,1B,7D,00,40,00,7D,FF,FF,
28277349,00000112,false,Rx,0,8,FA,1F,B1,0D,C6,71,05,58,
28279053,00000199,false,Rx,0,6,FF,FF,4E,7F,FF,3F,00,00,
28279258,0000019A,false,Rx,0,6,FF,FF,8A,7F,FF,3F,00,00,
28279465,0000019F,false,Rx,0,6,FF,FF,ED,7F,FF,2F,00,00,
28279715,00000254,false,Rx,0,8,FF,7F,FF,7F,FF,7F,FF,7F,
28279840,00000258,false,Rx,0,2,11,11,00,00,00,00,00,00,
28280077,00000302,false,Rx,0,7,FF,FF,D4,80,FE,FF,FF,00,
28281339,000002BB,false,Rx,0,5,37,F0,04,0A,F2,00,00,00,
28281577,00000289,false,Rx,0,8,09,F1,E0,FF,FD,00,EC,01,
28282971,00000100,false,Rx,0,8,FD,FA,7F,C0,5D,D9,86,70,
28283137,00000197,false,Rx,0,4,8C,06,0E,C0,00,00,00,00,
28283643,0000043D,false,Rx,0,8,0A,BF,E6,FF,51,28,80,50,
28284242,000000A5,false,Rx,0,8,E8,FE,FF,F7,7F,00,00,C1,
28284481,000000EF,false,Rx,0,8,E9,F6,00,7D,21,FF,7C,FF,
28284720,000000D9,false,Rx,0,8,A4,FE,00,10,00,F0,7F,C0,
28284856,000000AC,false,Rx,0,2,00,F0,00,00,00,00,00,00,
28285094,000000F3,false,Rx,0,8,8A,0E,00,FF,F0,C0,FF,FF,
28285278,000001A1,false,Rx,0,5,5A,C0,00,00,8A,00,00,00,
28285516,00000140,false,Rx,0,8,58,60,40,9C,00,00,94,FF,
28285755,00000141,false,Rx,0,8,49,70,40,9C,00,00,F4,FF,
28285995,000000C3,false,Rx,0,8,FC,7E,00,40,00,7D,FF,FF,
28286253,00000201,false,Rx,0,8,C6,24,D0,4B,FF,FF,FF,FF,
28287351,00000112,false,Rx,0,8,FA,1F,B1,0D,C6,71,05,58,
28287580,00000458,false,Rx,0,8,23,33,AA,7E,83,CB,4D,8B,
28287830,00000431,false,Rx,0,8,CA,FD,FF,FF,FF,99,F7,00,
28291284,000002A7,false,Rx,0,5,12,F1,FE,FF,14,00,00,00,
28292756,00000100,false,Rx,0,8,A0,FB,7F,C0,5D,D9,86,70,
28293886,000000C0,false,Rx,0,2,F3,40,00,00,00,00,00,00,
28294133,0000003C,false,Rx,0,8,FF,5F,00,02,00,00,FF,FF,
28294373,0000015F,false,Rx,0,8,CC,F7,00,7D,00,EE,00,7D,
28294746,00000337,false,Rx,0,2,FF,FF,00,00,00,00,00,00,
28295034,000003B4,false,Rx,0,8,00,00,0C,F0,98,FF,00,00,
28295947,000000C3,false,Rx,0,8,FD,70,00,40,00,7D,FF,FF,
28296349,0000013A,false,Rx,0,8,64,F1,00,00,00,0E,FF,FF,
28297370,00000112,false,Rx,0,8,FA,1F,B1,0D,C6,71,05,58,
28297608,00000432,false,Rx,0,8,1C,DB,15,BD,56,7C,01,BC,
28299053,00000199,false,Rx,0,6,FF,FF,4E,7F,FF,3F,00,00,
28299260,0000019A,false,Rx,0,6,FF,FF,76,7F,FF,3F,00,00,
28299469,0000019F,false,Rx,0,6,FF,FF,0F,80,FF,2F,00,00,
28299709,00000254,false,Rx,0,8,FF,7F,FF,7F,FF,7F,FF,7F,
28299834,00000258,false,Rx,0,2,11,11,00,00,00,00,00,00,
28302967,00000100,false,Rx,0,8,2E,FC,7F,C0,5D,D9,86,70,
28303500,0000043C,false,Rx,0,8,FE,FE,FF,FF,FF,FF,FF,FF,
28304253,000000A5,false,Rx,0,8,E9,F0,FF,F7,7F,00,00,C1,
28304482,000000EF,false,Rx,0,8,B4,F7,00,7D,21,FF,7C,FF,
28304721,000000D9,false,Rx,0,8,A5,F0,00,10,00,F0,7F,C0,
28304857,000000AC,false,Rx,0,2,00,F0,00,00,00,00,00,00,
28305095,000000F3,false,Rx,0,8,8B,00,00,FF,F0,C0,FF,FF,
28305282,000001A1,false,Rx,0,5,7D,C2,00,00,8A,00,00,00,
28305517,00000140,false,Rx,0,8,E2,62,40,9C,00,00,94,FF,
28305756,00000141,false,Rx,0,8,F3,72,40,9C,00,00,F4,FF,
28305996,00000206,false,Rx,0,8,19,2C,81,FF,FF,FF,FF,FF,
28306254,000000C3,false,Rx,0,8,A0,71,00,40,00,7D,FF,FF,
28307349,00000112,false,Rx,0,8,FA,1F,B1,0D,C6,71,05,58,
28310712,000007BE,false,Rx,0,8,0B,00,00,00,00,00,00,00,
28312905,00000100,false,Rx,0,8,73,FD,7F,C0,5D,D9,86,70,
28313068,00000197,false,Rx,0,4,03,07,0E,C0,00,00,00,00,
28314367,0000015F,false,Rx,0,8,90,F8,00,7D,00,EE,00,7D,
28314884,000001E1,false,Rx,0,6,BD,F0,55,FF,FF,FF,00,00,
28315677,0000013A,false,Rx,0,8,DE,F3,00,00,00,0E,FF,FF,
28315949,000000C3,false,Rx,0,8,47,72,00,40,00,7D,FF,FF,
28317339,00000112,false,Rx,0,8,FA,1F,B1,0D,C6,71,05,58,
28317587,000001FA,false,Rx,0,8,41,65,45,70,4B,4D,4A,4C,
28319051,00000199,false,Rx,0,6,FF,FF,58,7F,FF,3F,00,00,
28319258,0000019A,false,Rx,0,6,FF,FF,58,7F,FF,3F,00,00,
28319465,0000019F,false,Rx,0,6,FF,FF,F1,7F,FF,2F,00,00,
28319715,00000254,false,Rx,0,8,FF,7F,FF,7F,FF,7F,FF,7F,
28319841,00000258,false,Rx,0,2,11,11,00,00,00,00,00,00,
28320078,00000302,false,Rx,0,7,FF,FF,D4,80,FE,FF,FF,00,
28320955,0000051A,false,Rx,0,8,00,00,00,00,50,00,00,1A,
28322986,00000100,false,Rx,0,8,94,FE,7F,C0,5D,D9,86,70,
28324188,000002C4,false,Rx,0,8,00,00,FF,00,C8,64,FF,CF,
28324428,000000A5,false,Rx,0,8,B4,F1,FF,F7,7F,00,00,C1,
28324553,000000AC,false,Rx,0,2,00,F0,00,00,00,00,00,00,
28324801,000000D9,false,Rx,0,8,F8,F1,00,10,00,F0,7F,C0,
28325043,000000EF,false,Rx,0,8,E8,F8,00,7D,21,FF,7C,FF,
28325281,000000F3,false,Rx,0,8,D6,01,00,FF,F0,C0,FF,FF,
28325519,00000140,false,Rx,0,8,31,64,40,9C,00,00,94,FF,
28325748,00000141,false,Rx,0,8,20,74,40,9C,00,00,F4,FF,
28325998,00000108,false,Rx,0,8,00,7D,FF,FF,07,F1,FF,FF,
28326174,000001A1,false,Rx,0,5,14,C4,00,00,8A,00,00,00,
28326401,000002C5,false,Rx,0,7,AB,F6,00,60,06,70,C8,00,
28326589,000003FD,false,Rx,0,5,FA,04,00,00,FF,00,00,00,
28326838,000000C3,false,Rx,0,8,1A,73,00,40,00,7D,FF,FF,
28327078,00000212,false,Rx,0,8,90,F2,F9,FF,FF,FF,FF,FF,
28327338,000002DB,false,Rx,0,8,FF,FF,FF,FF,BF,FF,FF,FF,
28327566,00000112,false,Rx,0,8,FA,1F,B1,0D,C6,71,05,58,
28327805,000002F1,false,Rx,0,8,36,10,7D,00,00,00,00,A0,
28328044,00000363,false,Rx,0,8,DA,76,EE,0A,FF,FF,FF,FF,
28331277,0000036E,false,Rx,0,5,54,F1,FE,FF,14,00,00,00,
28332882,00000100,false,Rx,0,8,95,F0,7F,C0,5D,D9,86,70,
28334363,0000015F,false,Rx,0,8,CD,F9,00,7D,00,EE,00,7D,
28334890,00000272,false,Rx,0,8,19,FB,00,12,FF,FF,FF,FF,
28335962,000000C3,false,Rx,0,8,94,74,00,40,00,7D,FF,FF,
28336211,00000201,false,Rx,0,8,D0,24,DA,4B,FF,FF,FF,FF,
28336449,0000013A,false,Rx,0,8,0D,F5,00,00,00,0E,FF,FF,
28337349,00000112,false,Rx,0,8,FA,1F,B1,0D,C6,71,05,58,
28339051,00000199,false,Rx,0,6,FF,FF,58,7F,FF,3F,00,00,
28339268,0000019A,false,Rx,0,6,FF,FF,80,7F,FF,3F,00,00,
28339475,0000019F,false,Rx,0,6,FF,FF,2D,80,FF,2F,00,00,
28339715,00000254,false,Rx,0,8,FF,7F,FF,7F,FF,7F,FF,7F,
28339850,00000258,false,Rx,0,2,11,11,00,00,00,00,00,00,
28342869,00000100,false,Rx,0,8,C8,F1,7F,C0,5D,D9,86,70,
28343025,00000197,false,Rx,0,4,85,08,0E,C0,00,00,00,00,
28344353,000000EF,false,Rx,0,8,B5,F9,00,7D,21,FF,7C,FF,
28344601,000000A5,false,Rx,0,8,53,F2,FF,F7,7F,00,00,C1,
28344728,000000AC,false,Rx,0,2,00,F0,00,00,00,00,00,00,
28344976,000000D9,false,Rx,0,8,1F,F2,00,10,00,F0,7F,C0,
28345214,000000F3,false,Rx,0,8,31,02,00,FF,F0,C0,FF,FF,
28345436,0000012F,false,Rx,0,8,67,29,86,1C,F1,35,30,00,
28345674,00000140,false,Rx,0,8,8B,66,40,9C,00,00,94,FF,
28345904,00000141,false,Rx,0,8,9A,76,40,9C,00,00,F4,FF,
28346091,000001A1,false,Rx,0,5,33,C6,00,00,8A,00,00,00,
28346329,00000206,false,Rx,0,8,02,2D,80,FF,FF,FF,FF,FF,
28346568,000002E8,false,Rx,0,8,C0,E8,C3,FF,FF,F4,F1,14,
28346807,000000C3,false,Rx,0,8,C9,75,00,40,00,7D,FF,FF,
28347386,000001B6,false,Rx,0,7,51,81,02,04,77,C1,F0,00,
28347614,00000112,false,Rx,0,8,FA,1F,B1,0D,C6,71,05,58,
28348028,000002F5,false,Rx,0,8,BE,0F,60,29,22,0A,06,10,
28352288,0000036F,false,Rx,0,5,21,F2,FE,FF,14,00,00,00,
28352914,00000100,false,Rx,0,8,2F,F2,7F,C0,5D,D9,86,70,
28353997,00000163,false,Rx,0,8,FF,FF,EB,24,FF,FF,FF,FF,
28354226,00000173,false,Rx,0,8,DC,F3,00,0E,30,00,DE,10,
28354475,0000015F,false,Rx,0,8,2A,FA,00,7D,00,EE,00,7D,
28355692,0000013A,false,Rx,0,8,B7,F7,00,00,00,0E,FF,FF,
28355942,000000C3,false,Rx,0,8,2E,76,00,40,00,7D,FF,FF,
28357346,00000112,false,Rx,0,8,FA,1F,B1,0D,C6,71,05,58,
28359054,00000199,false,Rx,0,6,FF,FF,44,7F,FF,3F,00,00,
28359271,0000019A,false,Rx,0,6,FF,FF,6C,7F,FF,3F,00,00,
28359478,0000019F,false,Rx,0,6,FF,FF,F8,7F,FF,2F,00,00,
28359729,00000254,false,Rx,0,8,FF,7F,FF,7F,FF,7F,FF,7F,
28359854,00000258,false,Rx,0,2,11,11,00,00,00,00,00,00,
28360081,00000302,false,Rx,0,7,FF,FF,D4,80,FE,FF,FF,00,
28360758,000007BD,false,Rx,0,8,00,00,00,40,FF,C0,01,08,
28361027,000007BE,false,Rx,0,8,0C,41,04,69,00,00,00,00,
28362996,00000100,false,Rx,0,8,72,F3,7F,C0,5D,D9,86,70,
28364255,000000A5,false,Rx,0,8,0E,F3,FF,F7,7F,00,00,C1,
28364491,000000EF,false,Rx,0,8,52,FA,00,7D,21,FF,7C,FF,
28364731,000000D9,false,Rx,0,8,42,F3,00,10,00,F0,7F,C0,
28364856,000000AC,false,Rx,0,2,00,F0,00,00,00,00,00,00,
28365104,000000F3,false,Rx,0,8,6C,03,00,FF,F0,C0,FF,FF,
28365281,000001A1,false,Rx,0,5,C6,C8,00,00,8A,00,00,00,
28365518,00000140,false,Rx,0,8,8A,68,40,9C,00,00,94,FF,
28365749,00000141,false,Rx,0,8,9B,78,40,9C,00,00,F4,FF,
28365987,000000C3,false,Rx,0,8,73,77,00,40,00,7D,FF,FF,
28367349,00000112,false,Rx,0,8,FA,1F,B1,0D,C6,71,05,58,
28371277,000002A7,false,Rx,0,5,A8,F2,FE,FF,14,00,00,00,
28372872,00000100,false,Rx,0,8,FC,F4,7F,C0,5D,D9,86,70,
28373038,00000197,false,Rx,0,4,0A,09,0E,C0,00,00,00,00,
28374356,0000015F,false,Rx,0,8,77,FB,00,7D,00,EE,00,7D,
28375182,000001AE,false,Rx,0,2,F7,FF,00,00,00,00,00,00,
28375964,000000C3,false,Rx,0,8,2F,78,00,40,00,7D,FF,FF,
28376346,0000013A,false,Rx,0,8,B6,F9,00,00,00,0E,FF,FF,
28377356,00000112,false,Rx,0,8,FA,1F,B1,0D,C6,71,05,58,
28379048,00000199,false,Rx,0,6,FF,FF,62,7F,FF,3F,00,00,
28379255,0000019A,false,Rx,0,6,FF,FF,6C,7F,FF,3F,00,00,
28379472,0000019F,false,Rx,0,6,FF,FF,F3,7F,FF,2F,00,00,
28379722,00000254,false,Rx,0,8,FF,7F,FF,7F,FF,7F,FF,7F,
28379847,00000258,false,Rx,0,2,11,11,00,00,00,00,00,00,
28381341,000002BB,false,Rx,0,5,8C,FA,04,0A,F2,00,00,00,
28381580,00000289,false,Rx,0,8,EE,F2,E0,FF,FD,00,EC,01,
28382964,00000100,false,Rx,0,8,A1,F5,7F,C0,5D,D9,86,70,
28384232,000000A5,false,Rx,0,8,80,F4,FF,F7,7F,00,00,C1,
28384470,000000EF,false,Rx,0,8,0F,FB,00,7D,21,FF,7C,FF,
28384606,000000AC,false,Rx,0,2,00,F0,00,00,00,00,00,00,
28384844,000000D9,false,Rx,0,8,CC,F4,00,10,00,F0,7F,C0,
28385083,000000F3,false,Rx,0,8,E2,04,00,FF,F0,C0,FF,FF,
28385270,000001A1,false,Rx,0,5,E1,CA,00,00,8A,00,00,00,
28385503,00000140,false,Rx,0,8,30,6A,40,9C,00,00,94,FF,
28385744,00000141,false,Rx,0,8,21,7A,40,9C,00,00,F4,FF,
28385982,00000206,false,Rx,0,8,E5,2E,80,FF,FF,FF,FF,FF,
28386220,000003C0,false,Rx,0,8,DD,DD,DD,FD,FF,FF,FF,FF,
28386459,000000C3,false,Rx,0,8,72,79,00,40,00,7D,FF,FF,
28386709,00000201,false,Rx,0,8,D9,24,E3,4B,FF,FF,FF,FF,
28387359,00000112,false,Rx,0,8,FA,1F,B1,0D,C6,71,05,58,
28392353,0000031C,false,Rx,0,8,FF,FF,FF,FF,FF,FF,FF,FF,
28392546,0000033B,false,Rx,0,6,CA,F0,DC,FF,FF,FF,00,00,
28392796,00000100,false,Rx,0,8,46,F6,7F,C0,5D,D9,86,70,
28394033,0000003C,false,Rx,0,8,FF,5F,00,02,00,00,FF,FF,
28394365,0000015F,false,Rx,0,8,F9,FC,00,7D,00,EE,00,7D,
28395936,000000C3,false,Rx,0,8,95,7A,00,40,00,7D,FF,FF,
28396349,0000013A,false,Rx,0,8,0C,FB,00,00,00,0E,FF,FF,
28397400,00000112,false,Rx,0,8,FA,1F,B2,0D,C6,71,05,58,
28399057,00000199,false,Rx,0,6,FF,FF,58,7F,FF,3F,00,00,
28399264,0000019A,false,Rx,0,6,FF,FF,76,7F,FF,3F,00,00,
28399461,0000019F,false,Rx,0,6,FF,FF,18,80,FF,2F,00,00,
28399711,00000254,false,Rx,0,8,FF,7F,FF,7F,FF,7F,FF,7F,
28399837,00000258,false,Rx,0,2,11,11,00,00,00,00,00,00,
28400074,00000302,false,Rx,0,7,FF,FF,D4,80,FE,FF,FF,00,
28402327,00000297,false,Rx,0,7,D1,E2,F0,EC,F2,92,EA,00,
28402964,00000100,false,Rx,0,8,1B,F7,7F,C0,5D,D9,86,70,
28403140,00000197,false,Rx,0,4,86,0A,0E,C0,00,00,00,00,
28404244,000000A5,false,Rx,0,8,DD,F5,FF,F7,7F,00,00,C1,
28404492,000000EF,false,Rx,0,8,81,FC,00,7D,21,FF,7C,FF,
28404732,000000D9,false,Rx,0,8,91,F5,00,10,00,F0,7F,C0,
28404867,000000AC,false,Rx,0,2,00,F0,00,00,00,00,00,00,
28405105,000000F3,false,Rx,0,8,BF,05,00,FF,F0,C0,FF,FF,
28405282,000001A1,false,Rx,0,5,88,CC,00,00,8A,00,00,00,
28405520,00000140,false,Rx,0,8,E3,6C,40,9C,00,00,94,FF,
28405760,00000141,false,Rx,0,8,F2,7C,40,9C,00,00,F4,FF,
28405998,000000C3,false,Rx,0,8,C8,7B,00,40,00,7D,FF,FF,
28406247,00000314,false,Rx,0,3,50,00,FF,00,00,00,00,00,
28407383,00000112,false,Rx,0,8,FA,1F,B2,0D,C6,71,05,58,
28410710,000007BE,false,Rx,0,8,00,C0,FA,1C,02,00,00,00,
28412893,00000100,false,Rx,0,8,47,F8,7F,C0,5D,D9,86,70,
28414364,0000015F,false,Rx,0,8,A4,FD,00,7D,00,EE,00,7D,
28415969,000000C3,false,Rx,0,8,46,7C,00,40,00,7D,FF,FF,
28416351,0000013A,false,Rx,0,8,DF,FD,00,00,00,0E,FF,FF,
28417372,00000112,false,Rx,0,8,FA,1F,B2,0D,C6,71,05,58,
28419050,00000199,false,Rx,0,6,FF,FF,58,7F,FF,3F,00,00,
28419257,0000019A,false,Rx,0,6,FF,FF,58,7F,FF,3F,00,00,
28419464,0000019F,false,Rx,0,6,FF,FF,F8,7F,FF,2F,00,00,
28419714,00000254,false,Rx,0,8,FF,7F,FF,7F,FF,7F,FF,7F,
28419839,00000258,false,Rx,0,2,11,11,00,00,00,00,00,00,
28422954,00000100,false,Rx,0,8,1A,F9,7F,C0,5D,D9,86,70,
28424179,000002C4,false,Rx,0,8,00,00,FF,00,C8,64,FF,CF,
28424417,000000A5,false,Rx,0,8,3A,F6,FF,F7,7F,00,00,C1,
28424655,000000EF,false,Rx,0,8,DC,FD,00,7D,21,FF,7C,FF,
28424791,000000AC,false,Rx,0,2,00,F0,00,00,00,00,00,00,
28425021,000000D9,false,Rx,0,8,76,F6,00,10,00,F0,7F,C0,
28425270,000000F3,false,Rx,0,8,58,06,00,FF,F0,C0,FF,FF,
28425498,00000140,false,Rx,0,8,59,6E,40,9C,00,00,94,FF,
28425738,00000141,false,Rx,0,8,48,7E,40,9C,00,00,F4,FF,
28425986,00000108,false,Rx,0,8,00,7D,FF,FF,07,F1,FF,FF,
28426225,0000019D,false,Rx,0,8,69,FE,8D,01,FF,FF,FF,FF,
28426413,000001A1,false,Rx,0,5,AF,CE,00,00,8A,00,00,00,
28426630,000002C5,false,Rx,0,7,ED,F7,00,60,06,70,C8,00,
28426838,00000304,false,Rx,0,6,FF,FF,E4,38,FF,FF,00,00,
28427040,00000349,false,Rx,0,5,FE,FF,FE,FF,00,00,00,00,
28427207,000003FD,false,Rx,0,5,67,05,00,00,FF,00,00,00,
28427434,00000112,false,Rx,0,8,FA,1F,B2,0D,C6,71,05,58,
28427682,000000C3,false,Rx,0,8,1B,7D,00,40,00,7D,FF,FF,
28427911,000000F5,false,Rx,0,7,DC,DC,00,82,00,82,00,00,
28428089,000000FF,false,Rx,0,4,00,20,F0,00,00,00,00,00,
28428336,000001B5,false,Rx,0,8,D2,40,92,6D,FF,FF,FF,FF,
28428575,00000201,false,Rx,0,8,E1,24,EB,4B,FF,FF,FF,FF,
28428825,00000206,false,Rx,0,8,E4,20,80,FF,FF,FF,FF,FF,
28429096,00000212,false,Rx,0,8,CD,F3,F9,FF,FF,FF,FF,FF,
28429344,000002DB,false,Rx,0,8,FF,FF,FF,FF,BF,FF,FF,FF,
28429594,000002F1,false,Rx,0,8,36,10,7D,00,00,00,00,A0,
28429854,000002FA,false,Rx,0,8,FD,FF,00,FF,FF,FF,FF,FF,
28430102,0000032B,false,Rx,0,8,FF,FF,FF,FF,FF,FF,00,FF,
28430352,00000331,false,Rx,0,8,FF,FF,FF,EF,7F,FE,F7,FF,
28430601,000003AD,false,Rx,0,8,00,F0,FF,FF,FF,FF,FF,F1,
28430738,000003E8,false,Rx,0,2,F1,FF,00,00,00,00,00,00,
28430985,000003E9,false,Rx,0,8,5C,8F,00,00,00,00,00,00,
28431257,0000041E,false,Rx,0,8,00,02,CF,FF,FF,FF,FF,FF,
28432990,00000100,false,Rx,0,8,FD,FA,7F,C0,5D,D9,86,70,
28433155,00000197,false,Rx,0,4,09,0B,0E,C0,00,00,00,00,
28434361,0000015F,false,Rx,0,8,43,FE,00,7D,00,EE,00,7D,
28435949,000000C3,false,Rx,0,8,FC,7E,00,40,00,7D,FF,FF,
28436187,00000201,false,Rx,0,8,E3,24,ED,4B,FF,FF,FF,FF,
28436437,0000013A,false,Rx,0,8,39,F0,00,00,00,0E,FF,FF,
28437346,00000112,false,Rx,0,8,FA,1F,B1,0D,C6,71,05,58,
28437594,00000239,false,Rx,0,8,7C,71,3C,B7,04,FF,FF,FF,
28439050,00000199,false,Rx,0,6,FF,FF,4E,7F,FF,3F,00,00,
28439257,0000019A,false,Rx,0,6,FF,FF,76,7F,FF,3F,00,00,
28439465,0000019F,false,Rx,0,6,FF,FF,FB,7F,FF,2F,00,00,
28439714,00000254,false,Rx,0,8,FF,7F,FF,7F,FF,7F,FF,7F,
28439839,00000258,false,Rx,0,2,11,11,00,00,00,00,00,00,
28440066,00000302,false,Rx,0,7,FF,FF,D4,80,FE,FF,FF,00,
28442895,00000100,false,Rx,0,8,A0,FB,7F,C0,5D,D9,86,70,
28444366,000000EF,false,Rx,0,8,3B,FE,00,7D,21,FF,7C,FF,
28444604,000000A5,false,Rx,0,8,67,F7,FF,F7,7F,00,00,C1,
28444741,000000AC,false,Rx,0,2,00,F0,00,00,00,00,00,00,
28444979,000000D9,false,Rx,0,8,2B,F7,00,10,00,F0,7F,C0,
28445219,000000F3,false,Rx,0,8,05,07,00,FF,F0,C0,FF,FF,
28445446,0000012F,false,Rx,0,8,80,2A,86,1C,F1,35,30,00,
28445686,00000140,false,Rx,0,8,05,61,40,9C,00,00,94,FF,
28445925,00000141,false,Rx,0,8,14,71,40,9C,00,00,F4,FF,
28446174,000000C3,false,Rx,0,8,FD,70,00,40,00,7D,FF,FF,
28446351,000001A1,false,Rx,0,5,C7,C1,00,00,8A,00,00,00,
28446589,000002E8,false,Rx,0,8,C0,E8,C3,FF,FF,F4,F2,33,
28447352,00000112,false,Rx,0,8,FA,1F,B1,0D,C6,71,05,58,
28447827,000002F5,false,Rx,0,8,BE,0F,60,29,22,0A,06,10,
28451341,000002A7,false,Rx,0,5,35,F3,FE,FF,14,00,00,00,
28452915,00000100,false,Rx,0,8,2E,FC,7F,C0,5D,D9,86,70,
28454005,00000163,false,Rx,0,8,FF,FF,EB,24,FF,FF,FF,FF,
28454245,00000173,false,Rx,0,8,DD,FD,00,0E,30,00,DE,10,
28454483,0000015F,false,Rx,0,8,42,F0,00,7D,00,EE,00,7D,
28455949,000000C3,false,Rx,0,8,A0,71,00,40,00,7D,FF,FF,
28456353,0000013A,false,Rx,0,8,83,F2,00,00,00,0E,FF,FF,
28457364,00000112,false,Rx,0,8,FA,1F,B1,0D,C6,71,05,58,
28459046,00000199,false,Rx,0,6,FF,FF,58,7F,FF,3F,00,00,
28459263,0000019A,false,Rx,0,6,FF,FF,6C,7F,FF,3F,00,00,
28459469,0000019F,false,Rx,0,6,FF,FF,0F,80,FF,2F,00,00,
28459718,00000254,false,Rx,0,8,FF,7F,FF,7F,FF,7F,FF,7F,
28459844,00000258,false,Rx,0,2,11,11,00,00,00,00,00,00,
28460751,000007BD,false,Rx,0,8,00,00,00,40,FF,C0,01,08,
28461031,000007BE,false,Rx,0,8,05,00,00,00,00,00,00,E0,
28462923,00000197,false,Rx,0,4,83,0C,0E,C0,00,00,00,00,
28463202,00000100,false,Rx,0,8,73,FD,7F,C0,5D,D9,86,70,
28464253,000000A5,false,Rx,0,8,3B,F8,FF,F7,7F,00,00,C1,
28464491,000000EF,false,Rx,0,8,3A,F0,00,7D,21,FF,7C,FF,
28464730,000000D9,false,Rx,0,8,77,F8,00,10,00,F0,7F,C0,
28464867,000000AC,false,Rx,0,2,00,F0,00,00,00,00,00,00,
28465104,000000F3,false,Rx,0,8,59,08,00,FF,F0,C0,FF,FF,
28465291,000001A1,false,Rx,0,5,E0,C3,00,00,8A,00,00,00,
28465524,00000140,false,Rx,0,8,BF,63,40,9C,00,00,94,FF,
28465754,00000141,false,Rx,0,8,AE,73,40,9C,00,00,F4,FF,
28466002,00000206,false,Rx,0,8,FF,21,81,FF,FF,FF,FF,FF,
28466271,000000C3,false,Rx,0,8,47,72,00,40,00,7D,FF,FF,
28467366,00000112,false,Rx,0,8,FA,1F,B1,0D,C6,71,05,58,
28470967,00000301,false,Rx,0,7,FF,FF,B8,80,FF,FF,CF,00,
28472891,00000100,false,Rx,0,8,94,FE,7F,C0,5D,D9,86,70,
28474362,0000015F,false,Rx,0,8,1F,F1,00,7D,00,EE,00,7D,
28475194,000001AE,false,Rx,0,2,F7,FF,00,00,00,00,00,00,
28475937,000000C3,false,Rx,0,8,1A,73,00,40,00,7D,FF,FF,
28476341,0000013A,false,Rx,0,8,50,F4,00,00,00,0E,FF,FF,
28477362,00000112,false,Rx,0,8,FA,1F,B1,0D,C6,71,05,58,
28479050,00000199,false,Rx,0,6,FF,FF,44,7F,FF,3F,00,00,
28479257,0000019A,false,Rx,0,6,FF,FF,76,7F,FF,3F,00,00,
28479465,0000019F,false,Rx,0,6,FF,FF,03,80,FF,2F,00,00,
28479714,00000254,false,Rx,0,8,FF,7F,FF,7F,FF,7F,FF,7F,
28479839,00000258,false,Rx,0,2,11,11,00,00,00,00,00,00,
28480066,00000302,false,Rx,0,7,FF,FF,D4,80,FE,FF,FF,00,
28481340,000002BB,false,Rx,0,5,E4,F5,04,0A,F2,00,00,00,
28481578,00000289,false,Rx,0,8,B3,F3,E0,FF,FD,00,EC,01,
28482982,00000100,false,Rx,0,8,95,F0,7F,C0,5D,D9,86,70,
28484220,000000A5,false,Rx,0,8,66,F9,FF,F7,7F,00,00,C1,
28484448,000000EF,false,Rx,0,8,67,F1,00,7D,21,FF,7C,FF,
28484584,000000AC,false,Rx,0,2,00,F0,00,00,00,00,00,00,
28484823,000000D9,false,Rx,0,8,2A,F9,00,10,00,F0,7F,C0,
28485061,000000F3,false,Rx,0,8,04,09,00,FF,F0,C0,FF,FF,
28485242,000001A1,false,Rx,0,5,89,C5,00,00,8A,00,00,00,
28485479,00000140,false,Rx,0,8,6C,65,40,9C,00,00,94,FF,
28485720,00000141,false,Rx,0,8,7D,75,40,9C,00,00,F4,FF,
28485968,000000C3,false,Rx,0,8,94,74,00,40,00,7D,FF,FF,
28486206,00000201,false,Rx,0,8,ED,24,F7,4B,FF,FF,FF,FF,
28487356,00000112,false,Rx,0,8,FA,1F,B1,0D,C6,71,05,58,
28487615,00000431,false,Rx,0,8,CA,FD,FF,FF,FF,99,F7,00,
28491274,0000036E,false,Rx,0,5,EE,F2,FE,FF,14,00,00,00,
28492889,00000100,false,Rx,0,8,C8,F1,7F,C0,5D,D9,86,70,
28493056,00000197,false,Rx,0,4,0C,0D,0E,C0,00,00,00,00,
28493879,000000C0,false,Rx,0,2,F4,40,00,00,00,00,00,00,
28494127,0000003C,false,Rx,0,8,FF,5F,00,02,00,00,FF,FF,
28494376,0000015F,false,Rx,0,8,F8,F2,00,7D,00,EE,00,7D,
28495079,000003B4,false,Rx,0,8,00,00,0C,F0,98,FF,00,00,
28495948,000000C3,false,Rx,0,8,C9,75,00,40,00,7D,FF,FF,
28496351,0000013A,false,Rx,0,8,EA,F6,00,00,00,0E,FF,FF,
28497361,00000112,false,Rx,0,8,FA,1F,B1,0D,C6,71,05,58,
28497589,00000432,false,Rx,0,8,1C,DB,15,BD,56,7C,01,BC,
28499065,00000199,false,Rx,0,6,FF,FF,4E,7F,FF,3F,00,00,
28499271,0000019A,false,Rx,0,6,FF,FF,80,7F,FF,3F,00,00,
28499482,0000019F,false,Rx,0,6,FF,FF,FD,7F,FF,2F,00,00,
28499732,00000254,false,Rx,0,8,FF,7F,FF,7F,FF,7F,FF,7F,
28499857,00000258,false,Rx,0,2,11,11,00,00,00,00,00,00,
28502990,00000100,false,Rx,0,8,2F,F2,7F,C0,5D,D9,86,70,
28504235,000000A5,false,Rx,0,8,81,FA,FF,F7,7F,00,00,C1,
28504473,000000EF,false,Rx,0,8,80,F2,00,7D,21,FF,7C,FF,
28504724,000000D9,false,Rx,0,8,CD,FA,00,10,00,F0,7F,C0,
28504849,000000AC,false,Rx,0,2,00,F0,00,00,00,00,00,00,
28505086,000000F3,false,Rx,0,8,E3,0A,00,FF,F0,C0,FF,FF,
28505273,000001A1,false,Rx,0,5,AE,C7,00,00,8A,00,00,00,
28505507,00000140,false,Rx,0,8,D6,67,40,9C,00,00,94,FF,
28505736,00000141,false,Rx,0,8,C7,77,40,9C,00,00,F4,FF,
28505984,00000206,false,Rx,0,8,5E,22,80,FF,FF,FF,FF,FF,
28506255,000000C3,false,Rx,0,8,2E,76,00,40,00,7D,FF,FF,
28507348,00000112,false,Rx,0,8,FA,1F,B1,0D,C6,71,05,58,
28510710,000007BE,false,Rx,0,8,0B,00,00,00,00,00,00,00,
28512284,0000036F,false,Rx,0,5,BC,F3,FE,FF,14,00,00,00,
28512879,00000100,false,Rx,0,8,72,F3,7F,C0,5D,D9,86,70,
28514364,0000015F,false,Rx,0,8,A5,F3,00,7D,00,EE,00,7D,
28514881,000001E1,false,Rx,0,6,D7,F1,55,FF,FF,FF,00,00,
28515943,000000C3,false,Rx,0,8,73,77,00,40,00,7D,FF,FF,
28516347,0000013A,false,Rx,0,8,EB,F8,00,00,00,0E,FF,FF,
28517348,00000112,false,Rx,0,8,FA,1F,B1,0D,C6,71,05,58,
28519087,00000199,false,Rx,0,6,FF,FF,4E,7F,FF,3F,00,00,
28519304,0000019A,false,Rx,0,6,FF,FF,80,7F,FF,3F,00,00,
28519502,0000019F,false,Rx,0,6,FF,FF,0B,80,FF,2F,00,00,
28519752,00000254,false,Rx,0,8,FF,7F,FF,7F,FF,7F,FF,7F,
28519877,00000258,false,Rx,0,2,11,11,00,00,00,00,00,00,
28520105,00000302,false,Rx,0,7,FF,FF,D4,80,FE,FF,FF,00,
28522945,00000100,false,Rx,0,8,FC,F4,7F,C0,5D,D9,86,70,
28523107,00000197,false,Rx,0,4,80,0E,0E,C0,00,00,00,00,
28524191,000002C4,false,Rx,0,8,00,00,FF,00,C8,64,FF,CF,
28524429,000000A5,false,Rx,0,8,DC,FB,FF,F7,7F,00,00,C1,
28524565,000000AC,false,Rx,0,2,00,F0,00,00,00,00,00,00,
28524804,000000D9,false,Rx,0,8,90,FB,00,10,00,F0,7F,C0,
28525035,000000EF,false,Rx,0,8,DD,F3,00,7D,21,FF,7C,FF,
28525284,000000F3,false,Rx,0,8,BE,0B,00,FF,F0,C0,FF,FF,
28525523,00000140,false,Rx,0,8,D7,69,40,9C,00,00,94,FF,
28525752,00000141,false,Rx,0,8,C6,79,40,9C,00,00,F4,FF,
28526001,00000108,false,Rx,0,8,00,7D,FF,FF,07,F1,FF,FF,
28526177,000001A1,false,Rx,0,5,5B,C9,00,00,8A,00,00,00,
28526396,000002C5,false,Rx,0,7,28,F8,00,60,06,70,C8,00,
28526582,000003FD,false,Rx,0,5,DD,06,00,00,FF,00,00,00,
28526842,000000C3,false,Rx,0,8,2F,78,00,40,00,7D,FF,FF,
28527108,00000212,false,Rx,0,8,43,F4,F9,FF,FF,FF,FF,FF,
28527356,000002DB,false,Rx,0,8,FF,FF,FF,FF,BF,FF,FF,FF,
28527584,00000112,false,Rx,0,8,FA,1F,B1,0D,C6,71,05,58,
28527824,000002F1,false,Rx,0,8,36,10,7D,00,00,00,00,A0,
28531291,000002A7,false,Rx,0,5,C1,F4,FE,FF,14,00,00,00,
28532895,00000100,false,Rx,0,8,A1,F5,7F,C0,5D,D9,86,70,
28534366,0000015F,false,Rx,0,8,2B,F4,00,7D,00,EE,00,7D,
28535110,00000272,false,Rx,0,8,97,FC,00,12,FF,FF,FF,FF,
28535945,000000C3,false,Rx,0,8,72,79,00,40,00,7D,FF,FF,
28536193,00000201,false,Rx,0,8,F6,24,00,4C,FF,FF,FF,FF,
28536433,0000013A,false,Rx,0,8,51,FA,00,00,00,0E,FF,FF,
28537362,00000112,false,Rx,0,8,FA,1F,B1,0D,C6,71,05,58,
28539043,00000199,false,Rx,0,6,FF,FF,44,7F,FF,3F,00,00,
28539250,0000019A,false,Rx,0,6,FF,FF,76,7F,FF,3F,00,00,
28539458,0000019F,false,Rx,0,6,FF,FF,02,80,FF,2F,00,00,
28539708,00000254,false,Rx,0,8,FF,7F,FF,7F,FF,7F,FF,7F,
28539833,00000258,false,Rx,0,2,11,11,00,00,00,00,00,00,
28542883,00000100,false,Rx,0,8,46,F6,7F,C0,5D,D9,86,70,
28544364,000000EF,false,Rx,0,8,53,F4,00,7D,21,FF,7C,FF,
28544602,000000A5,false,Rx,0,8,52,FC,FF,F7,7F,00,00,C1,
28544730,000000AC,false,Rx,0,2,00,F0,00,00,00,00,00,00,
28544977,000000D9,false,Rx,0,8,1E,FC,00,10,00,F0,7F,C0,
28545215,000000F3,false,Rx,0,8,30,0C,00,FF,F0,C0,FF,FF,
28545448,0000012F,false,Rx,0,8,DD,2B,86,1C,F1,35,30,00,
28545676,00000140,false,Rx,0,8,6D,6B,40,9C,00,00,94,FF,
28545915,00000141,false,Rx,0,8,7C,7B,40,9C,00,00,F4,FF,
28546102,000001A1,false,Rx,0,5,7C,CB,00,00,8A,00,00,00,
28546341,00000206,false,Rx,0,8,03,23,80,FF,FF,FF,FF,FF,
28546579,000002E8,false,Rx,0,8,C0,E8,C3,FF,FF,F4,F3,2E,
28546818,000000C3,false,Rx,0,8,95,7A,00,40,00,7D,FF,FF,
28547356,00000112,false,Rx,0,8,FA,1F,B1,0D,C6,71,05,58,
28547843,000002F5,false,Rx,0,8,BE,0F,60,29,22,0A,06,10,
28552971,00000100,false,Rx,0,8,1B,F7,7F,C0,5D,D9,86,70,
28553135,00000197,false,Rx,0,4,89,00,0E,C0,00,00,00,00,
28553991,00000163,false,Rx,0,8,FF,FF,EB,24,FF,FF,FF,FF,
28554229,00000173,false,Rx,0,8,E9,F8,00,0E,30,00,DE,10,
28554467,0000015F,false,Rx,0,8,76,F5,00,7D,00,EE,00,7D,
28555966,000000C3,false,Rx,0,8,C8,7B,00,40,00,7D,FF,FF,
28556349,0000013A,false,Rx,0,8,82,FC,00,00,00,0E,FF,FF,
28557359,00000112,false,Rx,0,8,FA,1F,B1,0D,C6,71,05,58,
28559048,00000199,false,Rx,0,6,FF,FF,44,7F,FF,3F,00,00,
28559256,0000019A,false,Rx,0,6,FF,FF,8A,7F,FF,3F,00,00,
28559463,0000019F,false,Rx,0,6,FF,FF,FF,7F,FF,2F,00,00,
28559712,00000254,false,Rx,0,8,FF,7F,FF,7F,FF,7F,FF,7F,
28559837,00000258,false,Rx,0,2,11,11,00,00,00,00,00,00,
28560065,00000302,false,Rx,0,7,FF,FF,D4,80,FE,FF,FF,00,
28560746,000007BD,false,Rx,0,8,00,00,00,40,FF,C0,01,08,
28561016,000007BE,false,Rx,0,8,07,59,10,40,06,67,00,00,
28562449,00000300,false,Rx,0,8,32,46,59,86,65,18,96,61,
28562894,00000100,false,Rx,0,8,47,F8,7F,C0,5D,D9,86,70,
28564254,000000A5,false,Rx,0,8,0F,FD,FF,F7,7F,00,00,C1,
28564492,000000EF,false,Rx,0,8,0E,F5,00,7D,21,FF,7C,FF,
28564733,000000D9,false,Rx,0,8,43,FD,00,10,00,F0,7F,C0,
28564858,000000AC,false,Rx,0,2,00,F0,00,00,00,00,00,00,
28565108,000000F3,false,Rx,0,8,6D,0D,00,FF,F0,C0,FF,FF,
28565285,000001A1,false,Rx,0,5,15,CD,00,00,8A,00,00,00,
28565524,00000140,false,Rx,0,8,BE,6D,40,9C,00,00,94,FF,
28565763,00000141,false,Rx,0,8,AF,7D,40,9C,00,00,F4,FF,
28566001,000000C3,false,Rx,0,8,46,7C,00,40,00,7D,FF,FF,
28566282,00000314,false,Rx,0,3,50,00,FF,00,00,00,00,00,
28567349,00000112,false,Rx,0,8,FA,1F,B1,0D,C6,71,05,58,
28572901,00000100,false,Rx,0,8,1A,F9,7F,C0,5D,D9,86,70,
28574361,0000015F,false,Rx,0,8,91,F6,00,7D,00,EE,00,7D,
28575183,000001AE,false,Rx,0,2,F7,FF,00,00,00,00,00,00,
28575947,000000C3,false,Rx,0,8,1B,7D,00,40,00,7D,FF,FF,
28576145,000001EE,false,Rx,0,2,00,FC,00,00,00,00,00,00,
28576392,0000013A,false,Rx,0,8,38,FE,00,00,00,0E,FF,FF,
28576517,000002A6,false,Rx,0,2,00,C2,00,00,00,00,00,00,
28577366,00000112,false,Rx,0,8,FA,1F,B1,0D,C6,71,05,58,
28579043,00000199,false,Rx,0,6,FF,FF,4E,7F,FF,3F,00,00,
28579251,0000019A,false,Rx,0,6,FF,FF,76,7F,FF,3F,00,00,
28579458,0000019F,false,Rx,0,6,FF,FF,11,80,FF,2F,00,00,
28579698,00000254,false,Rx,0,8,FF,7F,FF,7F,FF,7F,FF,7F,
28579834,00000258,false,Rx,0,2,11,11,00,00,00,00,00,00,
28581341,000002BB,false,Rx,0,5,37,F0,04,0A,F2,00,00,00,
28581580,00000289,false,Rx,0,8,3D,F4,E0,FF,FD,00,EC,01,
28582973,00000100,false,Rx,0,8,FD,FA,7F,C0,5D,D9,86,70,
28583130,00000197,false,Rx,0,4,06,01,0E,C0,00,00,00,00,
28584254,000000A5,false,Rx,0,8,E8,FE,FF,F7,7F,00,00,C1,
28584492,000000EF,false,Rx,0,8,E9,F6,00,7D,21,FF,7C,FF,
28584733,000000D9,false,Rx,0,8,A4,FE,00,10,00,F0,7F,C0,
28584859,000000AC,false,Rx,0,2,00,F0,00,00,00,00,00,00,
28585099,000000F3,false,Rx,0,8,8A,0E,00,FF,F0,C0,FF,FF,
28585286,000001A1,false,Rx,0,5,5A,C0,00,00,8A,00,00,00,
28585524,00000140,false,Rx,0,8,58,60,40,9C,00,00,94,FF,
28585754,00000141,false,Rx,0,8,49,70,40,9C,00,00,F4,FF,
28586002,00000206,false,Rx,0,8,8D,24,80,FF,FF,FF,FF,FF,
28586252,000000C3,false,Rx,0,8,FC,7E,00,40,00,7D,FF,FF,
28586500,00000201,false,Rx,0,8,00,25,0A,4C,FF,FF,FF,FF,
28587407,00000112,false,Rx,0,8,FA,1F,B1,0D,C6,71,05,58,
28592358,0000031C,false,Rx,0,8,FF,FF,FF,FF,FF,FF,FF,FF,
28592562,0000033B,false,Rx,0,6,A0,F1,DC,FF,FF,FF,00,00,
28592800,00000100,false,Rx,0,8,A0,FB,7F,C0,5D,D9,86,70,
28594070,0000003C,false,Rx,0,8,FF,5F,00,02,00,00,FF,FF,
28594359,0000015F,false,Rx,0,8,CC,F7,00,7D,00,EE,00,7D,
28595569,00000328,false,Rx,0,6,20,1D,C9,04,AB,1E,00,00,
28595962,000000C3,false,Rx,0,8,FD,70,00,40,00,7D,FF,FF,
28596346,0000013A,false,Rx,0,8,64,F1,00,00,00,0E,FF,FF,
28596471,000001D6,false,Rx,0,2,F0,C0,00,00,00,00,00,00,
28597419,00000112,false,Rx,0,8,FA,1F,B1,0D,C6,71,05,58,
28599046,00000199,false,Rx,0,6,FF,FF,4E,7F,FF,3F,00,00,
28599265,0000019A,false,Rx,0,6,FF,FF,80,7F,FF,3F,00,00,
28599472,0000019F,false,Rx,0,6,FF,FF,03,80,FF,2F,00,00,
28599711,00000254,false,Rx,0,8,FF,7F,FF,7F,FF,7F,FF,7F,
28599846,00000258,false,Rx,0,2,11,11,00,00,00,00,00,00,
28600074,00000302,false,Rx,0,7,FF,FF,D4,80,FE,FF,FF,00,
28601956,000003BB,false,Rx,0,2,04,FF,00,00,00,00,00,00,
28602328,00000297,false,Rx,0,7,97,E3,F0,EC,F2,92,EA,00,
28602955,00000100,false,Rx,0,8,2E,FC,7F,C0,5D,D9,86,70,
28604234,000000A5,false,Rx,0,8,E9,F0,FF,F7,7F,00,00,C1,
28604472,000000EF,false,Rx,0,8,B4,F7,00,7D,21,FF,7C,FF,
28604713,000000D9,false,Rx,0,8,A5,F0,00,10,00,F0,7F,C0,
28604848,000000AC,false,Rx,0,2,00,F0,00,00,00,00,00,00,
28605085,000000F3,false,Rx,0,8,8B,00,00,FF,F0,C0,FF,FF,
28605272,000001A1,false,Rx,0,5,7D,C2,00,00,8A,00,00,00,
28605501,00000140,false,Rx,0,8,E2,62,40,9C,00,00,94,FF,
28605740,00000141,false,Rx,0,8,F3,72,40,9C,00,00,F4,FF,
28605989,000000C3,false,Rx,0,8,A0,71,00,40,00,7D,FF,FF,
28607379,00000112,false,Rx,0,8,FA,1F,B1,0D,C6,71,05,58,
28611276,000002A7,false,Rx,0,5,5C,F5,FE,FF,14,00,00,00,
28612984,00000100,false,Rx,0,8,73,FD,7F,C0,5D,D9,86,70,
28613152,00000197,false,Rx,0,4,8A,02,0E,C0,00,00,00,00,
28614366,0000015F,false,Rx,0,8,90,F8,00,7D,00,EE,00,7D,
28615941,000000C3,false,Rx,0,8,47,72,00,40,00,7D,FF,FF,
28616344,0000013A,false,Rx,0,8,DE,F3,00,00,00,0E,FF,FF,
28617354,00000112,false,Rx,0,8,FA,1F,B1,0D,C6,71,05,58,
28619046,00000199,false,Rx,0,6,FF,FF,62,7F,FF,3F,00,00,
28619254,0000019A,false,Rx,0,6,FF,FF,80,7F,FF,3F,00,00,
28619461,0000019F,false,Rx,0,6,FF,FF,17,80,FF,2F,00,00,
28619711,00000254,false,Rx,0,8,FF,7F,FF,7F,FF,7F,FF,7F,
28619836,00000258,false,Rx,0,2,11,11,00,00,00,00,00,00,
28622970,00000100,false,Rx,0,8,94,FE,7F,C0,5D,D9,86,70,
28624173,000002C4,false,Rx,0,8,00,00,FF,00,C8,64,FF,CF,
28624411,000000A5,false,Rx,0,8,B4,F1,FF,F7,7F,00,00,C1,
28624651,000000EF,false,Rx,0,8,E8,F8,00,7D,21,FF,7C,FF,
28624788,000000AC,false,Rx,0,2,00,F0,00,00,00,00,00,00,
28625025,000000D9,false,Rx,0,8,F8,F1,00,10,00,F0,7F,C0,
28625263,000000F3,false,Rx,0,8,D6,01,00,FF,F0,C0,FF,FF,
28625508,00000140,false,Rx,0,8,31,64,40,9C,00,00,94,FF,
28625748,00000141,false,Rx,0,8,20,74,40,9C,00,00,F4,FF,
28625986,00000108,false,Rx,0,8,00,7D,FF,FF,07,F1,FF,FF,
28626174,000001A1,false,Rx,0,5,14,C4,00,00,8A,00,00,00,
28626381,000002C5,false,Rx,0,7,6E,F9,00,60,06,70,C8,00,
28626588,00000304,false,Rx,0,6,FF,FF,E5,38,FF,FF,00,00,
28626776,00000349,false,Rx,0,5,FE,FF,FE,FF,00,00,00,00,
28626963,000003FD,false,Rx,0,5,40,07,00,00,FF,00,00,00,
28627211,000000C3,false,Rx,0,8,1A,73,00,40,00,7D,FF,FF,
28627440,00000112,false,Rx,0,8,FA,1F,B1,0D,C6,71,05,58,
28627680,000001B5,false,Rx,0,8,8F,41,92,6D,FF,FF,FF,FF,
28627929,00000206,false,Rx,0,8,96,25,81,FF,FF,FF,FF,FF,
28628188,00000212,false,Rx,0,8,1E,F5,F9,FF,FF,FF,FF,FF,
28628438,000002DB,false,Rx,0,8,FF,FF,FF,FF,BF,FF,FF,FF,
28628686,000002F1,false,Rx,0,8,36,10,7D,00,00,00,00,A0,
28628935,0000032B,false,Rx,0,8,FF,FF,FF,FF,FF,FF,00,FF,
28629175,00000331,false,Rx,0,8,FF,FF,FF,EF,7F,FE,F7,FF,
28629455,000003E9,false,Rx,0,8,5C,8F,00,00,00,00,00,00,
28632822,00000100,false,Rx,0,8,95,F0,7F,C0,5D,D9,86,70,
28634355,0000015F,false,Rx,0,8,CD,F9,00,7D,00,EE,00,7D,
28635971,000000C3,false,Rx,0,8,94,74,00,40,00,7D,FF,FF,
28636220,00000201,false,Rx,0,8,09,25,13,4C,FF,FF,FF,FF,
28636469,0000013A,false,Rx,0,8,0D,F5,00,00,00,0E,FF,FF,
28637305,00000350,false,Rx,0,6,F7,FF,FF,FF,FF,FF,00,00,
28637524,00000112,false,Rx,0,8,FA,1F,B1,0D,C6,71,05,58,
28637765,00000239,false,Rx,0,8,7C,71,3C,B7,04,FF,FF,FF,
28639064,00000199,false,Rx,0,6,FF,FF,44,7F,FF,3F,00,00,
28639272,0000019A,false,Rx,0,6,FF,FF,76,7F,FF,3F,00,00,
28639479,0000019F,false,Rx,0,6,FF,FF,F2,7F,FF,2F,00,00,
28639732,00000254,false,Rx,0,8,FF,7F,FF,7F,FF,7F,FF,7F,
28639857,00000258,false,Rx,0,2,11,11,00,00,00,00,00,00,
28640085,00000302,false,Rx,0,7,FF,FF,D4,80,FE,FF,FF,00,
28642847,00000100,false,Rx,0,8,C8,F1,7F,C0,5D,D9,86,70,
28643004,00000197,false,Rx,0,4,05,03,0E,C0,00,00,00,00,
28644352,000000EF,false,Rx,0,8,B5,F9,00,7D,21,FF,7C,FF,
28644601,000000A5,false,Rx,0,8,53,F2,FF,F7,7F,00,00,C1,
28644728,000000AC,false,Rx,0,2,00,F0,00,00,00,00,00,00,
28644975,000000D9,false,Rx,0,8,1F,F2,00,10,00,F0,7F,C0,
28645213,000000F3,false,Rx,0,8,31,02,00,FF,F0,C0,FF,FF,
28645432,0000012F,false,Rx,0,8,53,2C,86,1C,F1,35,30,00,
28645666,00000140,false,Rx,0,8,8B,66,40,9C,00,00,94,FF,
28645905,00000141,false,Rx,0,8,9A,76,40,9C,00,00,F4,FF,
28646145,000000C3,false,Rx,0,8,C9,75,00,40,00,7D,FF,FF,
28646331,000001A1,false,Rx,0,5,33,C6,00,00,8A,00,00,00,
28646569,000002E8,false,Rx,0,8,C0,E8,C3,FF,FF,F4,F4,7D,
28646799,000003C3,false,Rx,0,8,81,14,08,82,20,08,82,20,
28647356,00000112,false,Rx,0,8,FA,1F,B1,0D,C6,71,05,58,
28647841,000002F5,false,Rx,0,8,BE,0F,60,29,22,0A,06,10,
28651341,0000036E,false,Rx,0,5,73,F3,FE,FF,14,00,00,00,
28652905,00000100,false,Rx,0,8,2F,F2,7F,C0,5D,D9,86,70,
28653996,00000163,false,Rx,0,8,FF,FF,EB,24,FF,FF,FF,FF,
28654224,00000173,false,Rx,0,8,DC,F3,00,0E,30,00,DE,10,
28654462,0000015F,false,Rx,0,8,2A,FA,00,7D,00,EE,00,7D,
28655949,000000C3,false,Rx,0,8,2E,76,00,40,00,7D,FF,FF,
28656353,0000013A,false,Rx,0,8,B7,F7,00,00,00,0E,FF,FF,
28657354,00000112,false,Rx,0,8,FA,1F,B1,0D,C6,71,05,58,
28658377,000002D1,false,Rx,0,2,30,9B,00,00,00,00,00,00,
28659036,00000199,false,Rx,0,6,FF,FF,4E,7F,FF,3F,00,00,
28659255,0000019A,false,Rx,0,6,FF,FF,80,7F,FF,3F,00,00,
28659462,0000019F,false,Rx,0,6,FF,FF,F8,7F,FF,2F,00,00,
28659712,00000254,false,Rx,0,8,FF,7F,FF,7F,FF,7F,FF,7F,
28659837,00000258,false,Rx,0,2,11,11,00,00,00,00,00,00,
28660756,000007BD,false,Rx,0,8,00,00,00,40,FF,C0,01,08,
28661025,000007BE,false,Rx,0,8,05,00,00,00,00,00,00,E0,
28662987,00000100,false,Rx,0,8,72,F3,7F,C0,5D,D9,86,70,
28664251,000000A5,false,Rx,0,8,0E,F3,FF,F7,7F,00,00,C1,
28664490,000000EF,false,Rx,0,8,52,FA,00,7D,21,FF,7C,FF,
28664719,000000D9,false,Rx,0,8,42,F3,00,10,00,F0,7F,C0,
28664855,000000AC,false,Rx,0,2,00,F0,00,00,00,00,00,00,
28665092,000000F3,false,Rx,0,8,6C,03,00,FF,F0,C0,FF,FF,
28665280,000001A1,false,Rx,0,5,C6,C8,00,00,8A,00,00,00,
28665507,00000140,false,Rx,0,8,8A,68,40,9C,00,00,94,FF,
28665754,00000141,false,Rx,0,8,9B,78,40,9C,00,00,F4,FF,
28665992,00000206,false,Rx,0,8,37,26,80,FF,FF,FF,FF,FF,
28666232,00000348,false,Rx,0,8,3A,10,0A,FE,FE,01,33,16,
28666470,000000C3,false,Rx,0,8,73,77,00,40,00,7D,FF,FF,
28667358,00000112,false,Rx,0,8,FA,1F,B1,0D,C6,71,05,58,
28670958,00000301,false,Rx,0,7,FF,FF,B8,80,FF,FF,CF,00,
28672284,0000036F,false,Rx,0,5,48,F4,FE,FF,14,00,00,00,
28673003,00000100,false,Rx,0,8,FC,F4,7F,C0,5D,D9,86,70,
28673159,00000197,false,Rx,0,4,8F,04,0E,C0,00,00,00,00,
28674355,0000015F,false,Rx,0,8,77,FB,00,7D,00,EE,00,7D,
28675201,000001AE,false,Rx,0,2,F7,FF,00,00,00,00,00,00,
28675708,0000013A,false,Rx,0,8,B6,F9,00,00,00,0E,FF,FF,
28675957,00000201,false,Rx,0,8,11,25,1B,4C,FF,FF,FF,FF,
28676207,000000C3,false,Rx,0,8,2F,78,00,40,00,7D,FF,FF,
28676424,000000F5,false,Rx,0,7,DC,DC,00,82,00,82,00,00,
28676611,000000FF,false,Rx,0,4,00,20,F0,00,00,00,00,00,
28677370,00000112,false,Rx,0,8,FA,1F,B2,0D,C6,71,05,58,
28679000,0000038E,false,Rx,0,8,00,00,19,19,89,09,77,F7,
28679207,00000199,false,Rx,0,6,FF,FF,3A,7F,FF,3F,00,00,
28679414,0000019A,false,Rx,0,6,FF,FF,6C,7F,FF,3F,00,00,
28679621,0000019F,false,Rx,0,6,FF,FF,F5,7F,FF,2F,00,00,
28679871,00000254,false,Rx,0,8,FF,7F,FF,7F,FF,7F,FF,7F,
28679996,00000258,false,Rx,0,2,11,11,00,00,00,00,00,00,
28680233,00000302,false,Rx,0,7,FF,FF,D4,80,FE,FF,FF,00,
28681311,0000038E,false,Rx,0,8,00,00,19,19,89,09,78,F7,
28681488,000002BB,false,Rx,0,5,8C,FA,04,0A,F2,00,00,00,
28681727,00000289,false,Rx,0,8,60,F5,E0,FF,FD,00,EC,01,
28682976,00000100,false,Rx,0,8,A1,F5,7F,C0,5D,D9,86,70,
28683690,0000043D,false,Rx,0,8,0A,BF,E6,FF,51,28,80,50,
28684227,000000A5,false,Rx,0,8,80,F4,FF,F7,7F,00,00,C1,
28684467,000000EF,false,Rx,0,8,0F,FB,00,7D,21,FF,7C,FF,
28684592,000000AC,false,Rx,0,2,00,F0,00,00,00,00,00,00,
28684840,000000D9,false,Rx,0,8,CC,F4,00,10,00,F0,7F,C0,
28685079,000000F3,false,Rx,0,8,E2,04,00,FF,F0,C0,FF,FF,
28685252,000001A1,false,Rx,0,5,E1,CA,00,00,8A,00,00,00,
28685500,00000140,false,Rx,0,8,30,6A,40,9C,00,00,94,FF,
28685729,00000141,false,Rx,0,8,21,7A,40,9C,00,00,F4,FF,
28685968,000000C3,false,Rx,0,8,72,79,00,40,00,7D,FF,FF,
28686216,00000201,false,Rx,0,8,13,25,1D,4C,FF,FF,FF,FF,
28687376,00000112,false,Rx,0,8,FA,1F,B2,0D,C6,71,05,58,
28687625,00000431,false,Rx,0,8,CA,FD,FF,FF,FF,99,F7,00,
28691283,000002A7,false,Rx,0,5,E6,F6,FE,FF,14,00,00,00,
28692734,00000100,false,Rx,0,8,46,F6,7F,C0,5D,D9,86,70,
28693949,000000C0,false,Rx,0,2,F5,40,00,00,00,00,00,00,
28694196,0000003C,false,Rx,0,8,FF,5F,00,02,00,00,FF,FF,
28694446,0000015F,false,Rx,0,8,F9,FC,00,7D,00,EE,00,7D,
28695303,000003B4,false,Rx,0,8,00,00,0C,F0,98,FF,00,00,
28695945,000000C3,false,Rx,0,8,95,7A,00,40,00,7D,FF,FF,
28696349,0000013A,false,Rx,0,8,0C,FB,00,00,00,0E,FF,FF,
28697368,00000112,false,Rx,0,8,FA,1F,B1,0D,C6,71,05,58,
28697597,00000432,false,Rx,0,8,1C,DB,15,BD,56,7C,01,BC,
28700040,00000199,false,Rx,0,6,FF,FF,4E,7F,FF,3F,00,00,
28700247,0000019A,false,Rx,0,6,FF,FF,76,7F,FF,3F,00,00,
28700464,0000019F,false,Rx,0,6,FF,FF,FA,7F,FF,2F,00,00,
28700704,00000254,false,Rx,0,8,FF,7F,FF,7F,FF,7F,FF,7F,
28700840,00000258,false,Rx,0,2,11,11,00,00,00,00,00,00,
28702977,00000100,false,Rx,0,8,1B,F7,7F,C0,5D,D9,86,70,
28703143,00000197,false,Rx,0,4,00,05,0E,C0,00,00,00,00,
28703573,0000043C,false,Rx,0,8,FE,FE,FF,FF,FF,FF,FF,FF,
28704358,000000EF,false,Rx,0,8,81,FC,00,7D,21,FF,7C,FF,
28704598,000000A5,false,Rx,0,8,DD,F5,FF,F7,7F,00,00,C1,
28704734,000000AC,false,Rx,0,2,00,F0,00,00,00,00,00,00,
28704971,000000D9,false,Rx,0,8,91,F5,00,10,00,F0,7F,C0,
28705211,000000F3,false,Rx,0,8,BF,05,00,FF,F0,C0,FF,FF,
28705455,00000140,false,Rx,0,8,E3,6C,40,9C,00,00,94,FF,
28705683,00000141,false,Rx,0,8,F2,7C,40,9C,00,00,F4,FF,
28705871,000001A1,false,Rx,0,5,88,CC,00,00,8A,00,00,00,
28706110,00000206,false,Rx,0,8,6A,27,80,FF,FF,FF,FF,FF,
28706359,000000C3,false,Rx,0,8,C8,7B,00,40,00,7D,FF,FF,
28707360,00000112,false,Rx,0,8,FA,1F,B1,0D,C6,71,05,58,
28710705,000007BE,false,Rx,0,8,0C,41,04,69,00,00,00,00,
28712910,00000100,false,Rx,0,8,47,F8,7F,C0,5D,D9,86,70,
28714359,0000015F,false,Rx,0,8,A4,FD,00,7D,00,EE,00,7D,
28714887,000001E1,false,Rx,0,6,69,F2,55,FF,FF,FF,00,00,
28715948,000000C3,false,Rx,0,8,46,7C,00,40,00,7D,FF,FF,
28716351,0000013A,false,Rx,0,8,DF,FD,00,00,00,0E,FF,FF,
28717381,00000112,false,Rx,0,8,FA,1F,B1,0D,C6,71,05,58,
28720038,00000199,false,Rx,0,6,FF,FF,4E,7F,FF,3F,00,00,
28720245,0000019A,false,Rx,0,6,FF,FF,62,7F,FF,3F,00,00,
28720452,0000019F,false,Rx,0,6,FF,FF,13,80,FF,2F,00,00,
28720702,00000254,false,Rx,0,8,FF,7F,FF,7F,FF,7F,FF,7F,
28720827,00000258,false,Rx,0,2,11,11,00,00,00,00,00,00,
28721057,00000302,false,Rx,0,7,FF,FF,D4,80,FE,FF,FF,00,
28722976,00000100,false,Rx,0,8,1A,F9,7F,C0,5D,D9,86,70,
28723520,0000034A,false,Rx,0,8,FA,4B,93,FB,E3,15,76,25,
28724182,000002C4,false,Rx,0,8,00,00,FF,00,C8,64,FF,CF,
28724422,000000A5,false,Rx,0,8,3A,F6,FF,F7,7F,00,00,C1,
28724557,000000AC,false,Rx,0,2,00,F0,00,00,00,00,00,00,
28724795,000000D9,false,Rx,0,8,76,F6,00,10,00,F0,7F,C0,
28725038,000000EF,false,Rx,0,8,DC,FD,00,7D,21,FF,7C,FF,
28725277,000000F3,false,Rx,0,8,58,06,00,FF,F0,C0,FF,FF,
28725505,00000140,false,Rx,0,8,59,6E,40,9C,00,00,94,FF,
28725744,00000141,false,Rx,0,8,48,7E,40,9C,00,00,F4,FF,
28725994,00000108,false,Rx,0,8,00,7D,FF,FF,07,F1,FF,FF,
28726232,0000019D,false,Rx,0,8,69,FE,8D,01,FF,FF,FF,FF,
28726419,000001A1,false,Rx,0,5,AF,CE,00,00,8A,00,00,00,
28726636,000002C5,false,Rx,0,7,A4,FA,00,60,06,70,C8,00,
28726785,00000314,false,Rx,0,3,50,00,FF,00,00,00,00,00,
28726971,000003FD,false,Rx,0,5,28,08,00,00,FF,00,00,00,
28727222,000000C3,false,Rx,0,8,1B,7D,00,40,00,7D,FF,FF,
28727451,00000112,false,Rx,0,8,FA,1F,B1,0D,C6,71,05,58,
28727701,00000212,false,Rx,0,8,F9,F6,F9,FF,FF,FF,FF,FF,
28727949,000002DB,false,Rx,0,8,FF,FF,FF,FF,BF,FF,FF,FF,
28728198,000002F1,false,Rx,0,8,36,10,7D,00,00,00,00,A0,
28732967,00000100,false,Rx,0,8,FD,FA,7F,C0,5D,D9,86,70,
28733139,00000197,false,Rx,0,4,8C,06,0E,C0,00,00,00,00,
28734366,0000015F,false,Rx,0,8,43,FE,00,7D,00,EE,00,7D,
28735334,00000272,false,Rx,0,8,CA,FD,00,12,FF,FF,FF,FF,
28735965,000000C3,false,Rx,0,8,FC,7E,00,40,00,7D,FF,FF,
28736214,00000201,false,Rx,0,8,1D,25,27,4C,FF,FF,FF,FF,
28736462,0000013A,false,Rx,0,8,39,F0,00,00,00,0E,FF,FF,
28737363,00000112,false,Rx,0,8,FA,1F,B1,0D,C6,71,05,58,
28740053,00000199,false,Rx,0,6,FF,FF,4E,7F,FF,3F,00,00,
28740260,0000019A,false,Rx,0,6,FF,FF,6C,7F,FF,3F,00,00,
28740466,0000019F,false,Rx,0,6,FF,FF,0A,80,FF,2F,00,00,
28740717,00000254,false,Rx,0,8,FF,7F,FF,7F,FF,7F,FF,7F,
28740842,00000258,false,Rx,0,2,11,11,00,00,00,00,00,00,
28742888,00000100,false,Rx,0,8,A0,FB,7F,C0,5D,D9,86,70,
28743626,0000034C,false,Rx,0,8,2E,00,00,00,CA,13,F0,FF,
28744361,000000EF,false,Rx,0,8,3B,FE,00,7D,21,FF,7C,FF,
28744599,000000A5,false,Rx,0,8,67,F7,FF,F7,7F,00,00,C1,
28744839,000002E8,false,Rx,0,8,C0,E8,C3,FF,FF,F4,F5,60,
28744964,000000AC,false,Rx,0,2,00,F0,00,00,00,00,00,00,
28745206,000000D9,false,Rx,0,8,2B,F7,00,10,00,F0,7F,C0,
28745455,000000F3,false,Rx,0,8,05,07,00,FF,F0,C0,FF,FF,
28745682,0000012F,false,Rx,0,8,0E,2D,86,1C,F1,35,30,00,
28745923,00000140,false,Rx,0,8,05,61,40,9C,00,00,94,FF,
28746161,00000141,false,Rx,0,8,14,71,40,9C,00,00,F4,FF,
28746338,000001A1,false,Rx,0,5,C7,C1,00,00,8A,00,00,00,
28746586,00000206,false,Rx,0,8,36,28,80,FF,FF,FF,FF,FF,
28746837,000000C3,false,Rx,0,8,FD,70,00,40,00,7D,FF,FF,
28747353,00000112,false,Rx,0,8,FA,1F,B1,0D,C6,71,05,58,
28747841,000002F5,false,Rx,0,8,BE,0F,60,29,22,0A,06,10,
28752910,00000100,false,Rx,0,8,2E,FC,7F,C0,5D,D9,86,70,
28753990,00000163,false,Rx,0,8,FF,FF,EB,24,FF,FF,FF,FF,
28754228,00000173,false,Rx,0,8,DD,FD,00,0E,30,00,DE,10,
28754467,0000015F,false,Rx,0,8,42,F0,00,7D,00,EE,00,7D,
28755695,0000013A,false,Rx,0,8,83,F2,00,00,00,0E,FF,FF,
28755945,000000C3,false,Rx,0,8,A0,71,00,40,00,7D,FF,FF,
28757376,00000112,false,Rx,0,8,FA,1F,B2,0D,C6,71,05,58,
28760043,00000199,false,Rx,0,6,FF,FF,4E,7F,FF,3F,00,00,
28760250,0000019A,false,Rx,0,6,FF,FF,8A,7F,FF,3F,00,00,
28760457,0000019F,false,Rx,0,6,FF,FF,FB,7F,FF,2F,00,00,
28760708,00000254,false,Rx,0,8,FF,7F,FF,7F,FF,7F,FF,7F,
28760833,00000258,false,Rx,0,2,11,11,00,00,00,00,00,00,
28761063,00000302,false,Rx,0,7,FF,FF,D4,80,FE,FF,FF,00,
28761312,000007BD,false,Rx,0,8,00,00,00,40,FF,C0,01,08,
28761591,000007BE,false,Rx,0,8,00,C0,FA,1C,02,00,00,00,
28762996,00000100,false,Rx,0,8,73,FD,7F,C0,5D,D9,86,70,
28763164,00000197,false,Rx,0,4,03,07,0E,C0,00,00,00,00,
28764361,000000EF,false,Rx,0,8,3A,F0,00,7D,21,FF,7C,FF,
28764599,000000A5,false,Rx,0,8,3B,F8,FF,F7,7F,00,00,C1,
28764726,000000AC,false,Rx,0,2,00,F0,00,00,00,00,00,00,
28764973,000000D9,false,Rx,0,8,77,F8,00,10,00,F0,7F,C0,
28765206,000000F3,false,Rx,0,8,59,08,00,FF,F0,C0,FF,FF,
28765444,00000140,false,Rx,0,8,BF,63,40,9C,00,00,94,FF,
28765682,00000141,false,Rx,0,8,AE,73,40,9C,00,00,F4,FF,
28765861,000001A1,false,Rx,0,5,E0,C3,00,00,8A,00,00,00,
28766109,000000C3,false,Rx,0,8,47,72,00,40,00,7D,FF,FF,
28767382,00000112,false,Rx,0,8,FA,1F,B2,0D,C6,71,05,58,
28771286,000002A7,false,Rx,0,5,7B,F7,FE,FF,14,00,00,00,
28772891,00000100,false,Rx,0,8,94,FE,7F,C0,5D,D9,86,70,
28774362,0000015F,false,Rx,0,8,1F,F1,00,7D,00,EE,00,7D,
28775157,000001AE,false,Rx,0,2,F7,FF,00,00,00,00,00,00,
28775959,000000C3,false,Rx,0,8,1A,73,00,40,00,7D,FF,FF,
28776341,0000013A,false,Rx,0,8,50,F4,00,00,00,0E,FF,FF,
28777372,00000112,false,Rx,0,8,FA,1F,B1,0D,C6,71,05,58,
28780039,00000199,false,Rx,0,6,FF,FF,4E,7F,FF,3F,00,00,
28780245,0000019A,false,Rx,0,6,FF,FF,8A,7F,FF,3F,00,00,
28780454,0000019F,false,Rx,0,6,FF,FF,06,80,FF,2F,00,00,
28780703,00000254,false,Rx,0,8,FF,7F,FF,7F,FF,7F,FF,7F,
28780828,00000258,false,Rx,0,2,11,11,00,00,00,00,00,00,
28781344,000002BB,false,Rx,0,5,E4,F5,04,0A,F2,00,00,00,
28781576,00000289,false,Rx,0,8,87,F6,E0,FF,FD,00,EC,01,
28782950,00000100,false,Rx,0,8,95,F0,7F,C0,5D,D9,86,70,
28784237,000000A5,false,Rx,0,8,66,F9,FF,F7,7F,00,00,C1,
28784466,000000EF,false,Rx,0,8,67,F1,00,7D,21,FF,7C,FF,
28784601,000000AC,false,Rx,0,2,00,F0,00,00,00,00,00,00,
28784840,000000D9,false,Rx,0,8,2A,F9,00,10,00,F0,7F,C0,
28785079,000000F3,false,Rx,0,8,04,09,00,FF,F0,C0,FF,FF,
28785266,000001A1,false,Rx,0,5,89,C5,00,00,8A,00,00,00,
28785499,00000140,false,Rx,0,8,6C,65,40,9C,00,00,94,FF,
28785738,00000141,false,Rx,0,8,7D,75,40,9C,00,00,F4,FF,
28785977,00000206,false,Rx,0,8,6B,29,80,FF,FF,FF,FF,FF,
28786226,000000C3,false,Rx,0,8,94,74,00,40,00,7D,FF,FF,
28786474,00000201,false,Rx,0,8,26,25,30,4C,FF,FF,FF,FF,
28787373,00000112,false,Rx,0,8,FA,1F,B1,0D,C6,71,05,58,
28792344,0000031C,false,Rx,0,8,FF,FF,FF,FF,FF,FF,FF,FF,
28792548,0000033B,false,Rx,0,6,1E,F2,DC,FF,FF,FF,00,00,
28792891,00000100,false,Rx,0,8,C8,F1,7F,C0,5D,D9,86,70,
28793057,00000197,false,Rx,0,4,85,08,0E,C0,00,00,00,00,
28794026,0000003C,false,Rx,0,8,FF,5F,00,02,00,00,FF,FF,
28794368,0000015F,false,Rx,0,8,F8,F2,00,7D,00,EE,00,7D,
28795620,000003CA,false,Rx,0,8,78,C0,2F,06,06,8C,FF,FF,
28795943,000000C3,false,Rx,0,8,C9,75,00,40,00,7D,FF,FF,
28796345,0000013A,false,Rx,0,8,EA,F6,00,00,00,0E,FF,FF,
28797409,00000112,false,Rx,0,8,FA,1F,B1,0D,C6,71,05,58,
28800045,00000199,false,Rx,0,6,FF,FF,4E,7F,FF,3F,00,00,
28800252,0000019A,false,Rx,0,6,FF,FF,80,7F,FF,3F,00,00,
28800457,0000019F,false,Rx,0,6,FF,FF,03,80,FF,2F,00,00,
28800707,00000254,false,Rx,0,8,FF,7F,FF,7F,FF,7F,FF,7F,
28800832,00000258,false,Rx,0,2,11,11,00,00,00,00,00,00,
28801059,00000302,false,Rx,0,7,FF,FF,D4,80,FE,FF,FF,00,
28802328,00000297,false,Rx,0,7,58,E4,F0,EC,F2,92,EA,00,
28802982,00000100,false,Rx,0,8,2F,F2,7F,C0,5D,D9,86,70,
28804241,000000A5,false,Rx,0,8,81,FA,FF,F7,7F,00,00,C1,
28804477,000000EF,false,Rx,0,8,80,F2,00,7D,21,FF,7C,FF,
28804717,000000D9,false,Rx,0,8,CD,FA,00,10,00,F0,7F,C0,
28804852,000000AC,false,Rx,0,2,00,F0,00,00,00,00,00,00,
28805090,000000F3,false,Rx,0,8,E3,0A,00,FF,F0,C0,FF,FF,
28805267,000001A1,false,Rx,0,5,AE,C7,00,00,8A,00,00,00,
28805505,00000140,false,Rx,0,8,D6,67,40,9C,00,00,94,FF,
28805733,00000141,false,Rx,0,8,C7,77,40,9C,00,00,F4,FF,
28805983,000000C3,false,Rx,0,8,2E,76,00,40,00,7D,FF,FF,
28807387,00000112,false,Rx,0,8,FA,1F,B1,0D,C6,71,05,58,
28810715,000007BE,false,Rx,0,8,0B,00,00,00,00,00,00,00,
28811279,0000036E,false,Rx,0,5,87,F4,FE,FF,14,00,00,00,
28812884,00000100,false,Rx,0,8,72,F3,7F,C0,5D,D9,86,70,
28814358,0000015F,false,Rx,0,8,A5,F3,00,7D,00,EE,00,7D,
28815966,000000C3,false,Rx,0,8,73,77,00,40,00,7D,FF,FF,
28816348,0000013A,false,Rx,0,8,EB,F8,00,00,00,0E,FF,FF,
28817359,00000112,false,Rx,0,8,FA,1F,B1,0D,C6,71,05,58,
28820038,00000199,false,Rx,0,6,FF,FF,44,7F,FF,3F,00,00,
28820244,0000019A,false,Rx,0,6,FF,FF,76,7F,FF,3F,00,00,
28820453,0000019F,false,Rx,0,6,FF,FF,1D,80,FF,2F,00,00,
28820702,00000254,false,Rx,0,8,FF,7F,FF,7F,FF,7F,FF,7F,
28820829,00000258,false,Rx,0,2,11,11,00,00,00,00,00,00,
28822947,00000100,false,Rx,0,8,FC,F4,7F,C0,5D,D9,86,70,
28823103,00000197,false,Rx,0,4,0A,09,0E,C0,00,00,00,00,
28824196,000002C4,false,Rx,0,8,00,00,FF,00,C8,64,FF,CF,
28824425,000000A5,false,Rx,0,8,DC,FB,FF,F7,7F,00,00,C1,
28824663,000000EF,false,Rx,0,8,DD,F3,00,7D,21,FF,7C,FF,
28824800,000000AC,false,Rx,0,2,00,F0,00,00,00,00,00,00,
28825033,000000D9,false,Rx,0,8,90,FB,00,10,00,F0,7F,C0,
28825282,000000F3,false,Rx,0,8,BE,0B,00,FF,F0,C0,FF,FF,
28825520,00000140,false,Rx,0,8,D7,69,40,9C,00,00,94,FF,
28825760,00000141,false,Rx,0,8,C6,79,40,9C,00,00,F4,FF,
28825999,00000108,false,Rx,0,8,00,7D,FF,FF,07,F1,FF,FF,
28826185,000001A1,false,Rx,0,5,5B,C9,00,00,8A,00,00,00,
28826392,000002C5,false,Rx,0,7,E2,FB,00,60,06,70,C8,00,
28826600,00000304,false,Rx,0,6,FF,FF,E6,38,FF,FF,00,00,
28826788,00000349,false,Rx,0,5,FE,FF,FE,FF,00,00,00,00,
28826976,000003FD,false,Rx,0,5,B5,09,00,00,FF,00,00,00,
28827214,00000510,false,Rx,0,8,40,10,20,00,00,02,00,00,
28827463,000000C3,false,Rx,0,8,2F,78,00,40,00,7D,FF,FF,
28827691,00000112,false,Rx,0,8,FA,1F,B1,0D,C6,71,05,58,
28827930,000001B5,false,Rx,0,8,68,42,92,6D,FF,FF,FF,FF,
28828180,00000206,false,Rx,0,8,8C,2A,80,FF,FF,FF,FF,FF,
28828428,00000212,false,Rx,0,8,A4,F7,F9,FF,FF,FF,FF,FF,
28828687,000002DB,false,Rx,0,8,FF,FF,FF,FF,BF,FF,FF,FF,
28828928,000002F1,false,Rx,0,8,36,10,7D,00,00,00,00,A0,
28829176,0000032B,false,Rx,0,8,FF,FF,FF,FF,FF,FF,00,FF,
28829425,00000331,false,Rx,0,8,FF,FF,FF,EF,7F,FE,F7,FF,
28829675,000003E9,false,Rx,0,8,5C,8F,00,00,00,00,00,00,
28832286,0000036F,false,Rx,0,5,D5,F5,FE,FF,14,00,00,00,
28832984,00000100,false,Rx,0,8,A1,F5,7F,C0,5D,D9,86,70,
28834366,0000015F,false,Rx,0,8,2B,F4,00,7D,00,EE,00,7D,
28835943,000000C3,false,Rx,0,8,72,79,00,40,00,7D,FF,FF,
28836191,00000201,false,Rx,0,8,30,25,3A,4C,FF,FF,FF,FF,
28836440,0000013A,false,Rx,0,8,51,FA,00,00,00,0E,FF,FF,
28837360,00000112,false,Rx,0,8,FA,1F,B1,0D,C6,71,05,58,
28837608,00000239,false,Rx,0,8,7C,71,3C,B7,04,FF,FF,FF,
28840062,00000199,false,Rx,0,6,FF,FF,62,7F,FF,3F,00,00,
28840269,0000019A,false,Rx,0,6,FF,FF,6C,7F,FF,3F,00,00,
28840477,0000019F,false,Rx,0,6,FF,FF,F9,7F,FF,2F,00,00,
28840727,00000254,false,Rx,0,8,FF,7F,FF,7F,FF,7F,FF,7F,
28840852,00000258,false,Rx,0,2,11,11,00,00,00,00,00,00,
28841082,00000302,false,Rx,0,7,FF,FF,D4,80,FE,FF,FF,00,
28842877,00000100,false,Rx,0,8,46,F6,7F,C0,5D,D9,86,70,
28844361,000000EF,false,Rx,0,8,53,F4,00,7D,21,FF,7C,FF,
28844599,000000A5,false,Rx,0,8,52,FC,FF,F7,7F,00,00,C1,
28844726,000000AC,false,Rx,0,2,00,F0,00,00,00,00,00,00,
28844974,000000D9,false,Rx,0,8,1E,FC,00,10,00,F0,7F,C0,
28845214,000000F3,false,Rx,0,8,30,0C,00,FF,F0,C0,FF,FF,
28845452,0000012F,false,Rx,0,8,E9,2E,86,1C,F1,35,30,00,
28845680,00000140,false,Rx,0,8,6D,6B,40,9C,00,00,94,FF,
28845921,00000141,false,Rx,0,8,7C,7B,40,9C,00,00,F4,FF,
28846159,000000C3,false,Rx,0,8,95,7A,00,40,00,7D,FF,FF,
28846346,000001A1,false,Rx,0,5,7C,CB,00,00,8A,00,00,00,
28846574,000002E8,false,Rx,0,8,C0,E8,C3,FF,FF,F4,F6,47,
28847357,00000112,false,Rx,0,8,FA,1F,B1,0D,C6,71,05,58,
28847844,000002F5,false,Rx,0,8,BE,0F,60,29,22,0A,06,10,
28851338,000002A7,false,Rx,0,5,13,F8,FE,FF,14,00,00,00,
28852995,00000100,false,Rx,0,8,1B,F7,7F,C0,5D,D9,86,70,
28853172,00000197,false,Rx,0,4,86,0A,0E,C0,00,00,00,00,
28853985,00000163,false,Rx,0,8,FF,FF,EB,24,FF,FF,FF,FF,
28854224,00000173,false,Rx,0,8,E9,F8,00,0E,30,00,DE,10,
28854462,0000015F,false,Rx,0,8,76,F5,00,7D,00,EE,00,7D,
28855960,000000C3,false,Rx,0,8,C8,7B,00,40,00,7D,FF,FF,
28856352,0000013A,false,Rx,0,8,82,FC,00,00,00,0E,FF,FF,
28857364,00000112,false,Rx,0,8,FA,1F,B1,0D,C6,71,05,58,
28860039,00000199,false,Rx,0,6,FF,FF,44,7F,FF,3F,00,00,
28860241,0000019A,false,Rx,0,6,FF,FF,8A,7F,FF,3F,00,00,
28860460,0000019F,false,Rx,0,6,FF,FF,ED,7F,FF,2F,00,00,
28860699,00000254,false,Rx,0,8,FF,7F,FF,7F,FF,7F,FF,7F,
28860834,00000258,false,Rx,0,2,11,11,00,00,00,00,00,00,
28861072,000007BD,false,Rx,0,8,00,00,00,40,FF,C0,01,08,
28861352,000007BE,false,Rx,0,8,05,00,00,00,00,00,00,E0,
28862895,00000100,false,Rx,0,8,47,F8,7F,C0,5D,D9,86,70,
28864252,000000A5,false,Rx,0,8,0F,FD,FF,F7,7F,00,00,C1,
28864490,000000EF,false,Rx,0,8,0E,F5,00,7D,21,FF,7C,FF,
28864730,000000D9,false,Rx,0,8,43,FD,00,10,00,F0,7F,C0,
28864865,000000AC,false,Rx,0,2,00,F0,00,00,00,00,00,00,
28865103,000000F3,false,Rx,0,8,6D,0D,00,FF,F0,C0,FF,FF,
28865280,000001A1,false,Rx,0,5,15,CD,00,00,8A,00,00,00,
28865518,00000140,false,Rx,0,8,BE,6D,40,9C,00,00,94,FF,
28865758,00000141,false,Rx,0,8,AF,7D,40,9C,00,00,F4,FF,
28866007,00000206,false,Rx,0,8,97,2B,81,FF,FF,FF,FF,FF,
28866257,000000C3,false,Rx,0,8,46,7C,00,40,00,7D,FF,FF,
28867362,00000112,false,Rx,0,8,FA,1F,B1,0D,C6,71,05,58,
28870962,00000301,false,Rx,0,7,FF,FF,B8,80,FF,FF,CF,00,
28872990,00000100,false,Rx,0,8,1A,F9,7F,C0,5D,D9,86,70,
28874358,0000015F,false,Rx,0,8,91,F6,00,7D,00,EE,00,7D,
28875201,000001AE,false,Rx,0,2,F7,FF,00,00,00,00,00,00,
28875718,0000013A,false,Rx,0,8,38,FE,00,00,00,0E,FF,FF,
28875966,000000C3,false,Rx,0,8,1B,7D,00,40,00,7D,FF,FF,
28877369,00000112,false,Rx,0,8,FA,1F,B1,0D,C6,71,05,58,
28880036,00000199,false,Rx,0,6,FF,FF,44,7F,FF,3F,00,00,
28880243,0000019A,false,Rx,0,6,FF,FF,80,7F,FF,3F,00,00,
28880451,0000019F,false,Rx,0,6,FF,FF,00,80,FF,2F,00,00,
28880700,00000254,false,Rx,0,8,FF,7F,FF,7F,FF,7F,FF,7F,
28880826,00000258,false,Rx,0,2,11,11,00,00,00,00,00,00,
28881053,00000302,false,Rx,0,7,FF,FF,D4,80,FE,FF,FF,00,
28881338,000002BB,false,Rx,0,5,37,F0,04,0A,F2,00,00,00,
28881575,00000289,false,Rx,0,8,DA,F7,E0,FF,FD,00,EC,01,
28882980,00000100,false,Rx,0,8,FD,FA,7F,C0,5D,D9,86,70,
28883136,00000197,false,Rx,0,4,09,0B,0E,C0,00,00,00,00,
28884230,000000A5,false,Rx,0,8,E8,FE,FF,F7,7F,00,00,C1,
28884468,000000EF,false,Rx,0,8,E9,F6,00,7D,21,FF,7C,FF,
28884708,000000D9,false,Rx,0,8,A4,FE,00,10,00,F0,7F,C0,
28884843,000000AC,false,Rx,0,2,00,F0,00,00,00,00,00,00,
28885071,000000F3,false,Rx,0,8,8A,0E,00,FF,F0,C0,FF,FF,
28885264,000001A1,false,Rx,0,5,5A,C0,00,00,8A,00,00,00,
28885501,00000140,false,Rx,0,8,58,60,40,9C,00,00,94,FF,
28885732,00000141,false,Rx,0,8,49,70,40,9C,00,00,F4,FF,
28885980,000000C3,false,Rx,0,8,FC,7E,00,40,00,7D,FF,FF,
28886229,00000201,false,Rx,0,8,3A,25,44,4C,FF,FF,FF,FF,
28886374,00000314,false,Rx,0,3,50,00,FF,00,00,00,00,00,
28887392,00000112,false,Rx,0,8,FA,1F,B1,0D,C6,71,05,58,
28887651,00000431,false,Rx,0,8,CA,FD,FF,FF,FF,99,F7,00,
28892752,00000100,false,Rx,0,8,A0,FB,7F,C0,5D,D9,86,70,
28893852,000000C0,false,Rx,0,2,F6,40,00,00,00,00,00,00,
28894110,0000003C,false,Rx,0,8,FF,5F,00,02,00,00,FF,FF,
28894359,0000015F,false,Rx,0,8,CC,F7,00,7D,00,EE,00,7D,
28895524,000003B4,false,Rx,0,8,00,00,0C,F0,98,FF,00,00,
28895949,000000C3,false,Rx,0,8,FD,70,00,40,00,7D,FF,FF,
28896341,0000013A,false,Rx,0,8,64,F1,00,00,00,0E,FF,FF,
28897405,00000112,false,Rx,0,8,FA,1F,B1,0D,C6,71,05,58,
28897644,00000432,false,Rx,0,8,1C,DB,15,BD,56,7C,01,BC,
28900045,00000199,false,Rx,0,6,FF,FF,58,7F,FF,3F,00,00,
28900243,0000019A,false,Rx,0,6,FF,FF,94,7F,FF,3F,00,00,
28900450,0000019F,false,Rx,0,6,FF,FF,01,80,FF,2F,00,00,
28900699,00000254,false,Rx,0,8,FF,7F,FF,7F,FF,7F,FF,7F,
28900824,00000258,false,Rx,0,2,11,11,00,00,00,00,00,00,
28902982,00000100,false,Rx,0,8,2E,FC,7F,C0,5D,D9,86,70,
28904238,000000A5,false,Rx,0,8,E9,F0,FF,F7,7F,00,00,C1,
28904465,000000EF,false,Rx,0,8,B4,F7,00,7D,21,FF,7C,FF,
28904716,000000D9,false,Rx,0,8,A5,F0,00,10,00,F0,7F,C0,
28904841,000000AC,false,Rx,0,2,00,F0,00,00,00,00,00,00,
28905081,000000F3,false,Rx,0,8,8B,00,00,FF,F0,C0,FF,FF,
28905267,000001A1,false,Rx,0,5,7D,C2,00,00,8A,00,00,00,
28905505,00000140,false,Rx,0,8,E2,62,40,9C,00,00,94,FF,
28905735,00000141,false,Rx,0,8,F3,72,40,9C,00,00,F4,FF,
28905984,00000206,false,Rx,0,8,5F,2C,80,FF,FF,FF,FF,FF,
28906201,000002F9,false,Rx,0,7,00,00,00,08,74,C0,F3,00,
28906441,000000C3,false,Rx,0,8,A0,71,00,40,00,7D,FF,FF,
28906679,00000239,false,Rx,0,8,8C,71,3C,B7,04,FF,FF,FF,
28907361,00000112,false,Rx,0,8,FA,1F,B1,0D,C6,71,05,58,
28912208,00000540,false,Rx,0,8,00,00,00,00,FF,3B,FF,40,
28912826,00000100,false,Rx,0,8,73,FD,7F,C0,5D,D9,86,70,
28912992,00000197,false,Rx,0,4,83,0C,0E,C0,00,00,00,00,
28914361,0000015F,false,Rx,0,8,90,F8,00,7D,00,EE,00,7D,
28914889,000001E1,false,Rx,0,6,03,F3,55,FF,FF,FF,00,00,
28915951,000000C3,false,Rx,0,8,47,72,00,40,00,7D,FF,FF,
28916343,0000013A,false,Rx,0,8,DE,F3,00,00,00,0E,FF,FF,
28917366,00000112,false,Rx,0,8,FA,1F,B1,0D,C6,71,05,58,
28920035,00000199,false,Rx,0,6,FF,FF,44,7F,FF,3F,00,00,
28920243,0000019A,false,Rx,0,6,FF,FF,80,7F,FF,3F,00,00,
28920458,0000019F,false,Rx,0,6,FF,FF,0F,80,FF,2F,00,00,
28920708,00000254,false,Rx,0,8,FF,7F,FF,7F,FF,7F,FF,7F,
28920833,00000258,false,Rx,0,2,11,11,00,00,00,00,00,00,
28921061,00000302,false,Rx,0,7,FF,FF,D4,80,FE,FF,FF,00,
28922981,00000100,false,Rx,0,8,94,FE,7F,C0,5D,D9,86,70,
28924178,000002C4,false,Rx,0,8,00,00,FF,00,C8,64,FF,CF,
28924414,000000A5,false,Rx,0,8,B4,F1,FF,F7,7F,00,00,C1,
28924539,000000AC,false,Rx,0,2,00,F0,00,00,00,00,00,00,
28924788,000000D9,false,Rx,0,8,F8,F1,00,10,00,F0,7F,C0,
28925027,000000EF,false,Rx,0,8,E8,F8,00,7D,21,FF,7C,FF,
28925265,000000F3,false,Rx,0,8,D6,01,00,FF,F0,C0,FF,FF,
28925503,00000140,false,Rx,0,8,31,64,40,9C,00,00,94,FF,
28925744,00000141,false,Rx,0,8,20,74,40,9C,00,00,F4,FF,
28925982,00000108,false,Rx,0,8,00,7D,FF,FF,07,F1,FF,FF,
28926169,000001A1,false,Rx,0,5,14,C4,00,00,8A,00,00,00,
28926389,000002C5,false,Rx,0,7,2D,FC,00,60,06,70,C8,00,
28926566,000003FD,false,Rx,0,5,0F,0A,00,00,FF,00,00,00,
28926815,000000C3,false,Rx,0,8,1A,73,00,40,00,7D,FF,FF,
28927043,000000F5,false,Rx,0,7,DC,DC,00,82,00,82,00,00,
28927221,000000FF,false,Rx,0,4,00,20,F0,00,00,00,00,00,
28927448,00000112,false,Rx,0,8,FA,1F,B1,0D,C6,71,05,58,
28927686,00000201,false,Rx,0,8,41,25,4B,4C,FF,FF,FF,FF,
28927947,00000212,false,Rx,0,8,F8,F8,F9,FF,FF,FF,FF,FF,
28928195,000002DB,false,Rx,0,8,FF,FF,FF,FF,BF,FF,FF,FF,
28928446,000002F1,false,Rx,0,8,36,10,7D,00,00,00,00,A0,
28931278,000002A7,false,Rx,0,5,8E,F9,FE,FF,14,00,00,00,
28932822,00000100,false,Rx,0,8,95,F0,7F,C0,5D,D9,86,70,
28934358,0000015F,false,Rx,0,8,CD,F9,00,7D,00,EE,00,7D,
28935564,00000272,false,Rx,0,8,2D,FE,00,12,FF,FF,FF,FF,
28935947,000000C3,false,Rx,0,8,94,74,00,40,00,7D,FF,FF,
28936196,00000201,false,Rx,0,8,43,25,4D,4C,FF,FF,FF,FF,
28936435,0000013A,false,Rx,0,8,0D,F5,00,00,00,0E,FF,FF,
28937364,00000112,false,Rx,0,8,FA,1F,B1,0D,C6,71,05,58,
28940054,00000199,false,Rx,0,6,FF,FF,44,7F,FF,3F,00,00,
28940262,0000019A,false,Rx,0,6,FF,FF,8A,7F,FF,3F,00,00,
28940477,0000019F,false,Rx,0,6,FF,FF,06,80,FF,2F,00,00,
28940716,00000254,false,Rx,0,8,FF,7F,FF,7F,FF,7F,FF,7F,
28940851,00000258,false,Rx,0,2,11,11,00,00,00,00,00,00,
28942871,00000100,false,Rx,0,8,C8,F1,7F,C0,5D,D9,86,70,
28943037,00000197,false,Rx,0,4,0C,0D,0E,C0,00,00,00,00,
28944357,000000EF,false,Rx,0,8,B5,F9,00,7D,21,FF,7C,FF,
28944595,000000A5,false,Rx,0,8,53,F2,FF,F7,7F,00,00,C1,
28944836,000000D9,false,Rx,0,8,1F,F2,00,10,00,F0,7F,C0,
28944971,000000AC,false,Rx,0,2,00,F0,00,00,00,00,00,00,
28945208,000000F3,false,Rx,0,8,31,02,00,FF,F0,C0,FF,FF,
28945436,0000012F,false,Rx,0,8,E8,20,86,1C,F1,35,30,00,
28945675,00000140,false,Rx,0,8,8B,66,40,9C,00,00,94,FF,
28945904,00000141,false,Rx,0,8,9A,76,40,9C,00,00,F4,FF,
28946091,000001A1,false,Rx,0,5,33,C6,00,00,8A,00,00,00,
28946340,00000206,false,Rx,0,8,02,2D,80,FF,FF,FF,FF,FF,
28946570,000002E8,false,Rx,0,8,C0,E8,C3,FF,FF,F4,F7,5A,
28946810,000000C3,false,Rx,0,8,C9,75,00,40,00,7D,FF,FF,
28947368,00000112,false,Rx,0,8,FA,1F,B1,0D,C6,71,05,58,
28947843,000002F5,false,Rx,0,8,BE,0F,60,29,22,0A,06,10,
28952911,00000100,false,Rx,0,8,2F,F2,7F,C0,5D,D9,86,70,
28953980,00000163,false,Rx,0,8,FF,FF,EB,24,FF,FF,FF,FF,
28954209,00000173,false,Rx,0,8,DC,F3,00,0E,30,00,DE,10,
28954457,0000015F,false,Rx,0,8,2A,FA,00,7D,00,EE,00,7D,
28955964,000000C3,false,Rx,0,8,2E,76,00,40,00,7D,FF,FF,
28956347,0000013A,false,Rx,0,8,B7,F7,00,00,00,0E,FF,FF,
28957367,00000112,false,Rx,0,8,FA,1F,B1,0D,C6,71,05,58,
28960054,00000199,false,Rx,0,6,FF,FF,4E,7F,FF,3F,00,00,
28960262,0000019A,false,Rx,0,6,FF,FF,80,7F,FF,3F,00,00,
28960469,0000019F,false,Rx,0,6,FF,FF,FF,7F,FF,2F,00,00,
28960718,00000254,false,Rx,0,8,FF,7F,FF,7F,FF,7F,FF,7F,
28960843,00000258,false,Rx,0,2,11,11,00,00,00,00,00,00,
28961075,00000302,false,Rx,0,7,FF,FF,D4,80,FE,FF,FF,00,
28961323,0000051A,false,Rx,0,8,00,00,00,00,50,00,00,1A,
28961571,000007BD,false,Rx,0,8,00,00,00,40,FF,C0,01,08,
28961843,000007BE,false,Rx,0,8,0C,41,04,69,00,00,00,00,
28962987,00000100,false,Rx,0,8,72,F3,7F,C0,5D,D9,86,70,
28964241,000000A5,false,Rx,0,8,0E,F3,FF,F7,7F,00,00,C1,
28964479,000000EF,false,Rx,0,8,52,FA,00,7D,21,FF,7C,FF,
28964718,000000D9,false,Rx,0,8,42,F3,00,10,00,F0,7F,C0,
28964855,000000AC,false,Rx,0,2,00,F0,00,00,00,00,00,00,
28965093,000000F3,false,Rx,0,8,6C,03,00,FF,F0,C0,FF,FF,
28965270,000001A1,false,Rx,0,5,C6,C8,00,00,8A,00,00,00,
28965507,00000140,false,Rx,0,8,8A,68,40,9C,00,00,94,FF,
28965748,00000141,false,Rx,0,8,9B,78,40,9C,00,00,F4,FF,
28965986,000000C3,false,Rx,0,8,73,77,00,40,00,7D,FF,FF,
28967362,00000112,false,Rx,0,8,FA,1F,B1,0D,C6,71,05,58,
28971277,0000036E,false,Rx,0,5,1A,F5,FE,FF,14,00,00,00,
28972892,00000100,false,Rx,0,8,FC,F4,7F,C0,5D,D9,86,70,
28973058,00000197,false,Rx,0,4,80,0E,0E,C0,00,00,00,00,
28974355,0000015F,false,Rx,0,8,77,FB,00,7D,00,EE,00,7D,
28975182,000001AE,false,Rx,0,2,F7,FF,00,00,00,00,00,00,
28975943,000000C3,false,Rx,0,8,2F,78,00,40,00,7D,FF,FF,
28976347,0000013A,false,Rx,0,8,B6,F9,00,00,00,0E,FF,FF,
28977377,00000112,false,Rx,0,8,FA,1F,B1,0D,C6,71,05,58,
28980033,00000199,false,Rx,0,6,FF,FF,44,7F,FF,3F,00,00,
28980241,0000019A,false,Rx,0,6,FF,FF,58,7F,FF,3F,00,00,
28980448,0000019F,false,Rx,0,6,FF,FF,FD,7F,FF,2F,00,00,
28980698,00000254,false,Rx,0,8,FF,7F,FF,7F,FF,7F,FF,7F,
28980823,00000258,false,Rx,0,2,11,11,00,00,00,00,00,00,
28981339,000002BB,false,Rx,0,5,8C,FA,04,0A,F2,00,00,00,
28981582,00000289,false,Rx,0,8,86,F8,E0,FF,FD,00,EC,01,
28982986,00000100,false,Rx,0,8,A1,F5,7F,C0,5D,D9,86,70,
28984233,000000A5,false,Rx,0,8,80,F4,FF,F7,7F,00,00,C1,
28984471,000000EF,false,Rx,0,8,0F,FB,00,7D,21,FF,7C,FF,
28984606,000000AC,false,Rx,0,2,00,F0,00,00,00,00,00,00,
28984845,000000D9,false,Rx,0,8,CC,F4,00,10,00,F0,7F,C0,
28985084,000000F3,false,Rx,0,8,E2,04,00,FF,F0,C0,FF,FF,
28985260,000001A1,false,Rx,0,5,E1,CA,00,00,8A,00,00,00,
28985505,00000140,false,Rx,0,8,30,6A,40,9C,00,00,94,FF,
28985734,00000141,false,Rx,0,8,21,7A,40,9C,00,00,F4,FF,
28985982,00000206,false,Rx,0,8,E5,2E,80,FF,FF,FF,FF,FF,
28986189,00000246,false,Rx,0,6,3F,FB,00,FF,FF,FF,00,00,
28986428,000000C3,false,Rx,0,8,72,79,00,40,00,7D,FF,FF,
28986666,00000299,false,Rx,0,8,FF,00,30,00,00,00,F0,00,
28986906,00000201,false,Rx,0,8,4D,25,57,4C,FF,FF,FF,FF,
28987381,00000112,false,Rx,0,8,FA,1F,B1,0D,C6,71,05,58,
28989310,00000200,false,Rx,0,8,00,00,83,00,00,00,00,FF,
28992291,0000036F,false,Rx,0,5,6F,F6,FE,FF,14,00,00,00,
28992536,0000031C,false,Rx,0,8,FF,FF,FF,FF,FF,FF,FF,FF,
28992776,00000100,false,Rx,0,8,46,F6,7F,C0,5D,D9,86,70,
28992973,0000033B,false,Rx,0,6,74,F3,DC,FF,FF,FF,00,00,
28994005,0000003C,false,Rx,0,8,FF,5F,00,02,00,00,FF,FF,
28994369,0000015F,false,Rx,0,8,F9,FC,00,7D,00,EE,00,7D,
28995968,000000C3,false,Rx,0,8,95,7A,00,40,00,7D,FF,FF,
28996360,0000013A,false,Rx,0,8,0C,FB,00,00,00,0E,FF,FF,
28997413,00000112,false,Rx,0,8,FA,1F,B1,0D,C6,71,05,58,
29000031,00000199,false,Rx,0,6,FF,FF,4E,7F,FF,3F,00,00,
29000239,0000019A,false,Rx,0,6,FF,FF,4E,7F,FF,3F,00,00,
29000454,0000019F,false,Rx,0,6,FF,FF,06,80,FF,2F,00,00,
29000692,00000254,false,Rx,0,8,FF,7F,FF,7F,FF,7F,FF,7F,
29000829,00000258,false,Rx,0,2,11,11,00,00,00,00,00,00,
29001057,00000302,false,Rx,0,7,FF,FF,D4,80,FE,FF,FF,00,
29002335,00000297,false,Rx,0,7,1E,E5,F0,EC,F2,92,EA,00,
29002950,00000100,false,Rx,0,8,1B,F7,7F,C0,5D,D9,86,70,
29003117,00000197,false,Rx,0,4,89,00,0E,C0,00,00,00,00,
29004241,000000A5,false,Rx,0,8,DD,F5,FF,F7,7F,00,00,C1,
29004479,000000EF,false,Rx,0,8,81,FC,00,7D,21,FF,7C,FF,
29004615,000000AC,false,Rx,0,2,00,F0,00,00,00,00,00,00,
29004864,000000D9,false,Rx,0,8,91,F5,00,10,00,F0,7F,C0,
29005102,000000F3,false,Rx,0,8,BF,05,00,FF,F0,C0,FF,FF,
29005279,000001A1,false,Rx,0,5,88,CC,00,00,8A,00,00,00,
29005518,00000140,false,Rx,0,8,E3,6C,40,9C,00,00,94,FF,
29005757,00000141,false,Rx,0,8,F2,7C,40,9C,00,00,F4,FF,
29005995,000000C3,false,Rx,0,8,C8,7B,00,40,00,7D,FF,FF,
29007387,00000112,false,Rx,0,8,FA,1F,B1,0D,C6,71,05,58,
29010725,000007BD,false,Rx,0,8,10,00,00,00,00,00,00,00,
29011002,000007BE,false,Rx,0,8,00,C0,FA,1C,02,00,00,00,
29011281,000002A7,false,Rx,0,5,34,FA,FE,FF,14,00,00,00,
29012929,00000100,false,Rx,0,8,47,F8,7F,C0,5D,D9,86,70,
29014352,0000015F,false,Rx,0,8,A4,FD,00,7D,00,EE,00,7D,
29015951,000000C3,false,Rx,0,8,46,7C,00,40,00,7D,FF,FF,
29016344,0000013A,false,Rx,0,8,DF,FD,00,00,00,0E,FF,FF,
29017395,00000112,false,Rx,0,8,FA,1F,B1,0D,C6,71,05,58,
29020041,00000199,false,Rx,0,6,FF,FF,58,7F,FF,3F,00,00,
29020239,0000019A,false,Rx,0,6,FF,FF,58,7F,FF,3F,00,00,
29020446,0000019F,false,Rx,0,6,FF,FF,13,80,FF,2F,00,00,
29020694,00000254,false,Rx,0,8,FF,7F,FF,7F,FF,7F,FF,7F,
29020823,00000258,false,Rx,0,2,11,11,00,00,00,00,00,00,
29022971,00000100,false,Rx,0,8,1A,F9,7F,C0,5D,D9,86,70,
29024179,000002C4,false,Rx,0,8,00,00,FF,00,C8,64,FF,CF,
29024417,000000A5,false,Rx,0,8,3A,F6,FF,F7,7F,00,00,C1,
29024656,000000EF,false,Rx,0,8,DC,FD,00,7D,21,FF,7C,FF,
29024783,000000AC,false,Rx,0,2,00,F0,00,00,00,00,00,00,
29025024,000000D9,false,Rx,0,8,76,F6,00,10,00,F0,7F,C0,
29025262,000000F3,false,Rx,0,8,58,06,00,FF,F0,C0,FF,FF,
29025491,00000140,false,Rx,0,8,59,6E,40,9C,00,00,94,FF,
29025730,00000141,false,Rx,0,8,48,7E,40,9C,00,00,F4,FF,
29025979,00000108,false,Rx,0,8,00,7D,FF,FF,07,F1,FF,FF,
29026218,0000019D,false,Rx,0,8,69,FE,8D,01,FF,FF,FF,FF,
29026405,000001A1,false,Rx,0,5,AF,CE,00,00,8A,00,00,00,
29026622,000002C5,false,Rx,0,7,6B,FD,00,60,06,70,C8,00,
29026820,00000304,false,Rx,0,6,FF,FF,E6,38,FF,FF,00,00,
29027010,00000349,false,Rx,0,5,FE,FF,FE,FF,00,00,00,00,
29027196,000003FD,false,Rx,0,5,92,0B,00,00,FF,00,00,00,
29027423,00000112,false,Rx,0,8,FA,1F,B1,0D,C6,71,05,58,
29027672,000000C3,false,Rx,0,8,1B,7D,00,40,00,7D,FF,FF,
29027912,000001B5,false,Rx,0,8,35,43,92,6D,FF,FF,FF,FF,
29028171,00000206,false,Rx,0,8,E4,20,80,FF,FF,FF,FF,FF,
29028419,00000212,false,Rx,0,8,A5,F9,F9,FF,FF,FF,FF,FF,
29028669,000002DB,false,Rx,0,8,FF,FF,FF,FF,BF,FF,FF,FF,
29028919,000002F1,false,Rx,0,8,36,10,7D,00,00,00,00,A0,
29029167,0000032B,false,Rx,0,8,FF,FF,FF,FF,FF,FF,00,FF,
29029417,00000331,false,Rx,0,8,FF,FF,FF,EF,7F,FE,F7,FF,
29029665,000003E9,false,Rx,0,8,5C,8F,00,00,00,00,00,00,
29032988,00000100,false,Rx,0,8,FD,FA,7F,C0,5D,D9,86,70,
29033151,00000197,false,Rx,0,4,06,01,0E,C0,00,00,00,00,
29034357,0000015F,false,Rx,0,8,43,FE,00,7D,00,EE,00,7D,
29035974,000000C3,false,Rx,0,8,FC,7E,00,40,00,7D,FF,FF,
29036234,00000201,false,Rx,0,8,57,25,61,4C,FF,FF,FF,FF,
29036483,0000013A,false,Rx,0,8,39,F0,00,00,00,0E,FF,FF,
29037372,00000112,false,Rx,0,8,FA,1F,B1,0D,C6,71,05,58,
29037610,00000239,false,Rx,0,8,8C,71,3C,B7,04,FF,FF,FF,
29040043,00000199,false,Rx,0,6,FF,FF,6C,7F,FF,3F,00,00,
29040250,0000019A,false,Rx,0,6,FF,FF,4E,7F,FF,3F,00,00,
29040457,0000019F,false,Rx,0,6,FF,FF,08,80,FF,2F,00,00,
29040706,00000254,false,Rx,0,8,FF,7F,FF,7F,FF,7F,FF,7F,
29040832,00000258,false,Rx,0,2,11,11,00,00,00,00,00,00,
29041059,00000302,false,Rx,0,7,FF,FF,D4,80,FE,FF,FF,00,
29042879,00000100,false,Rx,0,8,A0,FB,7F,C0,5D,D9,86,70,
29044361,000000EF,false,Rx,0,8,3B,FE,00,7D,21,FF,7C,FF,
29044600,000000A5,false,Rx,0,8,67,F7,FF,F7,7F,00,00,C1,
29044841,000002E8,false,Rx,0,8,C0,E8,C3,FF,FF,F4,F8,E1,
29044976,000000AC,false,Rx,0,2,00,F0,00,00,00,00,00,00,
29045215,000000D9,false,Rx,0,8,2B,F7,00,10,00,F0,7F,C0,
29045454,000000F3,false,Rx,0,8,05,07,00,FF,F0,C0,FF,FF,
29045682,0000012F,false,Rx,0,8,B5,21,86,1C,F1,35,30,00,
29045922,00000140,false,Rx,0,8,05,61,40,9C,00,00,94,FF,
29046161,000000C3,false,Rx,0,8,FD,70,00,40,00,7D,FF,FF,
29046399,00000141,false,Rx,0,8,14,71,40,9C,00,00,F4,FF,
29046586,000001A1,false,Rx,0,5,C7,C1,00,00,8A,00,00,00,
29046732,00000314,false,Rx,0,3,50,00,FF,00,00,00,00,00,
29047371,00000112,false,Rx,0,8,FA,1F,B1,0D,C6,71,05,58,
29047848,000002F5,false,Rx,0,8,BE,0F,60,29,22,0A,06,10,
29052999,00000100,false,Rx,0,8,2E,FC,7F,C0,5D,D9,86,70,
29053987,00000163,false,Rx,0,8,FF,FF,EB,24,FF,FF,FF,FF,
29054225,00000173,false,Rx,0,8,DD,FD,00,0E,30,00,DE,10,
29054463,0000015F,false,Rx,0,8,42,F0,00,7D,00,EE,00,7D,
29055949,000000C3,false,Rx,0,8,A0,71,00,40,00,7D,FF,FF,
29056353,0000013A,false,Rx,0,8,83,F2,00,00,00,0E,FF,FF,
29057383,00000112,false,Rx,0,8,FA,1F,B1,0D,C6,71,05,58,
29060030,00000199,false,Rx,0,6,FF,FF,6C,7F,FF,3F,00,00,
29060237,0000019A,false,Rx,0,6,FF,FF,44,7F,FF,3F,00,00,
29060444,0000019F,false,Rx,0,6,FF,FF,07,80,FF,2F,00,00,
29060692,00000254,false,Rx,0,8,FF,7F,FF,7F,FF,7F,FF,7F,
29060819,00000258,false,Rx,0,2,11,11,00,00,00,00,00,00,
29061066,000007BD,false,Rx,0,8,00,00,00,40,FF,C0,01,08,
29061341,000007BE,false,Rx,0,8,05,00,00,00,00,00,00,E0,
29062981,00000100,false,Rx,0,8,73,FD,7F,C0,5D,D9,86,70,
29063147,00000197,false,Rx,0,4,8A,02,0E,C0,00,00,00,00,
29063849,00000348,false,Rx,0,8,3A,10,0A,FE,FE,01,33,16,
29064354,000000EF,false,Rx,0,8,3A,F0,00,7D,21,FF,7C,FF,
29064594,000000A5,false,Rx,0,8,3B,F8,FF,F7,7F,00,00,C1,
29064730,000000AC,false,Rx,0,2,00,F0,00,00,00,00,00,00,
29064967,000000D9,false,Rx,0,8,77,F8,00,10,00,F0,7F,C0,
29065211,000000F3,false,Rx,0,8,59,08,00,FF,F0,C0,FF,FF,
29065440,00000140,false,Rx,0,8,BF,63,40,9C,00,00,94,FF,
29065678,00000141,false,Rx,0,8,AE,73,40,9C,00,00,F4,FF,
29065856,000001A1,false,Rx,0,5,E0,C3,00,00,8A,00,00,00,
29066104,00000206,false,Rx,0,8,B9,21,80,FF,FF,FF,FF,FF,
29066354,000000C3,false,Rx,0,8,47,72,00,40,00,7D,FF,FF,
29067371,00000112,false,Rx,0,8,FA,1F,B1,0D,C6,71,05,58,
29070955,00000301,false,Rx,0,7,FF,FF,B8,80,FF,FF,CF,00,
29072890,00000100,false,Rx,0,8,94,FE,7F,C0,5D,D9,86,70,
29074361,0000015F,false,Rx,0,8,1F,F1,00,7D,00,EE,00,7D,
29075187,000001AE,false,Rx,0,2,F7,FF,00,00,00,00,00,00,
29075959,000000C3,false,Rx,0,8,1A,73,00,40,00,7D,FF,FF,
29076342,0000013A,false,Rx,0,8,50,F4,00,00,00,0E,FF,FF,
29077393,00000112,false,Rx,0,8,FA,1F,B2,0D,C6,71,05,58,
29080029,00000199,false,Rx,0,6,FF,FF,6C,7F,FF,3F,00,00,
29080236,0000019A,false,Rx,0,6,FF,FF,58,7F,FF,3F,00,00,
29080443,0000019F,false,Rx,0,6,FF,FF,F5,7F,FF,2F,00,00,
29080691,00000254,false,Rx,0,8,FF,7F,FF,7F,FF,7F,FF,7F,
29080819,00000258,false,Rx,0,2,11,11,00,00,00,00,00,00,
29081056,00000302,false,Rx,0,7,FF,FF,D4,80,FE,FF,FF,00,
29081340,000002BB,false,Rx,0,5,E4,F5,04,0A,F2,00,00,00,
29081579,00000289,false,Rx,0,8,DB,F9,E0,FF,FD,00,EC,01,
29082961,00000100,false,Rx,0,8,95,F0,7F,C0,5D,D9,86,70,
29083581,0000043D,false,Rx,0,8,0A,BF,E6,FF,51,28,80,50,
29084222,000000A5,false,Rx,0,8,66,F9,FF,F7,7F,00,00,C1,
29084460,000000EF,false,Rx,0,8,67,F1,00,7D,21,FF,7C,FF,
29084587,000000AC,false,Rx,0,2,00,F0,00,00,00,00,00,00,
29084826,000000D9,false,Rx,0,8,2A,F9,00,10,00,F0,7F,C0,
29085074,000000F3,false,Rx,0,8,04,09,00,FF,F0,C0,FF,FF,
29085251,000001A1,false,Rx,0,5,89,C5,00,00,8A,00,00,00,
29085487,00000140,false,Rx,0,8,6C,65,40,9C,00,00,94,FF,
29085728,00000141,false,Rx,0,8,7D,75,40,9C,00,00,F4,FF,
29085976,000000C3,false,Rx,0,8,94,74,00,40,00,7D,FF,FF,
29086215,00000201,false,Rx,0,8,60,25,6A,4C,FF,FF,FF,FF,
29087384,00000112,false,Rx,0,8,FA,1F,B2,0D,C6,71,05,58,
29087634,00000431,false,Rx,0,8,CA,FD,FF,FF,FF,99,F7,00,
29091281,000002A7,false,Rx,0,5,A9,FB,FE,FF,14,00,00,00,
29092877,00000100,false,Rx,0,8,C8,F1,7F,C0,5D,D9,86,70,
29093044,00000197,false,Rx,0,4,05,03,0E,C0,00,00,00,00,
29093868,000000C0,false,Rx,0,2,F7,40,00,00,00,00,00,00,
29094115,0000003C,false,Rx,0,8,FF,5F,00,02,00,00,FF,FF,
29094363,0000015F,false,Rx,0,8,F8,F2,00,7D,00,EE,00,7D,
29095747,000003B4,false,Rx,0,8,00,00,0C,F0,98,FF,00,00,
29095985,000000C3,false,Rx,0,8,C9,75,00,40,00,7D,FF,FF,
29096337,0000013A,false,Rx,0,8,EA,F6,00,00,00,0E,FF,FF,
29097390,00000112,false,Rx,0,8,FA,1F,B1,0D,C6,71,05,58,
29097619,00000432,false,Rx,0,8,1C,DB,15,BD,56,7C,01,BC,
29100030,00000199,false,Rx,0,6,FF,FF,62,7F,FF,3F,00,00,
29100237,0000019A,false,Rx,0,6,FF,FF,6C,7F,FF,3F,00,00,
29100454,0000019F,false,Rx,0,6,FF,FF,EE,7F,FF,2F,00,00,
29100693,00000254,false,Rx,0,8,FF,7F,FF,7F,FF,7F,FF,7F,
29100820,00000258,false,Rx,0,2,11,11,00,00,00,00,00,00,
29102998,00000100,false,Rx,0,8,2F,F2,7F,C0,5D,D9,86,70,
29103520,0000043C,false,Rx,0,8,FE,FE,FF,FF,FF,FF,FF,FF,
29104243,000000A5,false,Rx,0,8,81,FA,FF,F7,7F,00,00,C1,
29104482,000000EF,false,Rx,0,8,80,F2,00,7D,21,FF,7C,FF,
29104723,000000D9,false,Rx,0,8,CD,FA,00,10,00,F0,7F,C0,
29104858,000000AC,false,Rx,0,2,00,F0,00,00,00,00,00,00,
29105096,000000F3,false,Rx,0,8,E3,0A,00,FF,F0,C0,FF,FF,
29105272,000001A1,false,Rx,0,5,AE,C7,00,00,8A,00,00,00,
29105508,00000140,false,Rx,0,8,D6,67,40,9C,00,00,94,FF,
29105748,00000141,false,Rx,0,8,C7,77,40,9C,00,00,F4,FF,
29105987,00000206,false,Rx,0,8,5E,22,80,FF,FF,FF,FF,FF,
29106236,000000C3,false,Rx,0,8,2E,76,00,40,00,7D,FF,FF,
29107372,00000112,false,Rx,0,8,FA,1F,B1,0D,C6,71,05,58,
29110715,000007BD,false,Rx,0,8,01,2D,55,7F,49,58,58,00,
29110980,000007BE,false,Rx,0,8,07,59,10,40,06,67,00,00,
29112914,00000100,false,Rx,0,8,72,F3,7F,C0,5D,D9,86,70,
29114358,0000015F,false,Rx,0,8,A5,F3,00,7D,00,EE,00,7D,
29114895,000001E1,false,Rx,0,6,08,F4,55,FF,FF,FF,00,00,
29115947,000000C3,false,Rx,0,8,73,77,00,40,00,7D,FF,FF,
29116350,0000013A,false,Rx,0,8,EB,F8,00,00,00,0E,FF,FF,
29117372,00000112,false,Rx,0,8,FA,1F,B1,0D,C6,71,05,58,
29120029,00000199,false,Rx,0,6,FF,FF,6C,7F,FF,3F,00,00,
29120236,0000019A,false,Rx,0,6,FF,FF,80,7F,FF,3F,00,00,
29120454,0000019F,false,Rx,0,6,FF,FF,FA,7F,FF,2F,00,00,
29120704,00000254,false,Rx,0,8,FF,7F,FF,7F,FF,7F,FF,7F,
29120831,00000258,false,Rx,0,2,11,11,00,00,00,00,00,00,
29121057,00000302,false,Rx,0,7,FF,FF,D4,80,FE,FF,FF,00,
29122973,00000100,false,Rx,0,8,FC,F4,7F,C0,5D,D9,86,70,
29123140,00000197,false,Rx,0,4,8F,04,0E,C0,00,00,00,00,
29124191,000002C4,false,Rx,0,8,00,00,FF,00,C8,64,FF,CF,
29124430,000000A5,false,Rx,0,8,DC,FB,FF,F7,7F,00,00,C1,
29124556,000000AC,false,Rx,0,2,00,F0,00,00,00,00,00,00,
29124795,000000D9,false,Rx,0,8,90,FB,00,10,00,F0,7F,C0,
29125039,000000EF,false,Rx,0,8,DD,F3,00,7D,21,FF,7C,FF,
29125278,000000F3,false,Rx,0,8,BE,0B,00,FF,F0,C0,FF,FF,
29125516,00000140,false,Rx,0,8,D7,69,40,9C,00,00,94,FF,
29125756,00000141,false,Rx,0,8,C6,79,40,9C,00,00,F4,FF,
29125994,00000108,false,Rx,0,8,00,7D,FF,FF,07,F1,FF,FF,
29126182,000001A1,false,Rx,0,5,5B,C9,00,00,8A,00,00,00,
29126399,000002C5,false,Rx,0,7,A1,FE,00,60,06,70,C8,00,
29126585,000003FD,false,Rx,0,5,66,0C,00,00,FF,00,00,00,
29126711,000002CA,false,Rx,0,2,73,73,00,00,00,00,00,00,
29126951,000000C3,false,Rx,0,8,2F,78,00,40,00,7D,FF,FF,
29127148,000002F7,false,Rx,0,6,02,D8,49,0B,11,F1,00,00,
29127396,00000212,false,Rx,0,8,42,FA,F9,FF,FF,FF,FF,FF,
29127625,00000112,false,Rx,0,8,FA,1F,B1,0D,C6,71,05,58,
29127864,000002DB,false,Rx,0,8,FF,FF,FF,FF,BF,FF,FF,FF,
29128113,000002F1,false,Rx,0,8,36,10,7D,00,00,00,00,A0,
29131275,0000036E,false,Rx,0,5,A0,F6,FE,FF,14,00,00,00,
29132881,00000100,false,Rx,0,8,A1,F5,7F,C0,5D,D9,86,70,
29134362,0000015F,false,Rx,0,8,2B,F4,00,7D,00,EE,00,7D,
29135782,00000272,false,Rx,0,8,2C,F0,00,12,FF,FF,FF,FF,
29136022,000000C3,false,Rx,0,8,72,79,00,40,00,7D,FF,FF,
29136260,00000201,false,Rx,0,8,6A,25,74,4C,FF,FF,FF,FF,
29136508,0000013A,false,Rx,0,8,51,FA,00,00,00,0E,FF,FF,
29137368,00000112,false,Rx,0,8,FA,1F,B1,0D,C6,71,05,58,
29140056,00000199,false,Rx,0,6,FF,FF,4E,7F,FF,3F,00,00,
29140263,0000019A,false,Rx,0,6,FF,FF,94,7F,FF,3F,00,00,
29140470,0000019F,false,Rx,0,6,FF,FF,FF,7F,FF,2F,00,00,
29140720,00000254,false,Rx,0,8,FF,7F,FF,7F,FF,7F,FF,7F,
29140846,00000258,false,Rx,0,2,11,11,00,00,00,00,00,00,
29142868,00000100,false,Rx,0,8,46,F6,7F,C0,5D,D9,86,70,
29144360,000000EF,false,Rx,0,8,53,F4,00,7D,21,FF,7C,FF,
29144599,000000A5,false,Rx,0,8,52,FC,FF,F7,7F,00,00,C1,
29144838,000002E8,false,Rx,0,8,C0,E8,C3,FF,FF,F4,F9,FC,
29144964,000000AC,false,Rx,0,2,00,F0,00,00,00,00,00,00,
29145211,000000D9,false,Rx,0,8,1E,FC,00,10,00,F0,7F,C0,
29145454,000000F3,false,Rx,0,8,30,0C,00,FF,F0,C0,FF,FF,
29145682,0000012F,false,Rx,0,8,52,22,86,1C,F1,35,30,00,
29145911,00000140,false,Rx,0,8,6D,6B,40,9C,00,00,94,FF,
29146150,00000141,false,Rx,0,8,7C,7B,40,9C,00,00,F4,FF,
29146337,000001A1,false,Rx,0,5,7C,CB,00,00,8A,00,00,00,
29146585,00000206,false,Rx,0,8,03,23,80,FF,FF,FF,FF,FF,
29146826,000000C3,false,Rx,0,8,95,7A,00,40,00,7D,FF,FF,
29147393,00000112,false,Rx,0,8,FA,1F,B1,0D,C6,71,05,58,
29147870,000002F5,false,Rx,0,8,BE,0F,60,29,22,0A,06,10,
29151629,000003D8,false,Rx,0,8,03,FF,FF,FF,FF,FF,FF,FF,
29152287,0000036F,false,Rx,0,5,F2,F7,FE,FF,14,00,00,00,
29152989,00000100,false,Rx,0,8,1B,F7,7F,C0,5D,D9,86,70,
29153156,00000197,false,Rx,0,4,00,05,0E,C0,00,00,00,00,
29153981,00000163,false,Rx,0,8,FF,FF,EB,24,FF,FF,FF,FF,
29154219,00000173,false,Rx,0,8,E9,F8,00,0E,30,00,DE,10,
29154458,0000015F,false,Rx,0,8,76,F5,00,7D,00,EE,00,7D,
29155698,0000013A,false,Rx,0,8,82,FC,00,00,00,0E,FF,FF,
29155947,000000C3,false,Rx,0,8,C8,7B,00,40,00,7D,FF,FF,
29157370,00000112,false,Rx,0,8,FA,1F,B1,0D,C6,71,05,58,
29160024,00000199,false,Rx,0,6,FF,FF,62,7F,FF,3F,00,00,
29160237,0000019A,false,Rx,0,6,FF,FF,94,7F,FF,3F,00,00,
29160444,0000019F,false,Rx,0,6,FF,FF,0C,80,FF,2F,00,00,
29160693,00000254,false,Rx,0,8,FF,7F,FF,7F,FF,7F,FF,7F,
29160819,00000258,false,Rx,0,2,11,11,00,00,00,00,00,00,
29161046,00000302,false,Rx,0,7,FF,FF,D4,80,FE,FF,FF,00,
29161294,000007BD,false,Rx,0,8,00,00,00,40,FF,C0,01,08,
29161575,000007BE,false,Rx,0,8,0B,00,00,00,00,00,00,00,
29161701,000002D1,false,Rx,0,2,31,9B,00,00,00,00,00,00,
29162906,00000100,false,Rx,0,8,47,F8,7F,C0,5D,D9,86,70,
29164253,000000A5,false,Rx,0,8,0F,FD,FF,F7,7F,00,00,C1,
29164482,000000EF,false,Rx,0,8,0E,F5,00,7D,21,FF,7C,FF,
29164722,000000D9,false,Rx,0,8,43,FD,00,10,00,F0,7F,C0,
29164857,000000AC,false,Rx,0,2,00,F0,00,00,00,00,00,00,
29165094,000000F3,false,Rx,0,8,6D,0D,00,FF,F0,C0,FF,FF,
29165272,000001A1,false,Rx,0,5,15,CD,00,00,8A,00,00,00,
29165520,00000140,false,Rx,0,8,BE,6D,40,9C,00,00,94,FF,
29165749,00000141,false,Rx,0,8,AF,7D,40,9C,00,00,F4,FF,
29165999,000000C3,false,Rx,0,8,46,7C,00,40,00,7D,FF,FF,
29167371,00000112,false,Rx,0,8,FA,1F,B1,0D,C6,71,05,58,
29171281,000002A7,false,Rx,0,5,5D,FC,FE,FF,14,00,00,00,
29172889,00000100,false,Rx,0,8,1A,F9,7F,C0,5D,D9,86,70,
29174358,0000015F,false,Rx,0,8,91,F6,00,7D,00,EE,00,7D,
29175279,000001AE,false,Rx,0,2,F7,FF,00,00,00,00,00,00,
29175792,0000013A,false,Rx,0,8,38,FE,00,00,00,0E,FF,FF,
29176032,00000201,false,Rx,0,8,72,25,7C,4C,FF,FF,FF,FF,
29176311,000000C3,false,Rx,0,8,1B,7D,00,40,00,7D,FF,FF,
29176528,000000F5,false,Rx,0,7,DC,DC,00,82,00,82,00,00,
29176717,000000FF,false,Rx,0,4,00,20,F0,00,00,00,00,00,
29177243,000002ED,false,Rx,0,3,3B,0B,02,00,00,00,00,00,
29177475,00000112,false,Rx,0,8,FA,1F,B1,0D,C6,71,05,58,
29180030,00000199,false,Rx,0,6,FF,FF,3A,7F,FF,3F,00,00,
29180237,0000019A,false,Rx,0,6,FF,FF,A8,7F,FF,3F,00,00,
29180433,0000019F,false,Rx,0,6,FF,FF,09,80,FF,2F,00,00,
29180683,00000254,false,Rx,0,8,FF,7F,FF,7F,FF,7F,FF,7F,
29180810,00000258,false,Rx,0,2,11,11,00,00,00,00,00,00,
29181346,000002BB,false,Rx,0,5,37,F0,04,0A,F2,00,00,00,
29181579,00000289,false,Rx,0,8,3C,FA,E0,FF,FD,00,EC,01,
29182952,00000100,false,Rx,0,8,FD,FA,7F,C0,5D,D9,86,70,
29183118,00000197,false,Rx,0,4,8C,06,0E,C0,00,00,00,00,
29184354,000000EF,false,Rx,0,8,E9,F6,00,7D,21,FF,7C,FF,
29184594,000000A5,false,Rx,0,8,E8,FE,FF,F7,7F,00,00,C1,
29184720,000000AC,false,Rx,0,2,00,F0,00,00,00,00,00,00,
29184967,000000D9,false,Rx,0,8,A4,FE,00,10,00,F0,7F,C0,
29185207,000000F3,false,Rx,0,8,8A,0E,00,FF,F0,C0,FF,FF,
29185438,00000140,false,Rx,0,8,58,60,40,9C,00,00,94,FF,
29185677,00000141,false,Rx,0,8,49,70,40,9C,00,00,F4,FF,
29185865,000001A1,false,Rx,0,5,5A,C0,00,00,8A,00,00,00,
29186103,00000206,false,Rx,0,8,CB,24,81,FF,FF,FF,FF,FF,
29186362,000000C3,false,Rx,0,8,FC,7E,00,40,00,7D,FF,FF,
29186600,00000201,false,Rx,0,8,74,25,7D,4C,FF,FF,FF,FF,
29187406,00000112,false,Rx,0,8,FA,1F,B1,0D,C6,71,05,58,
29192360,0000031C,false,Rx,0,8,FF,FF,FF,FF,FF,FF,FF,FF,
29192553,0000033B,false,Rx,0,6,7F,F4,DC,FF,FF,FF,00,00,
29192781,000003A7,false,Rx,0,7,9C,F8,00,00,1F,11,F0,00,
29193021,00000100,false,Rx,0,8,A0,FB,7F,C0,5D,D9,86,70,
29193156,000003E6,false,Rx,0,2,50,00,00,00,00,00,00,00,
29194023,0000003C,false,Rx,0,8,FF,5F,00,02,00,00,FF,FF,
29194363,0000015F,false,Rx,0,8,CC,F7,00,7D,00,EE,00,7D,
29195949,000000C3,false,Rx,0,8,FD,70,00,40,00,7D,FF,FF,
29196341,0000013A,false,Rx,0,8,64,F1,00,00,00,0E,FF,FF,
29197423,00000112,false,Rx,0,8,FA,1F,B1,0D,C6,71,05,58,
29200029,00000199,false,Rx,0,6,FF,FF,44,7F,FF,3F,00,00,
29200236,0000019A,false,Rx,0,6,FF,FF,A8,7F,FF,3F,00,00,
29200452,0000019F,false,Rx,0,6,FF,FF,FF,7F,FF,2F,00,00,
29200690,00000254,false,Rx,0,8,FF,7F,FF,7F,FF,7F,FF,7F,
29200817,00000258,false,Rx,0,2,11,11,00,00,00,00,00,00,
29201043,00000302,false,Rx,0,7,FF,FF,D4,80,FE,FF,FF,00,
29202385,00000297,false,Rx,0,7,D4,E6,F0,EC,F2,92,EA,00,
29202978,00000100,false,Rx,0,8,2E,FC,7F,C0,5D,D9,86,70,
29204235,000000A5,false,Rx,0,8,E9,F0,FF,F7,7F,00,00,C1,
29204465,000000EF,false,Rx,0,8,B4,F7,00,7D,21,FF,7C,FF,
29204714,000000D9,false,Rx,0,8,A5,F0,00,10,00,F0,7F,C0,
29204840,000000AC,false,Rx,0,2,00,F0,00,00,00,00,00,00,
29205077,000000F3,false,Rx,0,8,8B,00,00,FF,F0,C0,FF,FF,
29205265,000001A1,false,Rx,0,5,7D,C2,00,00,8A,00,00,00,
29205502,00000140,false,Rx,0,8,E2,62,40,9C,00,00,94,FF,
29205731,00000141,false,Rx,0,8,F3,72,40,9C,00,00,F4,FF,
29205981,000000C3,false,Rx,0,8,A0,71,00,40,00,7D,FF,FF,
29206291,00000314,false,Rx,0,3,50,00,FF,00,00,00,00,00,
29207382,0000021F,false,Rx,0,8,00,00,00,00,00,EE,F7,FF,
29207612,00000112,false,Rx,0,8,FA,1F,B1,0D,C6,71,05,58,
29210693,000007BD,false,Rx,0,8,04,00,00,01,00,00,00,80,
29212889,00000100,false,Rx,0,8,73,FD,7F,C0,5D,D9,86,70,
29213052,00000197,false,Rx,0,4,03,07,0E,C0,00,00,00,00,
29214361,0000015F,false,Rx,0,8,90,F8,00,7D,00,EE,00,7D,
29215969,000000C3,false,Rx,0,8,47,72,00,40,00,7D,FF,FF,
29216340,0000013A,false,Rx,0,8,DE,F3,00,00,00,0E,FF,FF,
29217370,00000112,false,Rx,0,8,FA,1F,B1,0D,C6,71,05,58,
29220028,00000199,false,Rx,0,6,FF,FF,3A,7F,FF,3F,00,00,
29220235,0000019A,false,Rx,0,6,FF,FF,A8,7F,FF,3F,00,00,
29220442,0000019F,false,Rx,0,6,FF,FF,20,80,FF,2F,00,00,
29220691,00000254,false,Rx,0,8,FF,7F,FF,7F,FF,7F,FF,7F,
29220817,00000258,false,Rx,0,2,11,11,00,00,00,00,00,00,
29222955,00000100,false,Rx,0,8,94,FE,7F,C0,5D,D9,86,70,
29224167,000002C4,false,Rx,0,8,00,00,FF,00,C8,64,FF,CF,
29224407,000000A5,false,Rx,0,8,B4,F1,FF,F7,7F,00,00,C1,
29224645,000000EF,false,Rx,0,8,E8,F8,00,7D,21,FF,7C,FF,
29224781,000000AC,false,Rx,0,2,00,F0,00,00,00,00,00,00,
29225020,000000D9,false,Rx,0,8,F8,F1,00,10,00,F0,7F,C0,
29225260,000000F3,false,Rx,0,8,D6,01,00,FF,F0,C0,FF,FF,
29225498,00000140,false,Rx,0,8,31,64,40,9C,00,00,94,FF,
29225738,00000141,false,Rx,0,8,20,74,40,9C,00,00,F4,FF,
29225988,00000108,false,Rx,0,8,00,7D,FF,FF,07,F1,FF,FF,
29226164,000001A1,false,Rx,0,5,14,C4,00,00,8A,00,00,00,
29226381,000002C5,false,Rx,0,7,22,F0,00,60,06,70,C8,00,
29226588,00000304,false,Rx,0,6,FF,FF,E5,38,FF,FF,00,00,
29226777,00000349,false,Rx,0,5,FE,FF,FE,FF,00,00,00,00,
29227037,000003F9,false,Rx,0,8,AE,F6,80,E0,A6,30,C3,FF,
29227203,000003FD,false,Rx,0,5,FB,0D,00,00,FF,00,00,00,
29227432,00000112,false,Rx,0,8,FA,1F,B1,0D,C6,71,05,58,
29227670,000000C3,false,Rx,0,8,1A,73,00,40,00,7D,FF,FF,
29227910,000001B5,false,Rx,0,8,BB,44,92,6D,FF,FF,FF,FF,
29228168,00000206,false,Rx,0,8,D0,25,80,FF,FF,FF,FF,FF,
29228439,00000212,false,Rx,0,8,1F,FB,F9,FF,FF,FF,FF,FF,
29228699,000002DB,false,Rx,0,8,FF,FF,FF,FF,BF,FF,FF,FF,
29228948,000002F1,false,Rx,0,8,36,10,7D,00,00,00,00,A0,
29229189,0000032B,false,Rx,0,8,FF,FF,FF,FF,FF,FF,00,FF,
29229437,00000331,false,Rx,0,8,FF,FF,FF,EF,7F,FE,F7,FF,
29229685,000003E9,false,Rx,0,8,5C,8F,00,00,00,00,00,00,
29232894,00000100,false,Rx,0,8,95,F0,7F,C0,5D,D9,86,70,
29234354,0000015F,false,Rx,0,8,CD,F9,00,7D,00,EE,00,7D,
29235950,000000C3,false,Rx,0,8,94,74,00,40,00,7D,FF,FF,
29236198,00000201,false,Rx,0,8,7D,25,87,4C,FF,FF,FF,FF,
29236437,0000013A,false,Rx,0,8,0D,F5,00,00,00,0E,FF,FF,
29237376,00000112,false,Rx,0,8,FA,1F,B1,0D,C6,71,05,58,
29237616,00000239,false,Rx,0,8,8C,71,3C,B7,04,FF,FF,FF,
29240048,00000199,false,Rx,0,6,FF,FF,3A,7F,FF,3F,00,00,
29240255,0000019A,false,Rx,0,6,FF,FF,B2,7F,FF,3F,00,00,
29240463,0000019F,false,Rx,0,6,FF,FF,00,80,FF,2F,00,00,
29240712,00000254,false,Rx,0,8,FF,7F,FF,7F,FF,7F,FF,7F,
29240837,00000258,false,Rx,0,2,11,11,00,00,00,00,00,00,
29241064,00000302,false,Rx,0,7,FF,FF,D4,80,FE,FF,FF,00,
29242865,00000100,false,Rx,0,8,C8,F1,7F,C0,5D,D9,86,70,
29243031,00000197,false,Rx,0,4,85,08,0E,C0,00,00,00,00,
29244349,000000EF,false,Rx,0,8,B5,F9,00,7D,21,FF,7C,FF,
29244597,000000A5,false,Rx,0,8,53,F2,FF,F7,7F,00,00,C1,
29244724,000000AC,false,Rx,0,2,00,F0,00,00,00,00,00,00,
29244971,000000D9,false,Rx,0,8,1F,F2,00,10,00,F0,7F,C0,
29245202,000000F3,false,Rx,0,8,31,02,00,FF,F0,C0,FF,FF,
29245440,0000012F,false,Rx,0,8,0F,23,86,1C,F1,35,30,00,
29245668,00000140,false,Rx,0,8,8B,66,40,9C,00,00,94,FF,
29245909,00000141,false,Rx,0,8,9A,76,40,9C,00,00,F4,FF,
29246147,000000C3,false,Rx,0,8,C9,75,00,40,00,7D,FF,FF,
29246334,000001A1,false,Rx,0,5,33,C6,00,00,8A,00,00,00,
29246571,000002E8,false,Rx,0,8,C0,E8,C3,FF,FF,F4,FA,DB,
29247376,00000112,false,Rx,0,8,FA,1F,B1,0D,C6,71,05,58,
29247852,000002F5,false,Rx,0,8,BE,0F,60,29,22,0A,06,10,
29251346,000002A7,false,Rx,0,5,C0,FD,FE,FF,14,00,00,00,
29252909,00000100,false,Rx,0,8,2F,F2,7F,C0,5D,D9,86,70,
29253978,00000163,false,Rx,0,8,FF,FF,EB,24,FF,FF,FF,FF,
29254206,00000173,false,Rx,0,8,DC,F3,00,0E,30,00,DE,10,
29254445,0000015F,false,Rx,0,8,2A,FA,00,7D,00,EE,00,7D,
29255963,000000C3,false,Rx,0,8,2E,76,00,40,00,7D,FF,FF,
29256345,0000013A,false,Rx,0,8,B7,F7,00,00,00,0E,FF,FF,
29257377,00000112,false,Rx,0,8,FA,1F,B1,0D,C6,71,05,58,
29259182,000001D0,false,Rx,0,8,31,F1,DF,FF,FF,FF,FF,FF,
29259478,000001B9,false,Rx,0,5,FF,FF,FF,14,FF,00,00,00,
29260078,00000199,false,Rx,0,6,FF,FF,44,7F,FF,3F,00,00,
29260285,0000019A,false,Rx,0,6,FF,FF,8A,7F,FF,3F,00,00,
29260483,0000019F,false,Rx,0,6,FF,FF,09,80,FF,2F,00,00,
29260732,00000254,false,Rx,0,8,FF,7F,FF,7F,FF,7F,FF,7F,
29260857,00000258,false,Rx,0,2,11,11,00,00,00,00,00,00,
29261104,000007BD,false,Rx,0,8,00,00,00,40,FF,C0,01,08,
29261385,000007BE,false,Rx,0,8,05,00,00,00,00,00,00,E0,
29262973,00000100,false,Rx,0,8,72,F3,7F,C0,5D,D9,86,70,
29264361,000000EF,false,Rx,0,8,52,FA,00,7D,21,FF,7C,FF,
29264600,000000A5,false,Rx,0,8,0E,F3,FF,F7,7F,00,00,C1,
29264726,000000AC,false,Rx,0,2,00,F0,00,00,00,00,00,00,
29264963,000000D9,false,Rx,0,8,42,F3,00,10,00,F0,7F,C0,
29265213,000000F3,false,Rx,0,8,6C,03,00,FF,F0,C0,FF,FF,
29265389,000001A1,false,Rx,0,5,C6,C8,00,00,8A,00,00,00,
29265622,00000140,false,Rx,0,8,8A,68,40,9C,00,00,94,FF,
29265863,00000141,false,Rx,0,8,9B,78,40,9C,00,00,F4,FF,
29266101,00000206,false,Rx,0,8,37,26,80,FF,FF,FF,FF,FF,
29266329,00000459,false,Rx,0,8,5E,35,AA,7E,53,CB,4D,8B,
29266567,000000C3,false,Rx,0,8,73,77,00,40,00,7D,FF,FF,
29267373,00000112,false,Rx,0,8,FA,1F,B1,0D,C6,71,05,58,
29270945,00000301,false,Rx,0,7,FF,FF,B8,80,FF,FF,CF,00,
29272973,00000100,false,Rx,0,8,FC,F4,7F,C0,5D,D9,86,70,
29273135,00000197,false,Rx,0,4,0A,09,0E,C0,00,00,00,00,
29274352,0000015F,false,Rx,0,8,77,FB,00,7D,00,EE,00,7D,
29275196,000001AE,false,Rx,0,2,F7,FF,00,00,00,00,00,00,
29275712,0000013A,false,Rx,0,8,B6,F9,00,00,00,0E,FF,FF,
29275951,000000C3,false,Rx,0,8,2F,78,00,40,00,7D,FF,FF,
29277385,00000112,false,Rx,0,8,FA,1F,B1,0D,C6,71,05,58,
29280032,00000199,false,Rx,0,6,FF,FF,58,7F,FF,3F,00,00,
29280239,0000019A,false,Rx,0,6,FF,FF,94,7F,FF,3F,00,00,
29280448,0000019F,false,Rx,0,6,FF,FF,0C,80,FF,2F,00,00,
29280695,00000254,false,Rx,0,8,FF,7F,FF,7F,FF,7F,FF,7F,
29280822,00000258,false,Rx,0,2,11,11,00,00,00,00,00,00,
29281062,00000302,false,Rx,0,7,FF,FF,D4,80,FE,FF,FF,00,
29281342,000002BB,false,Rx,0,5,8C,FA,04,0A,F2,00,00,00,
29281580,00000289,false,Rx,0,8,61,FB,E0,FF,FD,00,EC,01,
29282986,00000100,false,Rx,0,8,A1,F5,7F,C0,5D,D9,86,70,
29284214,000000A5,false,Rx,0,8,80,F4,FF,F7,7F,00,00,C1,
29284454,000000EF,false,Rx,0,8,0F,FB,00,7D,21,FF,7C,FF,
29284692,000000D9,false,Rx,0,8,CC,F4,00,10,00,F0,7F,C0,
29284818,000000AC,false,Rx,0,2,00,F0,00,00,00,00,00,00,
29285067,000000F3,false,Rx,0,8,E2,04,00,FF,F0,C0,FF,FF,
29285247,000001A1,false,Rx,0,5,E1,CA,00,00,8A,00,00,00,
29285485,00000140,false,Rx,0,8,30,6A,40,9C,00,00,94,FF,
29285714,00000141,false,Rx,0,8,21,7A,40,9C,00,00,F4,FF,
29285953,000000C3,false,Rx,0,8,72,79,00,40,00,7D,FF,FF,
29286202,00000201,false,Rx,0,8,87,25,91,4C,FF,FF,FF,FF,
29287383,00000112,false,Rx,0,8,FA,1F,B1,0D,C6,71,05,58,
29287621,00000458,false,Rx,0,8,23,33,AA,7E,83,CB,4D,8B,
29287860,00000431,false,Rx,0,8,CA,FD,FF,FF,FF,99,F7,00,
29291274,0000036E,false,Rx,0,5,3D,F7,FE,FF,14,00,00,00,
29292735,00000100,false,Rx,0,8,46,F6,7F,C0,5D,D9,86,70,
29293865,000000C0,false,Rx,0,2,F8,40,00,00,00,00,00,00,
29294123,0000003C,false,Rx,0,8,FF,5F,00,02,00,00,FF,FF,
29294362,0000015F,false,Rx,0,8,F9,FC,00,7D,00,EE,00,7D,
29295961,000000C3,false,Rx,0,8,95,7A,00,40,00,7D,FF,FF,
29296097,00000337,false,Rx,0,2,FF,FF,00,00,00,00,00,00,
29296365,0000013A,false,Rx,0,8,0C,FB,00,00,00,0E,FF,FF,
29296604,000003B4,false,Rx,0,8,00,00,0C,F0,98,FF,00,00,
29297411,00000112,false,Rx,0,8,FA,1F,B1,0D,C6,71,05,58,
29297639,00000432,false,Rx,0,8,1C,DB,15,BD,56,7C,01,BC,
29300021,00000199,false,Rx,0,6,FF,FF,4E,7F,FF,3F,00,00,
29300228,0000019A,false,Rx,0,6,FF,FF,76,7F,FF,3F,00,00,
29300436,0000019F,false,Rx,0,6,FF,FF,06,80,FF,2F,00,00,
29300684,00000254,false,Rx,0,8,FF,7F,FF,7F,FF,7F,FF,7F,
29300810,00000258,false,Rx,0,2,11,11,00,00,00,00,00,00,
29302957,00000100,false,Rx,0,8,1B,F7,7F,C0,5D,D9,86,70,
29303123,00000197,false,Rx,0,4,86,0A,0E,C0,00,00,00,00,
29304246,000000A5,false,Rx,0,8,DD,F5,FF,F7,7F,00,00,C1,
29304484,000000EF,false,Rx,0,8,81,FC,00,7D,21,FF,7C,FF,
29304723,000000D9,false,Rx,0,8,91,F5,00,10,00,F0,7F,C0,
29304858,000000AC,false,Rx,0,2,00,F0,00,00,00,00,00,00,
29305097,000000F3,false,Rx,0,8,BF,05,00,FF,F0,C0,FF,FF,
29305273,000001A1,false,Rx,0,5,88,CC,00,00,8A,00,00,00,
29305516,00000140,false,Rx,0,8,E3,6C,40,9C,00,00,94,FF,
29305747,00000141,false,Rx,0,8,F2,7C,40,9C,00,00,F4,FF,
29305995,00000206,false,Rx,0,8,2C,27,81,FF,FF,FF,FF,FF,
29306244,000000C3,false,Rx,0,8,C8,7B,00,40,00,7D,FF,FF,
29307379,00000112,false,Rx,0,8,FA,1F,B1,0D,C6,71,05,58,
29310721,000007BD,false,Rx,0,8,11,00,00,00,00,00,00,00,
29310997,000007BE,false,Rx,0,8,0C,41,04,69,00,00,00,00,
29312297,0000036F,false,Rx,0,5,63,F8,38,00,15,00,00,00,
29312914,00000100,false,Rx,0,8,47,F8,7F,C0,5D,D9,86,70,
29314358,0000015F,false,Rx,0,8,A4,FD,00,7D,00,EE,00,7D,
29314884,000001E1,false,Rx,0,6,62,F5,55,FF,FF,FF,00,00,
29315957,000000C3,false,Rx,0,8,46,7C,00,40,00,7D,FF,FF,
29316339,0000013A,false,Rx,0,8,DF,FD,00,00,00,0E,FF,FF,
29317403,00000112,false,Rx,0,8,FA,1F,B1,0D,C6,71,05,58,
29317641,000001FA,false,Rx,0,8,41,65,45,70,4B,4D,4A,4C,
29320022,00000199,false,Rx,0,6,FF,FF,62,7F,FF,3F,00,00,
29320229,0000019A,false,Rx,0,6,FF,FF,76,7F,FF,3F,00,00,
29320437,0000019F,false,Rx,0,6,FF,FF,04,80,FF,2F,00,00,
29320685,00000254,false,Rx,0,8,FF,7F,FF,7F,FF,7F,FF,7F,
29320825,00000258,false,Rx,0,2,11,11,00,00,00,00,00,00,
29321041,00000302,false,Rx,0,7,FF,FF,D4,80,FE,FF,FF,00,
29322989,00000100,false,Rx,0,8,1A,F9,7F,C0,5D,D9,86,70,
29324176,000002C4,false,Rx,0,8,00,00,FF,00,C8,64,FF,CF,
29324414,000000A5,false,Rx,0,8,3A,F6,FF,F7,7F,00,00,C1,
29324550,000000AC,false,Rx,0,2,00,F0,00,00,00,00,00,00,
29324788,000000D9,false,Rx,0,8,76,F6,00,10,00,F0,7F,C0,
29325031,000000EF,false,Rx,0,8,DC,FD,00,7D,21,FF,7C,FF,
29325269,000000F3,false,Rx,0,8,58,06,00,FF,F0,C0,FF,FF,
29325497,00000140,false,Rx,0,8,59,6E,40,9C,00,00,94,FF,
29325738,00000141,false,Rx,0,8,48,7E,40,9C,00,00,F4,FF,
29325987,00000108,false,Rx,0,8,00,7D,FF,FF,07,F1,FF,FF,
29326225,0000019D,false,Rx,0,8,69,FE,8D,01,FF,FF,FF,FF,
29326412,000001A1,false,Rx,0,5,AF,CE,00,00,8A,00,00,00,
29326619,000002C5,false,Rx,0,7,64,F1,00,60,06,70,C8,00,
29326807,000003FD,false,Rx,0,5,41,0E,00,00,FF,00,00,00,
29327068,000000C3,false,Rx,0,8,1B,7D,00,40,00,7D,FF,FF,
29327307,00000212,false,Rx,0,8,91,FC,F9,FF,FF,FF,FF,FF,
29327535,00000112,false,Rx,0,8,FA,1F,B1,0D,C6,71,05,58,
29327784,000002DB,false,Rx,0,8,FF,FF,FF,FF,BF,FF,FF,FF,
29328024,00000363,false,Rx,0,8,DA,76,EE,0A,FF,FF,FF,FF,
29328262,000002F1,false,Rx,0,8,36,10,7D,00,00,00,00,A0,
29331281,000002A7,false,Rx,0,5,7A,FE,FE,FF,14,00,00,00,
29332999,00000100,false,Rx,0,8,FD,FA,7F,C0,5D,D9,86,70,
29333165,00000197,false,Rx,0,4,09,0B,0E,C0,00,00,00,00,
29334360,0000015F,false,Rx,0,8,43,FE,00,7D,00,EE,00,7D,
29335955,000000C3,false,Rx,0,8,FC,7E,00,40,00,7D,FF,FF,
29336194,00000272,false,Rx,0,8,71,F1,00,12,FF,FF,FF,FF,
29336442,0000013A,false,Rx,0,8,39,F0,00,00,00,0E,FF,FF,
29336681,00000201,false,Rx,0,8,90,25,9A,4C,FF,FF,FF,FF,
29337387,00000112,false,Rx,0,8,FA,1F,B2,0D,C6,71,05,58,
29340053,00000199,false,Rx,0,6,FF,FF,58,7F,FF,3F,00,00,
29340260,0000019A,false,Rx,0,6,FF,FF,58,7F,FF,3F,00,00,
29340468,0000019F,false,Rx,0,6,FF,FF,11,80,FF,2F,00,00,
29340718,00000254,false,Rx,0,8,FF,7F,FF,7F,FF,7F,FF,7F,
29340843,00000258,false,Rx,0,2,11,11,00,00,00,00,00,00,
29342929,00000100,false,Rx,0,8,A0,FB,7F,C0,5D,D9,86,70,
29344358,000000EF,false,Rx,0,8,3B,FE,00,7D,21,FF,7C,FF,
29344596,000000A5,false,Rx,0,8,67,F7,FF,F7,7F,00,00,C1,
29344733,000000AC,false,Rx,0,2,00,F0,00,00,00,00,00,00,
29344971,000000D9,false,Rx,0,8,2B,F7,00,10,00,F0,7F,C0,
29345209,000000F3,false,Rx,0,8,05,07,00,FF,F0,C0,FF,FF,
29345441,0000012F,false,Rx,0,8,81,24,86,1C,F1,35,30,00,
29345680,00000140,false,Rx,0,8,05,61,40,9C,00,00,94,FF,
29345920,00000141,false,Rx,0,8,14,71,40,9C,00,00,F4,FF,
29346106,000001A1,false,Rx,0,5,C7,C1,00,00,8A,00,00,00,
29346344,00000206,false,Rx,0,8,36,28,80,FF,FF,FF,FF,FF,
29346583,000002E8,false,Rx,0,8,C0,E8,C3,FF,FF,F4,FB,C6,
29346823,000000C3,false,Rx,0,8,FD,70,00,40,00,7D,FF,FF,
29347411,000001B6,false,Rx,0,7,51,81,02,04,77,C1,F0,00,
29347639,00000112,false,Rx,0,8,FA,1F,B2,0D,C6,71,05,58,
29347940,000002F5,false,Rx,0,8,BE,0F,60,29,22,0A,06,10,
29352895,00000100,false,Rx,0,8,2E,FC,7F,C0,5D,D9,86,70,
29353974,00000163,false,Rx,0,8,FF,FF,EB,24,FF,FF,FF,FF,
29354213,00000173,false,Rx,0,8,DD,FD,00,0E,30,00,DE,10,
29354452,0000015F,false,Rx,0,8,42,F0,00,7D,00,EE,00,7D,
29355949,000000C3,false,Rx,0,8,A0,71,00,40,00,7D,FF,FF,
29356352,0000013A,false,Rx,0,8,83,F2,00,00,00,0E,FF,FF,
29357393,00000112,false,Rx,0,8,FA,1F,B1,0D,C6,71,05,58,
29360049,00000199,false,Rx,0,6,FF,FF,44,7F,FF,3F,00,00,
29360246,0000019A,false,Rx,0,6,FF,FF,58,7F,FF,3F,00,00,
29360454,0000019F,false,Rx,0,6,FF,FF,08,80,FF,2F,00,00,
29360703,00000254,false,Rx,0,8,FF,7F,FF,7F,FF,7F,FF,7F,
29360828,00000258,false,Rx,0,2,11,11,00,00,00,00,00,00,
29361059,00000302,false,Rx,0,7,FF,FF,D4,80,FE,FF,FF,00,
29361308,000007BD,false,Rx,0,8,00,00,00,40,FF,C0,01,08,
29361576,000007BE,false,Rx,0,8,00,C0,FA,1C,02,00,00,00,
29362970,00000100,false,Rx,0,8,73,FD,7F,C0,5D,D9,86,70,
29363128,00000197,false,Rx,0,4,83,0C,0E,C0,00,00,00,00,
29364356,000000EF,false,Rx,0,8,3A,F0,00,7D,21,FF,7C,FF,
29364594,000000A5,false,Rx,0,8,3B,F8,FF,F7,7F,00,00,C1,
29364730,000000AC,false,Rx,0,2,00,F0,00,00,00,00,00,00,
29364969,000000D9,false,Rx,0,8,77,F8,00,10,00,F0,7F,C0,
29365210,000000F3,false,Rx,0,8,59,08,00,FF,F0,C0,FF,FF,
29365438,00000140,false,Rx,0,8,BF,63,40,9C,00,00,94,FF,
29365677,00000141,false,Rx,0,8,AE,73,40,9C,00,00,F4,FF,
29365865,000001A1,false,Rx,0,5,E0,C3,00,00,8A,00,00,00,
29366103,000000C3,false,Rx,0,8,47,72,00,40,00,7D,FF,FF,
29366310,00000314,false,Rx,0,3,50,00,FF,00,00,00,00,00,
29367399,00000112,false,Rx,0,8,FA,1F,B1,0D,C6,71,05,58,
29372912,00000100,false,Rx,0,8,94,FE,7F,C0,5D,D9,86,70,
29374352,0000015F,false,Rx,0,8,1F,F1,00,7D,00,EE,00,7D,
29375154,000001AE,false,Rx,0,2,F7,FF,00,00,00,00,00,00,
29375949,000000C3,false,Rx,0,8,1A,73,00,40,00,7D,FF,FF,
29376341,0000013A,false,Rx,0,8,50,F4,00,00,00,0E,FF,FF,
29377384,00000112,false,Rx,0,8,FA,1F,B1,0D,C6,71,05,58,
29380029,00000199,false,Rx,0,6,FF,FF,4E,7F,FF,3F,00,00,
29380238,0000019A,false,Rx,0,6,FF,FF,58,7F,FF,3F,00,00,
29380445,0000019F,false,Rx,0,6,FF,FF,05,80,FF,2F,00,00,
29380693,00000254,false,Rx,0,8,FF,7F,FF,7F,FF,7F,FF,7F,
29380819,00000258,false,Rx,0,2,11,11,00,00,00,00,00,00,
29381338,000002BB,false,Rx,0,5,E4,F5,04,0A,F2,00,00,00,
29381575,00000289,false,Rx,0,8,EF,FC,E0,FF,FD,00,EC,01,
29382980,00000100,false,Rx,0,8,95,F0,7F,C0,5D,D9,86,70,
29384229,000000A5,false,Rx,0,8,66,F9,FF,F7,7F,00,00,C1,
29384467,000000EF,false,Rx,0,8,67,F1,00,7D,21,FF,7C,FF,
29384592,000000AC,false,Rx,0,2,00,F0,00,00,00,00,00,00,
29384841,000000D9,false,Rx,0,8,2A,F9,00,10,00,F0,7F,C0,
29385082,000000F3,false,Rx,0,8,04,09,00,FF,F0,C0,FF,FF,
29385258,000001A1,false,Rx,0,5,89,C5,00,00,8A,00,00,00,
29385496,00000140,false,Rx,0,8,6C,65,40,9C,00,00,94,FF,
29385736,00000141,false,Rx,0,8,7D,75,40,9C,00,00,F4,FF,
29385974,00000206,false,Rx,0,8,6B,29,80,FF,FF,FF,FF,FF,
29386213,000003C0,false,Rx,0,8,DD,DD,DD,FD,FF,FF,FF,FF,
29386452,000000C3,false,Rx,0,8,94,74,00,40,00,7D,FF,FF,
29386702,00000201,false,Rx,0,8,9A,25,A4,4C,FF,FF,FF,FF,
29387393,00000112,false,Rx,0,8,FA,1F,B1,0D,C6,71,05,58,
29392354,0000031C,false,Rx,0,8,FF,FF,FF,FF,FF,FF,FF,FF,
29392559,0000033B,false,Rx,0,6,15,F5,DC,FF,FF,FF,00,00,
29392880,00000100,false,Rx,0,8,C8,F1,7F,C0,5D,D9,86,70,
29393046,00000197,false,Rx,0,4,0C,0D,0E,C0,00,00,00,00,
29393995,0000003C,false,Rx,0,8,FF,5F,00,02,00,00,FF,FF,
29394368,0000015F,false,Rx,0,8,F8,F2,00,7D,00,EE,00,7D,
29395971,000000C3,false,Rx,0,8,C9,75,00,40,00,7D,FF,FF,
29396343,0000013A,false,Rx,0,8,EA,F6,00,00,00,0E,FF,FF,
29397425,00000112,false,Rx,0,8,FA,1F,B1,0D,C6,71,05,58,
29400020,00000199,false,Rx,0,6,FF,FF,44,7F,FF,3F,00,00,
29400228,0000019A,false,Rx,0,6,FF,FF,58,7F,FF,3F,00,00,
29400453,0000019F,false,Rx,0,6,FF,FF,FA,7F,FF,2F,00,00,
29400691,00000254,false,Rx,0,8,FF,7F,FF,7F,FF,7F,FF,7F,
29400817,00000258,false,Rx,0,2,11,11,00,00,00,00,00,00,
29401045,00000302,false,Rx,0,7,FF,FF,D4,80,FE,FF,FF,00,
29402323,00000297,false,Rx,0,7,92,E7,F0,EC,F2,92,EA,00,
29402968,00000100,false,Rx,0,8,2F,F2,7F,C0,5D,D9,86,70,
29404228,000000A5,false,Rx,0,8,81,FA,FF,F7,7F,00,00,C1,
29404466,000000EF,false,Rx,0,8,80,F2,00,7D,21,FF,7C,FF,
29404715,000000D9,false,Rx,0,8,CD,FA,00,10,00,F0,7F,C0,
29404842,000000AC,false,Rx,0,2,00,F0,00,00,00,00,00,00,
29405079,000000F3,false,Rx,0,8,E3,0A,00,FF,F0,C0,FF,FF,
29405266,000001A1,false,Rx,0,5,AE,C7,00,00,8A,00,00,00,
29405493,00000140,false,Rx,0,8,D6,67,40,9C,00,00,94,FF,
29405734,00000141,false,Rx,0,8,C7,77,40,9C,00,00,F4,FF,
29405972,000000C3,false,Rx,0,8,2E,76,00,40,00,7D,FF,FF,
29407403,00000112,false,Rx,0,8,FA,1F,B1,0D,C6,71,05,58,
29410699,000007BE,false,Rx,0,8,0B,00,00,00,00,00,00,00,
29411274,000002A7,false,Rx,0,5,8F,F0,FE,FF,14,00,00,00,
29412909,00000100,false,Rx,0,8,72,F3,7F,C0,5D,D9,86,70,
29414353,0000015F,false,Rx,0,8,A5,F3,00,7D,00,EE,00,7D,
29415950,000000C3,false,Rx,0,8,73,77,00,40,00,7D,FF,FF,
29416354,0000013A,false,Rx,0,8,EB,F8,00,00,00,0E,FF,FF,
29417385,00000112,false,Rx,0,8,FA,1F,B1,0D,C6,71,05,58,
29420021,00000199,false,Rx,0,6,FF,FF,44,7F,FF,3F,00,00,
29420229,0000019A,false,Rx,0,6,FF,FF,58,7F,FF,3F,00,00,
29420436,0000019F,false,Rx,0,6,FF,FF,EF,7F,FF,2F,00,00,
29420684,00000254,false,Rx,0,8,FF,7F,FF,7F,FF,7F,FF,7F,
29420812,00000258,false,Rx,0,2,11,11,00,00,00,00,00,00,
29422962,00000100,false,Rx,0,8,FC,F4,7F,C0,5D,D9,86,70,
29423128,00000197,false,Rx,0,4,80,0E,0E,C0,00,00,00,00,
29424191,000002C4,false,Rx,0,8,00,00,FF,00,C8,64,FF,CF,
29424429,000000A5,false,Rx,0,8,DC,FB,FF,F7,7F,00,00,C1,
29424657,000000EF,false,Rx,0,8,DD,F3,00,7D,21,FF,7C,FF,
29424795,000000AC,false,Rx,0,2,00,F0,00,00,00,00,00,00,
29425037,000000D9,false,Rx,0,8,90,FB,00,10,00,F0,7F,C0,
29425275,000000F3,false,Rx,0,8,BE,0B,00,FF,F0,C0,FF,FF,
29425514,00000140,false,Rx,0,8,D7,69,40,9C,00,00,94,FF,
29425744,00000141,false,Rx,0,8,C6,79,40,9C,00,00,F4,FF,
29425992,00000108,false,Rx,0,8,00,7D,FF,FF,07,F1,FF,FF,
29426179,000001A1,false,Rx,0,5,5B,C9,00,00,8A,00,00,00,
29426387,000002C5,false,Rx,0,7,AE,F2,00,60,06,70,C8,00,
29426594,00000304,false,Rx,0,6,FF,FF,E6,38,FF,FF,00,00,
29426782,00000349,false,Rx,0,5,FE,FF,FE,FF,00,00,00,00,
29426970,000003FD,false,Rx,0,5,B4,00,00,00,FF,00,00,00,
29427229,000000C3,false,Rx,0,8,2F,78,00,40,00,7D,FF,FF,
29427447,000000F5,false,Rx,0,7,DC,DC,00,82,00,82,00,00,
29427674,00000112,false,Rx,0,8,FA,1F,B1,0D,C6,71,05,58,
29427853,000000FF,false,Rx,0,4,00,20,F0,00,00,00,00,00,
29428101,000001B5,false,Rx,0,8,E6,45,92,6D,FF,FF,FF,FF,
29428339,00000201,false,Rx,0,8,A2,25,AC,4C,FF,FF,FF,FF,
29428587,00000206,false,Rx,0,8,8C,2A,80,FF,FF,FF,FF,FF,
29428848,00000212,false,Rx,0,8,CC,FD,F9,FF,FF,FF,FF,FF,
29429099,000002DB,false,Rx,0,8,FF,FF,FF,FF,BF,FF,FF,FF,
29429347,000002F1,false,Rx,0,8,36,10,7D,00,00,00,00,A0,
29429597,000002FA,false,Rx,0,8,FD,FF,00,FF,FF,FF,FF,FF,
29429857,0000032B,false,Rx,0,8,FF,FF,FF,FF,FF,FF,00,FF,
29430095,00000331,false,Rx,0,8,FF,FF,FF,EF,7F,FE,F7,FF,
29430365,000003AD,false,Rx,0,8,00,F0,FF,FF,FF,FF,FF,F2,
29430501,000003E8,false,Rx,0,2,F1,FF,00,00,00,00,00,00,
29430749,000003E9,false,Rx,0,8,5C,8F,00,00,00,00,00,00,
29431019,0000041E,false,Rx,0,8,00,02,CF,FF,FF,FF,FF,FF,
29432898,00000100,false,Rx,0,8,A1,F5,7F,C0,5D,D9,86,70,
29434361,0000015F,false,Rx,0,8,2B,F4,00,7D,00,EE,00,7D,
29435966,000000C3,false,Rx,0,8,72,79,00,40,00,7D,FF,FF,
29436215,00000201,false,Rx,0,8,A4,25,AE,4C,FF,FF,FF,FF,
29436454,0000013A,false,Rx,0,8,51,FA,00,00,00,0E,FF,FF,
29437383,00000112,false,Rx,0,8,FA,1F,B1,0D,C6,71,05,58,
29437622,00000239,false,Rx,0,8,8C,71,3C,B7,04,FF,FF,FF,
29440054,00000199,false,Rx,0,6,FF,FF,4E,7F,FF,3F,00,00,
