Time Stamp,ID,Extended,Dir,Bus,LEN,D1,D2,D3,D4,D5,D6,D7,D8
61070866,00000328,false,Rx,0,6,98,4C,57,0E,94,1E,00,00,
61071681,00000201,false,Rx,0,8,20,3E,20,3E,FF,FF,FF,FF,
61071919,00000112,false,Rx,0,8,F7,1F,7E,0E,96,71,15,5D,
61072149,00000432,false,Rx,0,8,FC,E7,10,AA,5A,FF,01,FF,
61072808,000000EF,false,Rx,0,8,81,F5,00,7D,21,FE,7C,FF,
61073362,000001A1,false,Rx,0,5,95,C0,00,00,81,00,00,00,
61075491,00000272,false,Rx,0,8,E6,F3,FC,02,FF,FF,FF,FF,
61078474,00000100,false,Rx,0,8,AA,FD,7F,C0,5D,3F,87,70,
61079630,000000A5,false,Rx,0,8,80,F4,FF,F7,7F,00,00,C1,
61079756,000000AC,false,Rx,0,2,00,F0,00,00,00,00,00,00,
61079997,000000D9,false,Rx,0,8,CC,F4,00,10,00,F0,7F,C0,
61080237,000000F3,false,Rx,0,8,E2,04,00,FF,F0,C0,FF,FF,
61080426,0000036E,false,Rx,0,5,73,F3,FE,FF,14,00,00,00,
61081890,00000112,false,Rx,0,8,F7,1F,7E,0E,96,71,15,5D,
61082815,0000015F,false,Rx,0,8,76,F5,00,7D,00,EE,00,7D,
61084846,0000013A,false,Rx,0,8,64,F1,00,00,00,0E,FF,FF,
61086254,000000A9,false,Rx,0,8,60,78,00,90,F1,00,00,FF,
61086618,00000199,false,Rx,0,6,FF,FF,88,7E,FF,3F,00,00,
61086817,0000019A,false,Rx,0,6,FF,FF,37,7F,FF,2F,00,00,
61087027,0000019F,false,Rx,0,6,FF,FF,01,80,FF,2F,00,00,
61087268,00000254,false,Rx,0,8,FF,7F,FF,7F,FF,7F,FF,7F,
61087404,00000258,false,Rx,0,2,11,11,00,00,00,00,00,00,
61088479,00000100,false,Rx,0,8,4D,FE,7F,C0,5D,3F,87,70,
61090948,00000096,false,Rx,0,8,58,00,68,96,01,FF,FF,FF,
61091153,000001E1,false,Rx,0,6,42,F0,01,FF,FF,FF,00,00,
61091571,00000302,false,Rx,0,7,FF,FF,FD,9C,F1,FF,FF,00,
61091886,00000112,false,Rx,0,8,F7,1F,7E,0E,96,71,15,5D,
61092106,00000197,false,Rx,0,4,89,00,0E,C0,00,00,00,00,
61092806,000000EF,false,Rx,0,8,66,F6,00,7D,21,FE,7C,FF,
61093363,000001A1,false,Rx,0,5,B2,C2,00,00,81,00,00,00,
61096195,000002A1,false,Rx,0,5,00,58,02,00,F0,00,00,00,
61098735,00000100,false,Rx,0,8,4C,F0,7F,C0,5D,3F,87,70,
61099586,000002C4,false,Rx,0,8,00,00,FF,00,C8,64,FF,CF,
61099828,000000A5,false,Rx,0,8,DD,F5,FF,F7,7F,00,00,C1,
61099956,000000AC,false,Rx,0,2,00,F0,00,00,00,00,00,00,
61100195,000000D9,false,Rx,0,8,91,F5,00,10,00,F0,7F,C0,
61100436,000000F3,false,Rx,0,8,BF,05,00,FF,F0,C0,FF,FF,
61100679,00000289,false,Rx,0,8,3D,F4,E0,FF,FD,00,EC,01,
61100867,000002BB,false,Rx,0,5,49,F3,00,00,F2,00,00,00,
61101115,0000031C,false,Rx,0,8,FF,FF,FF,FF,FF,FF,FF,FF,
61101325,0000033B,false,Rx,0,6,00,FF,FF,FF,FF,FF,00,00,
61101682,00000206,false,Rx,0,8,3D,2C,5A,FF,FF,FF,FF,FF,
61101912,00000112,false,Rx,0,8,F7,1F,7E,0E,96,71,15,5D,
61102821,0000015F,false,Rx,0,8,91,F6,00,7D,00,EE,00,7D,
61103525,00000301,false,Rx,0,7,FF,FF,DD,96,FF,FF,2F,00,
61104789,0000013A,false,Rx,0,8,DE,F3,00,00,00,0E,FF,FF,
61106579,00000199,false,Rx,0,6,FF,FF,92,7E,FF,3F,00,00,
61106780,0000019A,false,Rx,0,6,FF,FF,2D,7F,FF,2F,00,00,
61106990,0000019F,false,Rx,0,6,FF,FF,F8,7F,FF,2F,00,00,
61107240,00000254,false,Rx,0,8,FF,7F,FF,7F,FF,7F,FF,7F,
61107366,00000258,false,Rx,0,2,11,11,00,00,00,00,00,00,
61108650,00000100,false,Rx,0,8,11,F1,7F,C0,5D,3F,87,70,
61110986,000007BE,false,Rx,0,8,0B,00,00,00,00,00,00,00,
61111890,000002E8,false,Rx,0,8,C0,18,C5,FF,FF,F4,F1,B9,
61112120,00000112,false,Rx,0,8,F7,1F,7E,0E,96,71,15,5D,
61112811,000000EF,false,Rx,0,8,3B,F7,00,7D,21,FE,7C,FF,
61113355,000001A1,false,Rx,0,5,DB,C4,00,00,81,00,00,00,
61116219,000002B0,false,Rx,0,6,3C,46,04,CD,FF,FF,00,00,
61118707,00000100,false,Rx,0,8,F6,F2,7F,C0,5D,3F,87,70,
61119622,000000A5,false,Rx,0,8,3A,F6,FF,F7,7F,00,00,C1,
61119748,000000AC,false,Rx,0,2,00,F0,00,00,00,00,00,00,
61119989,000000D9,false,Rx,0,8,76,F6,00,10,00,F0,7F,C0,
61120229,000000F3,false,Rx,0,8,58,06,00,FF,F0,C0,FF,FF,
61120408,000002A7,false,Rx,0,5,5C,F5,FE,FF,14,00,00,00,
61120638,00000096,false,Rx,0,8,58,00,68,96,01,FF,FF,FF,
61120828,00000349,false,Rx,0,5,FE,FF,3E,08,00,00,00,00,
61121048,000002C5,false,Rx,0,7,82,FA,00,70,04,70,C8,00,
61121695,00000201,false,Rx,0,8,30,3E,30,3E,FF,FF,FF,FF,
61121925,00000112,false,Rx,0,8,F7,1F,7E,0E,96,71,15,5D,
61122114,00000197,false,Rx,0,4,06,01,0E,C0,00,00,00,00,
61122345,000002F5,false,Rx,0,8,71,0F,60,29,22,0A,06,10,
61122805,0000015F,false,Rx,0,8,CC,F7,00,7D,00,EE,00,7D,
61124854,0000013A,false,Rx,0,8,0D,F5,00,00,00,0E,FF,FF,
61126580,00000199,false,Rx,0,6,FF,FF,92,7E,FF,3F,00,00,
61126780,0000019A,false,Rx,0,6,FF,FF,23,7F,FF,2F,00,00,
61126990,0000019F,false,Rx,0,6,FF,FF,13,80,FF,2F,00,00,
61127251,00000254,false,Rx,0,8,FF,7F,FF,7F,FF,7F,FF,7F,
61127367,00000258,false,Rx,0,2,11,11,00,00,00,00,00,00,
61128473,00000100,false,Rx,0,8,AB,F3,7F,C0,5D,3F,87,70,
61130674,000002A5,false,Rx,0,2,FE,FE,00,00,00,00,00,00,
61131503,00000302,false,Rx,0,7,FF,FF,FD,9C,F1,FF,FF,00,
61131869,00000112,false,Rx,0,8,F7,1F,7E,0E,96,71,15,5D,
61132110,000005C0,false,Rx,0,8,6E,04,00,FC,FF,FF,FF,FF,
61132811,000000EF,false,Rx,0,8,67,F8,00,7D,21,FE,7C,FF,
61133356,000001A1,false,Rx,0,5,FC,C6,00,00,81,00,00,00,
61138720,00000100,false,Rx,0,8,25,F4,7F,C0,5D,3F,87,70,
61139436,000000A5,false,Rx,0,8,67,F7,FF,F7,7F,00,00,C1,
61139572,000000AC,false,Rx,0,2,00,F0,00,00,00,00,00,00,
61139813,000000D9,false,Rx,0,8,2B,F7,00,10,00,F0,7F,C0,
61140055,000000F3,false,Rx,0,8,05,07,00,FF,F0,C0,FF,FF,
61140296,0000019B,false,Rx,0,8,AE,47,40,55,FD,FF,FF,FF,
61140536,000002AE,false,Rx,0,8,FF,FF,FF,FF,FF,FF,FF,00,
61141682,00000206,false,Rx,0,8,60,2D,5A,FF,FF,FF,FF,FF,
61141912,00000112,false,Rx,0,8,F7,1F,7E,0E,96,71,15,5D,
61142808,0000015F,false,Rx,0,8,90,F8,00,7D,00,EE,00,7D,
61144790,0000013A,false,Rx,0,8,B7,F7,00,00,00,0E,FF,FF,
61146634,00000163,false,Rx,0,8,FF,FF,12,25,FF,FF,FF,FF,
61146862,00000173,false,Rx,0,8,F6,F1,00,02,20,00,D2,10,
61147061,00000199,false,Rx,0,6,FF,FF,92,7E,FF,3F,00,00,
61147270,0000019A,false,Rx,0,6,FF,FF,19,7F,FF,2F,00,00,
61147479,0000019F,false,Rx,0,6,FF,FF,13,80,FF,2F,00,00,
61147607,000001AE,false,Rx,0,2,FB,FF,00,00,00,00,00,00,
61147857,00000254,false,Rx,0,8,FF,7F,FF,7F,FF,7F,FF,7F,
61147983,00000258,false,Rx,0,2,11,11,00,00,00,00,00,00,
61148693,00000100,false,Rx,0,8,78,F5,7F,C0,5D,3F,87,70,
61149745,000002F2,false,Rx,0,6,00,00,00,00,FF,FF,00,00,
61150790,00000297,false,Rx,0,7,40,E7,F0,E0,F2,92,EA,00,
61151028,00000096,false,Rx,0,8,58,00,68,96,01,FF,FF,FF,
61151258,000001B3,false,Rx,0,8,FC,00,00,FD,14,78,8A,C6,
61151510,00000362,false,Rx,0,7,2F,C1,02,2F,C1,02,EA,00,
61151876,00000112,false,Rx,0,8,F7,1F,7E,0E,96,71,15,5D,
61152107,00000197,false,Rx,0,4,8A,02,0E,C0,00,00,00,00,
61152806,000000EF,false,Rx,0,8,3A,F9,00,7D,21,FE,7C,FF,
61153356,000001A1,false,Rx,0,5,09,C8,00,00,81,00,00,00,
61156719,0000051A,false,Rx,0,8,00,00,00,00,50,00,00,1A,
61157393,000000C0,false,Rx,0,2,FE,40,00,00,00,00,00,00,
61157646,0000003C,false,Rx,0,8,FF,7F,00,00,00,00,FF,FF,
61158480,00000100,false,Rx,0,8,9F,F6,7F,C0,5D,3F,87,70,
61159742,000000A5,false,Rx,0,8,3B,F8,FF,F7,7F,00,00,C1,
61159880,000000AC,false,Rx,0,2,00,F0,00,00,00,00,00,00,
61160119,000000D9,false,Rx,0,8,77,F8,00,10,00,F0,7F,C0,
61160360,000000F3,false,Rx,0,8,59,08,00,FF,F0,C0,FF,FF,
61161010,000007BD,false,Rx,0,8,00,00,00,C0,FF,C0,01,08,
61161240,0000012F,false,Rx,0,8,C3,55,8A,DD,F1,35,30,88,
61161472,000007BE,false,Rx,0,8,07,69,21,60,06,67,00,00,
61161724,00000108,false,Rx,0,8,00,7D,FF,FF,07,F1,FF,FF,
61161902,000003FD,false,Rx,0,5,85,09,20,00,FF,00,00,00,
61162133,00000112,false,Rx,0,8,F7,1F,7E,0E,96,71,15,5D,
61162374,00000212,false,Rx,0,8,43,F4,F9,FF,FF,FF,FF,FF,
61162626,000002DB,false,Rx,0,8,FF,FF,FF,FF,BF,FF,FF,FF,
61162867,0000015F,false,Rx,0,8,CD,F9,00,7D,00,EE,00,7D,
61163111,000002F1,false,Rx,0,8,B4,0F,00,00,00,00,00,A0,
61164864,0000013A,false,Rx,0,8,B6,F9,00,00,00,0E,FF,FF,
61166572,00000199,false,Rx,0,6,FF,FF,A6,7E,FF,3F,00,00,
61166783,0000019A,false,Rx,0,6,FF,FF,19,7F,FF,2F,00,00,
61167000,0000019F,false,Rx,0,6,FF,FF,F5,7F,FF,2F,00,00,
61167230,00000254,false,Rx,0,8,FF,7F,FF,7F,FF,7F,FF,7F,
61167367,00000258,false,Rx,0,2,11,11,00,00,00,00,00,00,
61168713,00000100,false,Rx,0,8,C2,F7,7F,C0,5D,3F,87,70,
61171501,00000302,false,Rx,0,7,FF,FF,FD,9C,F1,FF,FF,00,
61171749,00000201,false,Rx,0,8,40,3E,40,3E,FF,FF,FF,FF,
61171979,00000112,false,Rx,0,8,F8,1F,7E,0E,96,71,15,5D,
61172804,000000EF,false,Rx,0,8,DD,FA,00,7D,21,FE,7C,FF,
61173358,000001A1,false,Rx,0,5,2E,CA,00,00,81,00,00,00,
61174811,00000512,false,Rx,0,8,00,00,00,00,00,00,00,12,
61178482,00000100,false,Rx,0,8,9E,F8,7F,C0,5D,3F,87,70,
61179606,000000A5,false,Rx,0,8,66,F9,FF,F7,7F,00,00,C1,
61179743,000000AC,false,Rx,0,2,00,F0,00,00,00,00,00,00,
61179983,000000D9,false,Rx,0,8,2A,F9,00,10,00,F0,7F,C0,
61180224,000000F3,false,Rx,0,8,04,09,00,FF,F0,C0,FF,FF,
61180454,00000096,false,Rx,0,8,58,00,68,96,01,FF,FF,FF,
61180609,00000314,false,Rx,0,3,50,00,FF,00,00,00,00,00,
61180786,0000036F,false,Rx,0,5,48,F4,FE,FF,14,00,00,00,
61181683,00000206,false,Rx,0,8,87,2E,5A,FF,FF,FF,FF,FF,
61181913,00000112,false,Rx,0,8,F7,1F,7E,0E,96,71,15,5D,
61182114,00000197,false,Rx,0,4,05,03,0E,C0,00,00,00,00,
61182815,0000015F,false,Rx,0,8,2A,FA,00,7D,00,EE,00,7D,
61184793,0000013A,false,Rx,0,8,0C,FB,00,00,00,0E,FF,FF,
61186244,000000A9,false,Rx,0,8,60,78,00,90,F1,00,00,FF,
61186608,00000199,false,Rx,0,6,FF,FF,92,7E,FF,3F,00,00,
61186808,0000019A,false,Rx,0,6,FF,FF,2D,7F,FF,2F,00,00,
61187017,0000019F,false,Rx,0,6,FF,FF,11,80,FF,2F,00,00,
61187268,00000254,false,Rx,0,8,FF,7F,FF,7F,FF,7F,FF,7F,
61187394,00000258,false,Rx,0,2,11,11,00,00,00,00,00,00,
61188723,00000100,false,Rx,0,8,C3,F9,7F,C0,5D,3F,87,70,
61191869,00000112,false,Rx,0,8,F7,1F,7E,0E,96,71,15,5D,
61192804,000000EF,false,Rx,0,8,80,FB,00,7D,21,FE,7C,FF,
61193358,000001A1,false,Rx,0,5,47,CC,00,00,81,00,00,00,
61196192,000002A1,false,Rx,0,5,00,58,02,00,F0,00,00,00,
61198743,00000100,false,Rx,0,8,24,FA,7F,C0,5D,3F,87,70,
61199448,000002C4,false,Rx,0,8,00,00,FF,00,C8,64,FF,CF,
61199690,000000A5,false,Rx,0,8,81,FA,FF,F7,7F,00,00,C1,
61199932,000000D9,false,Rx,0,8,CD,FA,00,10,00,F0,7F,C0,
61200059,000000AC,false,Rx,0,2,00,F0,00,00,00,00,00,00,
61200298,000000F3,false,Rx,0,8,E3,0A,00,FF,F0,C0,FF,FF,
61200540,00000289,false,Rx,0,8,60,F5,E0,FF,FD,00,EC,01,
61200719,000002A7,false,Rx,0,5,E6,F6,FE,FF,14,00,00,00,
61200905,000002BB,false,Rx,0,5,BC,FD,00,00,F2,00,00,00,
61201114,00000304,false,Rx,0,6,FF,FF,79,39,FF,FF,00,00,
61201886,00000112,false,Rx,0,8,F7,1F,7E,0E,96,71,15,5D,
61202815,0000015F,false,Rx,0,8,77,FB,00,7D,00,EE,00,7D,
61204856,0000013A,false,Rx,0,8,DF,FD,00,00,00,0E,FF,FF,
61206576,00000199,false,Rx,0,6,FF,FF,92,7E,FF,3F,00,00,
61206778,0000019A,false,Rx,0,6,FF,FF,19,7F,FF,2F,00,00,
61206986,0000019F,false,Rx,0,6,FF,FF,FC,7F,FF,2F,00,00,
61207237,00000254,false,Rx,0,8,FF,7F,FF,7F,FF,7F,FF,7F,
61207363,00000258,false,Rx,0,2,11,11,00,00,00,00,00,00,
61208626,00000100,false,Rx,0,8,79,FB,7F,C0,5D,3F,87,70,
61210797,00000096,false,Rx,0,8,58,00,68,96,01,FF,FF,FF,
61211503,00000302,false,Rx,0,7,FF,FF,FD,9C,F1,FF,FF,00,
61211869,000002E8,false,Rx,0,8,C0,18,C5,FF,FF,F4,F2,9E,
61212101,00000112,false,Rx,0,8,F7,1F,7E,0E,96,71,15,5D,
61212258,00000197,false,Rx,0,4,8F,04,0E,C0,00,00,00,00,
61212498,00000239,false,Rx,0,8,3B,C3,1B,FF,01,4C,FF,FF,
61212824,000000EF,false,Rx,0,8,0E,FC,00,7D,21,FE,7C,FF,
61213383,000001A1,false,Rx,0,5,60,CE,00,00,81,00,00,00,
61216204,000002B0,false,Rx,0,6,3C,46,04,CD,FF,FF,00,00,
61218473,00000100,false,Rx,0,8,F7,FC,7F,C0,5D,3F,87,70,
61219628,000000A5,false,Rx,0,8,DC,FB,FF,F7,7F,00,00,C1,
61219766,000000AC,false,Rx,0,2,00,F0,00,00,00,00,00,00,
61220005,000000D9,false,Rx,0,8,90,FB,00,10,00,F0,7F,C0,
61220246,000000F3,false,Rx,0,8,BE,0B,00,FF,F0,C0,FF,FF,
61220874,000002C5,false,Rx,0,7,C4,FB,00,70,04,70,C8,00,
61221702,00000206,false,Rx,0,8,86,20,5A,FF,FF,FF,FF,FF,
61221933,00000112,false,Rx,0,8,F7,1F,7E,0E,96,71,15,5D,
61222174,00000201,false,Rx,0,8,50,3E,50,3E,FF,FF,FF,FF,
61222405,000002F5,false,Rx,0,8,71,0F,60,29,22,0A,06,10,
61222814,0000015F,false,Rx,0,8,F9,FC,00,7D,00,EE,00,7D,
61224799,0000013A,false,Rx,0,8,39,F0,00,00,00,0E,FF,FF,
61226567,00000199,false,Rx,0,6,FF,FF,92,7E,FF,3F,00,00,
61226779,0000019A,false,Rx,0,6,FF,FF,23,7F,FF,2F,00,00,
61226996,0000019F,false,Rx,0,6,FF,FF,F5,7F,FF,2F,00,00,
61227236,00000254,false,Rx,0,8,FF,7F,FF,7F,FF,7F,FF,7F,
61227362,00000258,false,Rx,0,2,11,11,00,00,00,00,00,00,
61228719,00000100,false,Rx,0,8,AA,FD,7F,C0,5D,3F,87,70,
61231896,00000112,false,Rx,0,8,F7,1F,7E,0E,96,71,15,5D,
61232134,000005C0,false,Rx,0,8,6E,01,00,FD,FF,FF,FF,FF,
61232803,000000EF,false,Rx,0,8,53,FD,00,7D,21,FE,7C,FF,
61233356,000001A1,false,Rx,0,5,08,C1,00,00,81,00,00,00,
61234410,00000200,false,Rx,0,8,00,00,8A,00,18,28,FA,FF,
61235631,000003B4,false,Rx,0,8,00,00,0C,F0,B8,FF,00,FF,
61238710,00000100,false,Rx,0,8,4D,FE,7F,C0,5D,3F,87,70,
61239592,000000A5,false,Rx,0,8,52,FC,FF,F7,7F,00,00,C1,
61239731,000000AC,false,Rx,0,2,00,F0,00,00,00,00,00,00,
61239970,000000D9,false,Rx,0,8,1E,FC,00,10,00,F0,7F,C0,
61240211,000000F3,false,Rx,0,8,30,0C,00,FF,F0,C0,FF,FF,
61240452,00000096,false,Rx,0,8,58,00,68,96,01,FF,FF,FF,
61240705,000002AE,false,Rx,0,8,FF,FF,FF,FF,FF,FF,FF,00,
61240879,0000036E,false,Rx,0,5,87,F4,FE,FF,14,00,00,00,
61241890,00000112,false,Rx,0,8,F7,1F,7E,0E,96,71,15,5D,
61242111,00000197,false,Rx,0,4,00,05,0E,C0,00,00,00,00,
61242810,0000015F,false,Rx,0,8,A4,FD,00,7D,00,EE,00,7D,
61244860,0000013A,false,Rx,0,8,83,F2,00,00,00,0E,FF,FF,
61246625,00000163,false,Rx,0,8,FF,FF,12,25,FF,FF,FF,FF,
61246853,00000173,false,Rx,0,8,9E,FB,00,02,20,00,D2,10,
61247063,00000199,false,Rx,0,6,FF,FF,9C,7E,FF,3F,00,00,
61247272,0000019A,false,Rx,0,6,FF,FF,23,7F,FF,2F,00,00,
61247482,0000019F,false,Rx,0,6,FF,FF,FB,7F,FF,2F,00,00,
61247620,000001AE,false,Rx,0,2,FB,FF,00,00,00,00,00,00,
61247859,00000254,false,Rx,0,8,FF,7F,FF,7F,FF,7F,FF,7F,
61247985,00000258,false,Rx,0,2,11,11,00,00,00,00,00,00,
61248226,00000509,false,Rx,0,8,00,00,00,00,6E,32,00,09,
61248477,00000100,false,Rx,0,8,4C,F0,7F,C0,5D,3F,87,70,
61249825,000002F2,false,Rx,0,6,00,00,00,00,FF,FF,00,00,
61250895,000001B3,false,Rx,0,8,FC,00,00,FE,14,78,8A,C7,
61251501,00000302,false,Rx,0,7,FF,FF,FD,9C,F1,FF,FF,00,
61251898,00000112,false,Rx,0,8,F7,1F,7E,0E,96,71,15,5D,
61252808,000000EF,false,Rx,0,8,B4,FE,00,7D,21,FE,7C,FF,
61253352,000001A1,false,Rx,0,5,2F,C3,00,00,81,00,00,00,
61257543,0000003C,false,Rx,0,8,FF,7F,00,00,00,00,FF,FF,
61258468,00000100,false,Rx,0,8,11,F1,7F,C0,5D,3F,87,70,
61259719,000000A5,false,Rx,0,8,0F,FD,FF,F7,7F,00,00,C1,
61259855,000000AC,false,Rx,0,2,00,F0,00,00,00,00,00,00,
61260095,000000D9,false,Rx,0,8,43,FD,00,10,00,F0,7F,C0,
61260336,000000F3,false,Rx,0,8,6D,0D,00,FF,F0,C0,FF,FF,
61261005,000007BD,false,Rx,0,8,00,00,00,C0,FF,C0,01,08,
61261237,0000012F,false,Rx,0,8,24,56,8A,DD,F1,35,30,88,
61261488,000007BE,false,Rx,0,8,05,00,00,00,00,00,00,E0,
61261728,00000108,false,Rx,0,8,00,7D,FF,FF,07,F1,FF,FF,
61261916,000003FD,false,Rx,0,5,3F,0A,20,00,FF,00,00,00,
61262147,00000112,false,Rx,0,8,F7,1F,7E,0E,96,71,15,5D,
61262388,00000201,false,Rx,0,8,5C,3E,5C,3E,FF,FF,FF,FF,
61262620,00000431,false,Rx,0,8,CA,FF,FF,FF,FF,4D,F3,4B,
61262861,0000015F,false,Rx,0,8,43,FE,00,7D,00,EE,00,7D,
61263102,00000206,false,Rx,0,8,DB,21,5A,FF,FF,FF,FF,FF,
61263353,00000212,false,Rx,0,8,1E,F5,F9,FF,FF,FF,FF,FF,
61263607,000002DB,false,Rx,0,8,FF,FF,FF,FF,BF,FF,FF,FF,
61263860,000002F1,false,Rx,0,8,B4,0F,00,00,00,00,00,A0,
61264111,000002FA,false,Rx,0,8,FD,FF,00,FF,FF,FF,FF,FF,
61264353,0000032B,false,Rx,0,8,00,00,00,00,00,00,00,FF,
61264605,00000331,false,Rx,0,8,FF,FF,FF,EF,7F,FE,F7,FF,
61264846,0000013A,false,Rx,0,8,50,F4,00,00,00,0E,FF,FF,
61265088,000003AD,false,Rx,0,8,00,F0,FF,FF,FF,FF,FF,FC,
61265224,000003E8,false,Rx,0,2,F1,FF,00,00,00,00,00,00,
61265485,000003E9,false,Rx,0,8,08,52,00,00,00,00,00,00,
61266570,00000199,false,Rx,0,6,FF,FF,92,7E,FF,3F,00,00,
61266781,0000019A,false,Rx,0,6,FF,FF,2D,7F,FF,2F,00,00,
61266979,0000019F,false,Rx,0,6,FF,FF,03,80,FF,2F,00,00,
61267230,00000254,false,Rx,0,8,FF,7F,FF,7F,FF,7F,FF,7F,
61267358,00000258,false,Rx,0,2,11,11,00,00,00,00,00,00,
61268476,00000100,false,Rx,0,8,F6,F2,7F,C0,5D,3F,87,70,
61270881,00000096,false,Rx,0,8,58,00,68,96,01,FF,FF,FF,
61271686,00000201,false,Rx,0,8,5F,3E,5F,3E,FF,FF,FF,FF,
61271914,00000112,false,Rx,0,8,F7,1F,7E,0E,96,71,15,5D,
61272146,00000432,false,Rx,0,8,FC,E7,10,AA,5A,FF,01,FF,
61272314,00000197,false,Rx,0,4,8C,06,0E,C0,00,00,00,00,
61272805,000000EF,false,Rx,0,8,B5,F0,00,7D,21,FE,7C,FF,
61273368,000001A1,false,Rx,0,5,46,C5,00,00,81,00,00,00,
61275667,00000272,false,Rx,0,8,68,F4,FC,02,FF,FF,FF,FF,
61278471,00000100,false,Rx,0,8,AB,F3,7F,C0,5D,3F,87,70,
61279628,000000A5,false,Rx,0,8,E8,FE,FF,F7,7F,00,00,C1,
61279755,000000AC,false,Rx,0,2,00,F0,00,00,00,00,00,00,
61279994,000000D9,false,Rx,0,8,A4,FE,00,10,00,F0,7F,C0,
61280235,000000F3,false,Rx,0,8,8A,0E,00,FF,F0,C0,FF,FF,
61280414,000002A7,false,Rx,0,5,7B,F7,FE,FF,14,00,00,00,
61281908,00000112,false,Rx,0,8,F7,1F,7E,0E,96,71,15,5D,
61282803,0000015F,false,Rx,0,8,42,F0,00,7D,00,EE,00,7D,
61284792,0000013A,false,Rx,0,8,EA,F6,00,00,00,0E,FF,FF,
61286252,000000A9,false,Rx,0,8,60,78,00,90,F1,00,00,FF,
61286608,00000199,false,Rx,0,6,FF,FF,88,7E,FF,3F,00,00,
61286806,0000019A,false,Rx,0,6,FF,FF,2D,7F,FF,2F,00,00,
61287016,0000019F,false,Rx,0,6,FF,FF,FF,7F,FF,2F,00,00,
61287266,00000254,false,Rx,0,8,FF,7F,FF,7F,FF,7F,FF,7F,
61287394,00000258,false,Rx,0,2,11,11,00,00,00,00,00,00,
61288721,00000100,false,Rx,0,8,25,F4,7F,C0,5D,3F,87,70,
61291158,000001E1,false,Rx,0,6,28,F1,01,FF,FF,FF,00,00,
61291585,00000302,false,Rx,0,7,FF,FF,FD,9C,F1,FF,FF,00,
61291889,00000112,false,Rx,0,8,F7,1F,7E,0E,96,71,15,5D,
61292798,000000EF,false,Rx,0,8,E8,F1,00,7D,21,FE,7C,FF,
61293351,000001A1,false,Rx,0,5,61,C7,00,00,81,00,00,00,
61296195,000002A1,false,Rx,0,5,00,58,02,00,F0,00,00,00,
61298705,00000100,false,Rx,0,8,78,F5,7F,C0,5D,3F,87,70,
61299662,000002C4,false,Rx,0,8,00,00,FF,00,C8,64,FF,CF,
61299903,000000A5,false,Rx,0,8,E9,F0,FF,F7,7F,00,00,C1,
61300039,000000AC,false,Rx,0,2,00,F0,00,00,00,00,00,00,
61300279,000000D9,false,Rx,0,8,A5,F0,00,10,00,F0,7F,C0,
61300521,00000096,false,Rx,0,8,58,00,68,96,01,FF,FF,FF,
61300768,000000F3,false,Rx,0,8,8B,00,00,FF,F0,C0,FF,FF,
61300998,00000289,false,Rx,0,8,87,F6,E0,FF,FD,00,EC,01,
61301177,000002BB,false,Rx,0,5,6F,F8,00,00,F2,00,00,00,
61301428,0000031C,false,Rx,0,8,FF,FF,FF,FF,FF,FF,FF,FF,
61301639,0000033B,false,Rx,0,6,00,FF,FF,FF,FF,FF,00,00,
61301879,00000206,false,Rx,0,8,3C,22,5A,FF,FF,FF,FF,FF,
61302110,00000112,false,Rx,0,8,F7,1F,7E,0E,96,71,15,5D,
61302278,00000197,false,Rx,0,4,03,07,0E,C0,00,00,00,00,
61302811,0000015F,false,Rx,0,8,1F,F1,00,7D,00,EE,00,7D,
61303510,00000301,false,Rx,0,7,FF,FF,DD,96,FF,FF,2F,00,
61304794,0000013A,false,Rx,0,8,EB,F8,00,00,00,0E,FF,FF,
61306567,00000199,false,Rx,0,6,FF,FF,92,7E,FF,3F,00,00,
61306778,0000019A,false,Rx,0,6,FF,FF,23,7F,FF,2F,00,00,
61306984,0000019F,false,Rx,0,6,FF,FF,EF,7F,FF,2F,00,00,
61307235,00000254,false,Rx,0,8,FF,7F,FF,7F,FF,7F,FF,7F,
61307363,00000258,false,Rx,0,2,11,11,00,00,00,00,00,00,
61308635,00000100,false,Rx,0,8,9F,F6,7F,C0,5D,3F,87,70,
61310973,000007BE,false,Rx,0,8,0C,0F,04,6B,00,00,00,00,
61311889,000002E8,false,Rx,0,8,C0,18,C5,FF,FF,F4,F3,83,
61312119,00000112,false,Rx,0,8,F7,1F,7E,0E,96,71,15,5D,
61312809,000000EF,false,Rx,0,8,0F,F2,00,7D,21,FE,7C,FF,
61313351,000001A1,false,Rx,0,5,94,C9,00,00,81,00,00,00,
61316215,000002B0,false,Rx,0,6,3C,46,04,CD,FF,FF,00,00,
61318713,00000100,false,Rx,0,8,C2,F7,7F,C0,5D,3F,87,70,
61319608,000000A5,false,Rx,0,8,B4,F1,FF,F7,7F,00,00,C1,
61319745,000000AC,false,Rx,0,2,00,F0,00,00,00,00,00,00,
61319984,000000D9,false,Rx,0,8,F8,F1,00,10,00,F0,7F,C0,
61320225,000000F3,false,Rx,0,8,D6,01,00,FF,F0,C0,FF,FF,
61320415,00000349,false,Rx,0,5,FE,FF,3E,08,00,00,00,00,
61320895,0000019D,false,Rx,0,8,1A,DA,03,07,FF,FF,FF,FF,
61321132,000002C5,false,Rx,0,7,0B,FC,00,70,04,70,C8,00,
61321675,00000201,false,Rx,0,8,6F,3E,6F,3E,FF,FF,FF,FF,
61321907,00000112,false,Rx,0,8,F7,1F,7E,0E,96,71,15,5D,
61322345,000002F5,false,Rx,0,8,71,0F,60,29,22,0A,06,10,
61322817,0000015F,false,Rx,0,8,F8,F2,00,7D,00,EE,00,7D,
61324885,0000013A,false,Rx,0,8,51,FA,00,00,00,0E,FF,FF,
61326572,00000199,false,Rx,0,6,FF,FF,92,7E,FF,3F,00,00,
61326772,0000019A,false,Rx,0,6,FF,FF,2D,7F,FF,2F,00,00,
61326981,0000019F,false,Rx,0,6,FF,FF,07,80,FF,2F,00,00,
61327231,00000254,false,Rx,0,8,FF,7F,FF,7F,FF,7F,FF,7F,
61327359,00000258,false,Rx,0,2,11,11,00,00,00,00,00,00,
61328724,00000100,false,Rx,0,8,9E,F8,7F,C0,5D,3F,87,70,
61330707,000002A5,false,Rx,0,2,FE,FE,00,00,00,00,00,00,
61330947,00000096,false,Rx,0,8,58,00,68,96,01,FF,FF,FF,
61331106,00000346,false,Rx,0,4,35,D3,70,F0,00,00,00,00,
61331500,00000302,false,Rx,0,7,FF,FF,FD,9C,F1,FF,FF,00,
61331878,00000112,false,Rx,0,8,F7,1F,7E,0E,96,71,15,5D,
61332109,00000197,false,Rx,0,4,85,08,0E,C0,00,00,00,00,
61332798,000000EF,false,Rx,0,8,52,F3,00,7D,21,FE,7C,FF,
61333363,000001A1,false,Rx,0,5,B3,CB,00,00,81,00,00,00,
61338474,00000100,false,Rx,0,8,C3,F9,7F,C0,5D,3F,87,70,
61339610,000000A5,false,Rx,0,8,53,F2,FF,F7,7F,00,00,C1,
61339747,000000AC,false,Rx,0,2,00,F0,00,00,00,00,00,00,
61339986,000000D9,false,Rx,0,8,1F,F2,00,10,00,F0,7F,C0,
61340227,000000F3,false,Rx,0,8,31,02,00,FF,F0,C0,FF,FF,
61340458,0000019B,false,Rx,0,8,F2,48,40,55,FD,FF,FF,FF,
61340714,000002AE,false,Rx,0,8,FF,FF,FF,FF,FF,FF,FF,00,
61340861,00000314,false,Rx,0,3,50,00,FF,00,00,00,00,00,
61341049,0000036F,false,Rx,0,5,D5,F5,FE,FF,14,00,00,00,
61341687,00000206,false,Rx,0,8,61,23,5A,FF,FF,FF,FF,FF,
61341908,00000112,false,Rx,0,8,F7,1F,7E,0E,96,71,15,5D,
61342819,0000015F,false,Rx,0,8,A5,F3,00,7D,00,EE,00,7D,
61344797,0000013A,false,Rx,0,8,82,FC,00,00,00,0E,FF,FF,
61346619,00000163,false,Rx,0,8,FF,FF,12,25,FF,FF,FF,FF,
61346860,00000173,false,Rx,0,8,78,F6,00,02,20,00,D2,10,
61347059,00000199,false,Rx,0,6,FF,FF,9C,7E,FF,3F,00,00,
61347269,0000019A,false,Rx,0,6,FF,FF,23,7F,FF,2F,00,00,
61347478,0000019F,false,Rx,0,6,FF,FF,0F,80,FF,2F,00,00,
61347616,000001AE,false,Rx,0,2,FB,FF,00,00,00,00,00,00,
61347855,00000254,false,Rx,0,8,FF,7F,FF,7F,FF,7F,FF,7F,
61347983,00000258,false,Rx,0,2,11,11,00,00,00,00,00,00,
61348700,00000100,false,Rx,0,8,24,FA,7F,C0,5D,3F,87,70,
61349150,00000348,false,Rx,0,8,FE,FE,FE,00,FE,FE,FF,00,
61349767,000002F2,false,Rx,0,6,00,00,00,00,FF,FF,00,00,
61350780,00000297,false,Rx,0,7,85,E8,F0,E0,F2,92,EA,00,
61351010,000001B3,false,Rx,0,8,FC,00,00,F0,14,78,8A,B9,
61351262,00000362,false,Rx,0,7,2F,C1,02,2F,C1,02,EA,00,
61351523,000005E0,false,Rx,0,8,8C,01,00,00,00,0F,00,FF,
61351881,00000112,false,Rx,0,8,F7,1F,7E,0E,96,71,15,5D,
61352805,000000EF,false,Rx,0,8,DC,F4,00,7D,21,FE,7C,FF,
61353347,000001A1,false,Rx,0,5,DA,CD,00,00,81,00,00,00,
61357437,000000C0,false,Rx,0,2,F0,40,00,00,00,00,00,00,
61357683,0000003C,false,Rx,0,8,FF,7F,00,00,00,00,FF,FF,
61358705,00000100,false,Rx,0,8,79,FB,7F,C0,5D,3F,87,70,
61359728,000002A7,false,Rx,0,5,13,F8,FE,FF,14,00,00,00,
61359968,000000A5,false,Rx,0,8,0E,F3,FF,F7,7F,00,00,C1,
61360105,000000AC,false,Rx,0,2,00,F0,00,00,00,00,00,00,
61360345,000000D9,false,Rx,0,8,42,F3,00,10,00,F0,7F,C0,
61360576,00000096,false,Rx,0,8,58,00,68,96,01,FF,FF,FF,
61360817,000000F3,false,Rx,0,8,6C,03,00,FF,F0,C0,FF,FF,
61361059,000007BD,false,Rx,0,8,00,00,00,C0,FF,C0,01,08,
61361290,0000012F,false,Rx,0,8,79,57,8A,DD,F1,35,30,88,
61361530,000007BE,false,Rx,0,8,00,C0,FA,1C,02,00,00,00,
61361782,00000108,false,Rx,0,8,00,7D,FF,FF,07,F1,FF,FF,
61361961,000003FD,false,Rx,0,5,A2,0B,20,00,FF,00,00,00,
61362191,00000112,false,Rx,0,8,F7,1F,7E,0E,96,71,15,5D,
61362359,00000197,false,Rx,0,4,0A,09,0E,C0,00,00,00,00,
61362601,00000212,false,Rx,0,8,F9,F6,F9,FF,FF,FF,FF,FF,
61362842,0000015F,false,Rx,0,8,2B,F4,00,7D,00,EE,00,7D,
61363093,000002DB,false,Rx,0,8,FF,FF,FF,FF,BF,FF,FF,FF,
61363345,000002F1,false,Rx,0,8,B4,0F,00,00,00,00,00,A0,
61364859,0000013A,false,Rx,0,8,38,FE,00,00,00,0E,FF,FF,
61366576,00000199,false,Rx,0,6,FF,FF,9C,7E,FF,3F,00,00,
61366776,0000019A,false,Rx,0,6,FF,FF,2D,7F,FF,2F,00,00,
61366985,0000019F,false,Rx,0,6,FF,FF,05,80,FF,2F,00,00,
61367227,00000254,false,Rx,0,8,FF,7F,FF,7F,FF,7F,FF,7F,
61367353,00000258,false,Rx,0,2,11,11,00,00,00,00,00,00,
61368724,00000100,false,Rx,0,8,F7,FC,7F,C0,5D,3F,87,70,
61369433,0000043D,false,Rx,0,8,FE,FE,EF,FF,F6,FE,FE,F7,
61371496,00000302,false,Rx,0,7,FF,FF,FD,9C,F1,FF,FF,00,
61371744,00000201,false,Rx,0,8,7F,3E,7F,3E,FF,FF,FF,FF,
61371965,00000112,false,Rx,0,8,F7,1F,7E,0E,96,71,15,5D,
61372800,000000EF,false,Rx,0,8,81,F5,00,7D,21,FE,7C,FF,
61373354,000001A1,false,Rx,0,5,95,C0,00,00,81,00,00,00,
61377579,0000051D,false,Rx,0,8,00,00,00,00,00,00,00,1D,
61378745,00000100,false,Rx,0,8,AA,FD,7F,C0,5D,3F,87,70,
61379433,000000A5,false,Rx,0,8,80,F4,FF,F7,7F,00,00,C1,
61379571,000000AC,false,Rx,0,2,00,F0,00,00,00,00,00,00,
61379811,000000D9,false,Rx,0,8,CC,F4,00,10,00,F0,7F,C0,
61380051,000000F3,false,Rx,0,8,E2,04,00,FF,F0,C0,FF,FF,
61381677,00000206,false,Rx,0,8,EF,24,5A,FF,FF,FF,FF,FF,
61381909,00000112,false,Rx,0,8,F7,1F,7E,0E,96,71,15,5D,
61382807,0000015F,false,Rx,0,8,76,F5,00,7D,00,EE,00,7D,
61384788,0000013A,false,Rx,0,8,64,F1,00,00,00,0E,FF,FF,
61386244,000000A9,false,Rx,0,8,60,78,00,90,F1,00,00,FF,
61386590,00000199,false,Rx,0,6,FF,FF,9C,7E,FF,3F,00,00,
61386800,0000019A,false,Rx,0,6,FF,FF,23,7F,FF,2F,00,00,
61387009,0000019F,false,Rx,0,6,FF,FF,F3,7F,FF,2F,00,00,
61387251,00000254,false,Rx,0,8,FF,7F,FF,7F,FF,7F,FF,7F,
61387388,00000258,false,Rx,0,2,11,11,00,00,00,00,00,00,
61388708,00000100,false,Rx,0,8,4D,FE,7F,C0,5D,3F,87,70,
61389115,0000043C,false,Rx,0,8,FE,FE,FF,FF,FF,FF,FF,FF,
61390865,00000096,false,Rx,0,8,58,00,68,96,01,FF,FF,FF,
61391875,00000112,false,Rx,0,8,F7,1F,7E,0E,96,71,15,5D,
61392115,00000197,false,Rx,0,4,86,0A,0E,C0,00,00,00,00,
61392805,000000EF,false,Rx,0,8,66,F6,00,7D,21,FE,7C,FF,
61393358,000001A1,false,Rx,0,5,B2,C2,00,00,81,00,00,00,
61396188,000002A1,false,Rx,0,5,00,58,02,00,F0,00,00,00,
61398479,00000100,false,Rx,0,8,4C,F0,7F,C0,5D,3F,87,70,
61399615,000002C4,false,Rx,0,8,00,00,FF,00,C8,64,FF,CF,
61399855,000000A5,false,Rx,0,8,DD,F5,FF,F7,7F,00,00,C1,
61399982,000000AC,false,Rx,0,2,00,F0,00,00,00,00,00,00,
61400233,000000D9,false,Rx,0,8,91,F5,00,10,00,F0,7F,C0,
61400473,000000F3,false,Rx,0,8,BF,05,00,FF,F0,C0,FF,FF,
61400709,00000289,false,Rx,0,8,DA,F7,E0,FF,FD,00,EC,01,
61400887,000002BB,false,Rx,0,5,49,F3,00,00,F2,00,00,00,
61401097,00000304,false,Rx,0,6,FF,FF,79,39,FF,FF,00,00,
61401285,0000036E,false,Rx,0,5,1A,F5,FE,FF,14,00,00,00,
61401871,00000112,false,Rx,0,8,F7,1F,7E,0E,96,71,15,5D,
61402814,0000015F,false,Rx,0,8,91,F6,00,7D,00,EE,00,7D,
61404636,0000038E,false,Rx,0,8,00,00,0B,0B,A9,09,47,FF,
61404867,0000013A,false,Rx,0,8,DE,F3,00,00,00,0E,FF,FF,
61406567,00000199,false,Rx,0,6,FF,FF,92,7E,FF,3F,00,00,
61406777,0000019A,false,Rx,0,6,FF,FF,2D,7F,FF,2F,00,00,
61406976,0000019F,false,Rx,0,6,FF,FF,05,80,FF,2F,00,00,
61407227,00000254,false,Rx,0,8,FF,7F,FF,7F,FF,7F,FF,7F,
61407354,00000258,false,Rx,0,2,11,11,00,00,00,00,00,00,
61408627,00000100,false,Rx,0,8,11,F1,7F,C0,5D,3F,87,70,
61410981,000007BE,false,Rx,0,8,0B,00,00,00,00,00,00,00,
61411492,00000302,false,Rx,0,7,FF,FF,FD,9C,F1,FF,FF,00,
61411870,000002E8,false,Rx,0,8,C0,18,C5,FF,FF,F4,F4,D0,
61412100,00000112,false,Rx,0,8,F7,1F,7E,0E,96,71,15,5D,
61412341,00000239,false,Rx,0,8,3B,C3,1B,FF,01,4C,FF,FF,
61412796,000000EF,false,Rx,0,8,3B,F7,00,7D,21,FE,7C,FF,
61413350,000001A1,false,Rx,0,5,DB,C4,00,00,81,00,00,00,
61416214,000002B0,false,Rx,0,6,3C,46,04,CD,FF,FF,00,00,
61418705,00000100,false,Rx,0,8,F6,F2,7F,C0,5D,3F,87,70,
61419599,000000A5,false,Rx,0,8,3A,F6,FF,F7,7F,00,00,C1,
61419725,000000AC,false,Rx,0,2,00,F0,00,00,00,00,00,00,
61419964,000000D9,false,Rx,0,8,76,F6,00,10,00,F0,7F,C0,
61420206,000000F3,false,Rx,0,8,58,06,00,FF,F0,C0,FF,FF,
61420447,00000096,false,Rx,0,8,58,00,68,96,01,FF,FF,FF,
61420869,000002C5,false,Rx,0,7,4D,FD,00,70,04,70,C8,00,
61421684,00000206,false,Rx,0,8,B2,25,5A,FF,FF,FF,FF,FF,
61421915,00000112,false,Rx,0,8,F8,1F,7E,0E,96,71,15,5D,
61422156,00000201,false,Rx,0,8,8F,3E,8F,3E,FF,FF,FF,FF,
61422313,00000197,false,Rx,0,4,09,0B,0E,C0,00,00,00,00,
61422544,000002F5,false,Rx,0,8,71,0F,60,29,22,0A,06,10,
61422813,0000015F,false,Rx,0,8,CC,F7,00,7D,00,EE,00,7D,
61424366,0000030B,false,Rx,0,8,33,F8,FF,FF,F1,FF,FF,FF,
61424836,0000013A,false,Rx,0,8,0D,F5,00,00,00,0E,FF,FF,
61426567,00000199,false,Rx,0,6,FF,FF,92,7E,FF,3F,00,00,
61426767,0000019A,false,Rx,0,6,FF,FF,2D,7F,FF,2F,00,00,
61426976,0000019F,false,Rx,0,6,FF,FF,01,80,FF,2F,00,00,
61427217,00000254,false,Rx,0,8,FF,7F,FF,7F,FF,7F,FF,7F,
61427354,00000258,false,Rx,0,2,11,11,00,00,00,00,00,00,
61428479,00000100,false,Rx,0,8,AB,F3,7F,C0,5D,3F,87,70,
61431877,00000112,false,Rx,0,8,F7,1F,7E,0E,96,71,15,5D,
61432802,000000EF,false,Rx,0,8,67,F8,00,7D,21,FE,7C,FF,
61433346,000001A1,false,Rx,0,5,FC,C6,00,00,81,00,00,00,
61435815,000003B4,false,Rx,0,8,00,00,0C,F0,B8,FF,00,FF,
61438725,00000100,false,Rx,0,8,25,F4,7F,C0,5D,3F,87,70,
61439598,000000A5,false,Rx,0,8,67,F7,FF,F7,7F,00,00,C1,
61439725,000000AC,false,Rx,0,2,00,F0,00,00,00,00,00,00,
61439964,000000D9,false,Rx,0,8,2B,F7,00,10,00,F0,7F,C0,
61440216,000000F3,false,Rx,0,8,05,07,00,FF,F0,C0,FF,FF,
61440395,000002A7,false,Rx,0,5,8E,F9,FE,FF,14,00,00,00,
61440646,000002AE,false,Rx,0,8,FF,FF,FF,FF,FF,FF,FF,00,
61441894,00000112,false,Rx,0,8,F7,1F,7E,0E,96,71,15,5D,
61442809,0000015F,false,Rx,0,8,90,F8,00,7D,00,EE,00,7D,
61444849,0000013A,false,Rx,0,8,B7,F7,00,00,00,0E,FF,FF,
61446623,00000163,false,Rx,0,8,FF,FF,12,25,FF,FF,FF,FF,
61446851,00000173,false,Rx,0,8,F6,F1,00,02,20,00,D2,10,
61447051,00000199,false,Rx,0,6,FF,FF,A6,7E,FF,3F,00,00,
61447260,0000019A,false,Rx,0,6,FF,FF,37,7F,FF,2F,00,00,
61447469,0000019F,false,Rx,0,6,FF,FF,01,80,FF,2F,00,00,
61447596,000001AE,false,Rx,0,2,FB,FF,00,00,00,00,00,00,
61447847,00000254,false,Rx,0,8,FF,7F,FF,7F,FF,7F,FF,7F,
61447974,00000258,false,Rx,0,2,11,11,00,00,00,00,00,00,
61448473,00000100,false,Rx,0,8,78,F5,7F,C0,5D,3F,87,70,
61449809,000002F2,false,Rx,0,6,00,00,00,00,FF,FF,00,00,
61450811,00000096,false,Rx,0,8,58,00,68,96,01,FF,FF,FF,
61451040,000001B3,false,Rx,0,8,FC,00,00,F1,14,78,8A,BA,
61451489,00000302,false,Rx,0,7,FF,FF,FD,9C,F1,FF,FF,00,
61451888,00000112,false,Rx,0,8,F7,1F,7E,0E,96,71,15,5D,
61452118,00000197,false,Rx,0,4,83,0C,0E,C0,00,00,00,00,
61452797,000000EF,false,Rx,0,8,3A,F9,00,7D,21,FE,7C,FF,
61453365,000001A1,false,Rx,0,5,09,C8,00,00,81,00,00,00,
61457533,0000003C,false,Rx,0,8,FF,7F,00,00,00,00,FF,FF,
61458468,00000100,false,Rx,0,8,9F,F6,7F,C0,5D,3F,87,70,
61459739,000000A5,false,Rx,0,8,3B,F8,FF,F7,7F,00,00,C1,
61459865,000000AC,false,Rx,0,2,00,F0,00,00,00,00,00,00,
61460106,000000D9,false,Rx,0,8,77,F8,00,10,00,F0,7F,C0,
61460347,000000F3,false,Rx,0,8,59,08,00,FF,F0,C0,FF,FF,
61461006,000007BD,false,Rx,0,8,00,00,00,C0,FF,C0,01,08,
61461225,0000012F,false,Rx,0,8,25,58,8A,DD,F1,35,30,88,
61461477,000007BE,false,Rx,0,8,05,00,00,00,00,00,00,E0,
61461728,00000108,false,Rx,0,8,00,7D,FF,FF,07,F1,FF,FF,
61461906,000003FD,false,Rx,0,5,56,0C,20,00,FF,00,00,00,
61462136,00000112,false,Rx,0,8,F7,1F,7E,0E,96,71,15,5D,
61462376,00000206,false,Rx,0,8,55,26,5A,FF,FF,FF,FF,FF,
61462619,00000431,false,Rx,0,8,CA,FF,FF,FF,FF,4D,F3,4B,
61462860,0000015F,false,Rx,0,8,CD,F9,00,7D,00,EE,00,7D,
61463101,00000212,false,Rx,0,8,A4,F7,F9,FF,FF,FF,FF,FF,
61463353,000002DB,false,Rx,0,8,FF,FF,FF,FF,BF,FF,FF,FF,
61463595,000002F1,false,Rx,0,8,B4,0F,00,00,00,00,00,A0,
61463848,0000032B,false,Rx,0,8,00,00,00,00,00,00,00,FF,
61464100,00000331,false,Rx,0,8,FF,FF,FF,EF,7F,FE,F7,FF,
61464351,000003E9,false,Rx,0,8,08,52,00,00,00,00,00,00,
61464781,0000013A,false,Rx,0,8,B6,F9,00,00,00,0E,FF,FF,
61465703,000003D8,false,Rx,0,8,03,FF,FF,FF,FF,FF,FF,FF,
61466568,00000199,false,Rx,0,6,FF,FF,9C,7E,FF,3F,00,00,
61466778,0000019A,false,Rx,0,6,FF,FF,2D,7F,FF,2F,00,00,
61466987,0000019F,false,Rx,0,6,FF,FF,F5,7F,FF,2F,00,00,
61467229,00000254,false,Rx,0,8,FF,7F,FF,7F,FF,7F,FF,7F,
61467355,00000258,false,Rx,0,2,11,11,00,00,00,00,00,00,
61468717,00000100,false,Rx,0,8,C2,F7,7F,C0,5D,3F,87,70,
61471685,00000201,false,Rx,0,8,9E,3E,9E,3E,FF,FF,FF,FF,
61471912,00000112,false,Rx,0,8,F7,1F,7E,0E,96,71,15,5D,
61472142,00000432,false,Rx,0,8,FC,E7,10,AA,5A,FF,01,FF,
61472801,000000EF,false,Rx,0,8,DD,FA,00,7D,21,FE,7C,FF,
61473344,000001A1,false,Rx,0,5,2E,CA,00,00,81,00,00,00,
61475849,00000272,false,Rx,0,8,35,F5,FC,02,FF,FF,FF,FF,
61478719,00000100,false,Rx,0,8,9E,F8,7F,C0,5D,3F,87,70,
61479591,000000A5,false,Rx,0,8,66,F9,FF,F7,7F,00,00,C1,
61479718,000000AC,false,Rx,0,2,00,F0,00,00,00,00,00,00,
61479968,000000D9,false,Rx,0,8,2A,F9,00,10,00,F0,7F,C0,
61480210,000000F3,false,Rx,0,8,04,09,00,FF,F0,C0,FF,FF,
61480440,00000096,false,Rx,0,8,58,00,68,96,01,FF,FF,FF,
61481874,00000112,false,Rx,0,8,F7,1F,7E,0E,96,71,15,5D,
61482115,00000197,false,Rx,0,4,0C,0D,0E,C0,00,00,00,00,
61482812,0000015F,false,Rx,0,8,2A,FA,00,7D,00,EE,00,7D,
61484843,0000013A,false,Rx,0,8,0C,FB,00,00,00,0E,FF,FF,
61486241,000000A9,false,Rx,0,8,60,78,00,90,F1,00,00,FF,
61486597,00000199,false,Rx,0,6,FF,FF,92,7E,FF,3F,00,00,
61486817,0000019A,false,Rx,0,6,FF,FF,23,7F,FF,2F,00,00,
61487017,0000019F,false,Rx,0,6,FF,FF,04,80,FF,2F,00,00,
61487268,00000254,false,Rx,0,8,FF,7F,FF,7F,FF,7F,FF,7F,
61487394,00000258,false,Rx,0,2,11,11,00,00,00,00,00,00,
61488478,00000100,false,Rx,0,8,C3,F9,7F,C0,5D,3F,87,70,
61491154,000001E1,false,Rx,0,6,96,F2,01,FF,FF,FF,00,00,
61491566,00000302,false,Rx,0,7,FF,FF,FD,9C,F1,FF,FF,00,
61491903,00000112,false,Rx,0,8,F7,1F,7E,0E,96,71,15,5D,
61492133,00000300,false,Rx,0,8,1B,1E,59,96,65,59,96,65,
61492802,000000EF,false,Rx,0,8,80,FB,00,7D,21,FE,7C,FF,
61493348,000001A1,false,Rx,0,5,47,CC,00,00,81,00,00,00,
61496200,000002A1,false,Rx,0,5,00,58,02,00,F0,00,00,00,
61498730,00000100,false,Rx,0,8,24,FA,7F,C0,5D,3F,87,70,
61499581,000002C4,false,Rx,0,8,00,00,FF,00,C8,64,FF,CF,
61499823,000000A5,false,Rx,0,8,81,FA,FF,F7,7F,00,00,C1,
61499960,000000AC,false,Rx,0,2,00,F0,00,00,00,00,00,00,
61500200,000000D9,false,Rx,0,8,CD,FA,00,10,00,F0,7F,C0,
61500441,000000F3,false,Rx,0,8,E3,0A,00,FF,F0,C0,FF,FF,
61500673,00000289,false,Rx,0,8,86,F8,E0,FF,FD,00,EC,01,
61500863,000002BB,false,Rx,0,5,BC,FD,00,00,F2,00,00,00,
61501009,00000314,false,Rx,0,3,50,00,FF,00,00,00,00,00,
61501258,0000031C,false,Rx,0,8,FF,FF,FF,FF,FF,FF,FF,FF,
61501468,0000033B,false,Rx,0,6,00,FF,FF,FF,FF,FF,00,00,
61501710,00000206,false,Rx,0,8,08,27,5A,FF,FF,FF,FF,FF,
61501940,00000112,false,Rx,0,8,F7,1F,7E,0E,96,71,15,5D,
61502129,0000036F,false,Rx,0,5,6F,F6,FE,FF,14,00,00,00,
61502808,0000015F,false,Rx,0,8,77,FB,00,7D,00,EE,00,7D,
61503503,00000301,false,Rx,0,7,FF,FF,DD,96,FF,FF,2F,00,
61503734,00000459,false,Rx,0,8,D7,1A,55,7F,6E,04,10,8C,
61504789,0000013A,false,Rx,0,8,DF,FD,00,00,00,0E,FF,FF,
61505875,000003C3,false,Rx,0,8,88,08,4E,40,20,CA,12,18,
61506606,00000199,false,Rx,0,6,FF,FF,9C,7E,FF,3F,00,00,
61506815,0000019A,false,Rx,0,6,FF,FF,37,7F,FF,2F,00,00,
61507025,0000019F,false,Rx,0,6,FF,FF,F4,7F,FF,2F,00,00,
61507266,00000254,false,Rx,0,8,FF,7F,FF,7F,FF,7F,FF,7F,
61507396,00000258,false,Rx,0,2,11,11,00,00,00,00,00,00,
61508543,00000100,false,Rx,0,8,79,FB,7F,C0,5D,3F,87,70,
61510888,00000096,false,Rx,0,8,58,00,68,96,01,FF,FF,FF,
61511678,00000201,false,Rx,0,8,AB,3E,AB,3E,FF,FF,FF,FF,
61511908,00000112,false,Rx,0,8,F7,1F,7E,0E,96,71,15,5D,
61512169,000002E8,false,Rx,0,8,C0,18,C5,FF,FF,F4,F5,CD,
61512338,00000197,false,Rx,0,4,80,0E,0E,C0,00,00,00,00,
61512808,000000EF,false,Rx,0,8,0E,FC,00,7D,21,FE,7C,FF,
61513366,000001A1,false,Rx,0,5,60,CE,00,00,81,00,00,00,
61516198,000002B0,false,Rx,0,6,3C,46,04,CD,FF,FF,00,00,
61518477,00000100,false,Rx,0,8,F7,FC,7F,C0,5D,3F,87,70,
61519653,000000A5,false,Rx,0,8,DC,FB,FF,F7,7F,00,00,C1,
61519789,000000AC,false,Rx,0,2,00,F0,00,00,00,00,00,00,
61520030,000000D9,false,Rx,0,8,90,FB,00,10,00,F0,7F,C0,
61520271,000000F3,false,Rx,0,8,BE,0B,00,FF,F0,C0,FF,FF,
61520397,000001D6,false,Rx,0,2,F0,C0,00,00,00,00,00,00,
61520584,000002A7,false,Rx,0,5,34,FA,FE,FF,14,00,00,00,
61520827,000002FC,false,Rx,0,8,81,01,01,FF,FF,FF,FF,FF,
61521047,000002C5,false,Rx,0,7,87,FE,00,70,04,70,C8,00,
61521235,00000349,false,Rx,0,5,FE,FF,3E,08,00,00,00,00,
61521697,00000201,false,Rx,0,8,AE,3E,AE,3E,FF,FF,FF,FF,
61521927,00000112,false,Rx,0,8,F7,1F,7E,0E,96,71,15,5D,
61522346,000002F5,false,Rx,0,8,71,0F,60,29,22,0A,06,10,
61522806,0000015F,false,Rx,0,8,F9,FC,00,7D,00,EE,00,7D,
61524885,0000013A,false,Rx,0,8,39,F0,00,00,00,0E,FF,FF,
61526560,00000199,false,Rx,0,6,FF,FF,92,7E,FF,3F,00,00,
61526771,0000019A,false,Rx,0,6,FF,FF,37,7F,FF,2F,00,00,
61526981,0000019F,false,Rx,0,6,FF,FF,FA,7F,FF,2F,00,00,
61527232,00000254,false,Rx,0,8,FF,7F,FF,7F,FF,7F,FF,7F,
61527358,00000258,false,Rx,0,2,11,11,00,00,00,00,00,00,
61528718,00000100,false,Rx,0,8,AA,FD,7F,C0,5D,3F,87,70,
61530716,000002A5,false,Rx,0,2,FE,FE,00,00,00,00,00,00,
61531492,00000302,false,Rx,0,7,FF,FF,FD,9C,F1,FF,FF,00,
61531901,00000112,false,Rx,0,8,F7,1F,7E,0E,96,71,15,5D,
61532799,000000EF,false,Rx,0,8,53,FD,00,7D,21,FE,7C,FF,
61533353,000001A1,false,Rx,0,5,08,C1,00,00,81,00,00,00,
61538470,00000100,false,Rx,0,8,4D,FE,7F,C0,5D,3F,87,70,
61539614,000000A5,false,Rx,0,8,52,FC,FF,F7,7F,00,00,C1,
61539740,000000AC,false,Rx,0,2,00,F0,00,00,00,00,00,00,
61539991,000000D9,false,Rx,0,8,1E,FC,00,10,00,F0,7F,C0,
61540232,000000F3,false,Rx,0,8,30,0C,00,FF,F0,C0,FF,FF,
61540473,00000096,false,Rx,0,8,58,00,68,96,01,FF,FF,FF,
61540708,0000019B,false,Rx,0,8,AF,49,40,55,FD,FF,FF,FF,
61540950,000002AE,false,Rx,0,8,FF,FF,FF,FF,FF,FF,FF,00,
61541681,00000206,false,Rx,0,8,54,28,5A,FF,FF,FF,FF,FF,
61541911,00000112,false,Rx,0,8,F7,1F,7E,0E,96,71,15,5D,
61542111,00000197,false,Rx,0,4,89,00,0E,C0,00,00,00,00,
61542804,0000015F,false,Rx,0,8,A4,FD,00,7D,00,EE,00,7D,
61544792,0000013A,false,Rx,0,8,83,F2,00,00,00,0E,FF,FF,
61546614,00000163,false,Rx,0,8,FF,FF,12,25,FF,FF,FF,FF,
61546854,00000173,false,Rx,0,8,9E,FB,00,02,20,00,D2,10,
61547055,00000199,false,Rx,0,6,FF,FF,92,7E,FF,3F,00,00,
61547264,0000019A,false,Rx,0,6,FF,FF,41,7F,FF,2F,00,00,
61547462,0000019F,false,Rx,0,6,FF,FF,15,80,FF,2F,00,00,
61547600,000001AE,false,Rx,0,2,FB,FF,00,00,00,00,00,00,
61547841,00000254,false,Rx,0,8,FF,7F,FF,7F,FF,7F,FF,7F,
61547977,00000258,false,Rx,0,2,11,11,00,00,00,00,00,00,
61548717,00000100,false,Rx,0,8,4C,F0,7F,C0,5D,3F,87,70,
61549762,000002F2,false,Rx,0,6,00,00,00,00,FF,FF,00,00,
61550783,00000297,false,Rx,0,7,C3,E9,F0,E0,F2,92,EA,00,
61551013,000001B3,false,Rx,0,8,FC,00,00,F2,14,78,8A,BB,
61551264,00000362,false,Rx,0,7,2F,C1,02,2F,C1,02,EA,00,
61551892,00000112,false,Rx,0,8,F7,1F,7E,0E,96,71,15,5D,
61552802,000000EF,false,Rx,0,8,B4,FE,00,7D,21,FE,7C,FF,
61553345,000001A1,false,Rx,0,5,2F,C3,00,00,81,00,00,00,
61557382,000000C0,false,Rx,0,2,F1,40,00,00,00,00,00,00,
61557639,0000003C,false,Rx,0,8,FF,7F,00,00,00,00,FF,FF,
61558463,00000100,false,Rx,0,8,11,F1,7F,C0,5D,3F,87,70,
61559745,000000A5,false,Rx,0,8,0F,FD,FF,F7,7F,00,00,C1,
61559882,000000AC,false,Rx,0,2,00,F0,00,00,00,00,00,00,
61560122,000000D9,false,Rx,0,8,43,FD,00,10,00,F0,7F,C0,
61560353,000000F3,false,Rx,0,8,6D,0D,00,FF,F0,C0,FF,FF,
61560541,0000036E,false,Rx,0,5,A0,F6,FE,FF,14,00,00,00,
61561012,000007BD,false,Rx,0,8,00,00,00,C0,FF,C0,01,08,
61561232,0000012F,false,Rx,0,8,78,59,8A,DD,F1,35,30,88,
61561482,000007BE,false,Rx,0,8,0C,0F,04,6B,00,00,00,00,
61561724,00000108,false,Rx,0,8,00,7D,FF,FF,07,F1,FF,FF,
61561902,000003FD,false,Rx,0,5,CB,0D,20,00,FF,00,00,00,
61562132,00000112,false,Rx,0,8,F7,1F,7E,0E,96,71,15,5D,
61562384,00000212,false,Rx,0,8,F8,F8,F9,FF,FF,FF,FF,FF,
61562626,00000540,false,Rx,0,8,00,00,00,00,FE,31,FF,40,
61562866,0000015F,false,Rx,0,8,43,FE,00,7D,00,EE,00,7D,
61563108,000002DB,false,Rx,0,8,FF,FF,FF,FF,BF,FF,FF,FF,
61563359,000002F1,false,Rx,0,8,B4,0F,00,00,00,00,00,A0,
61564844,0000013A,false,Rx,0,8,50,F4,00,00,00,0E,FF,FF,
61566560,00000199,false,Rx,0,6,FF,FF,92,7E,FF,3F,00,00,
61566771,0000019A,false,Rx,0,6,FF,FF,37,7F,FF,2F,00,00,
61566981,0000019F,false,Rx,0,6,FF,FF,F7,7F,FF,2F,00,00,
61567221,00000254,false,Rx,0,8,FF,7F,FF,7F,FF,7F,FF,7F,
61567348,00000258,false,Rx,0,2,11,11,00,00,00,00,00,00,
61568071,00000100,false,Rx,0,8,F6,F2,7F,C0,5D,3F,87,70,
61570893,00000096,false,Rx,0,8,58,00,68,96,01,FF,FF,FF,
61571489,00000302,false,Rx,0,7,FF,FF,FD,9C,F1,FF,FF,00,
61571728,00000201,false,Rx,0,8,BE,3E,BE,3E,FF,FF,FF,FF,
61571959,00000112,false,Rx,0,8,F7,1F,7E,0E,96,71,15,5D,
61572126,00000197,false,Rx,0,4,06,01,0E,C0,00,00,00,00,
61572796,000000EF,false,Rx,0,8,B5,F0,00,7D,21,FE,7C,FF,
61573360,000001A1,false,Rx,0,5,46,C5,00,00,81,00,00,00,
61578468,00000100,false,Rx,0,8,AB,F3,7F,C0,5D,3F,87,70,
61579613,000000A5,false,Rx,0,8,E8,FE,FF,F7,7F,00,00,C1,
61579740,000000AC,false,Rx,0,2,00,F0,00,00,00,00,00,00,
61579980,000000D9,false,Rx,0,8,A4,FE,00,10,00,F0,7F,C0,
61580221,000000F3,false,Rx,0,8,8A,0E,00,FF,F0,C0,FF,FF,
61581684,00000206,false,Rx,0,8,09,29,5A,FF,FF,FF,FF,FF,
61581915,00000112,false,Rx,0,8,F8,1F,7E,0E,96,71,15,5D,
61582800,0000015F,false,Rx,0,8,42,F0,00,7D,00,EE,00,7D,
61584789,0000013A,false,Rx,0,8,EA,F6,00,00,00,0E,FF,FF,
61586249,000000A9,false,Rx,0,8,60,78,00,90,F1,00,00,FF,
61586581,00000199,false,Rx,0,6,FF,FF,9C,7E,FF,3F,00,00,
61586792,0000019A,false,Rx,0,6,FF,FF,23,7F,FF,2F,00,00,
61586992,0000019F,false,Rx,0,6,FF,FF,17,80,FF,2F,00,00,
61587242,00000254,false,Rx,0,8,FF,7F,FF,7F,FF,7F,FF,7F,
61587368,00000258,false,Rx,0,2,11,11,00,00,00,00,00,00,
61588193,000002F9,false,Rx,0,7,00,00,00,08,7C,C0,F3,00,
61588711,00000100,false,Rx,0,8,25,F4,7F,C0,5D,3F,87,70,
61591876,00000112,false,Rx,0,8,F7,1F,7E,0E,96,71,15,5D,
61592791,000000EF,false,Rx,0,8,E8,F1,00,7D,21,FE,7C,FF,
61593345,000001A1,false,Rx,0,5,61,C7,00,00,81,00,00,00,
61595887,000003CA,false,Rx,0,8,95,E0,15,07,07,7B,FF,FF,
61596149,000005E0,false,Rx,0,8,11,03,00,04,06,00,C4,1B,
61596327,000002A1,false,Rx,0,5,00,58,02,00,F0,00,00,00,
61598706,00000100,false,Rx,0,8,78,F5,7F,C0,5D,3F,87,70,
61599442,000002C4,false,Rx,0,8,00,00,FF,00,C8,64,FF,CF,
61599684,000000A5,false,Rx,0,8,E9,F0,FF,F7,7F,00,00,C1,
61599926,000000D9,false,Rx,0,8,A5,F0,00,10,00,F0,7F,C0,
61600063,000000AC,false,Rx,0,2,00,F0,00,00,00,00,00,00,
61600302,000000F3,false,Rx,0,8,8B,00,00,FF,F0,C0,FF,FF,
61600543,00000096,false,Rx,0,8,58,00,68,96,01,FF,FF,FF,
61600782,00000289,false,Rx,0,8,DB,F9,E0,FF,FD,00,EC,01,
61600960,000002A7,false,Rx,0,5,A9,FB,FE,FF,14,00,00,00,
61601138,000002BB,false,Rx,0,5,6F,F8,00,00,F2,00,00,00,
61601347,00000304,false,Rx,0,6,FF,FF,79,39,FF,FF,00,00,
61601588,000003F9,false,Rx,0,8,BB,F0,80,E0,44,3C,C3,FF,
61601882,00000112,false,Rx,0,8,F7,1F,7E,0E,96,71,15,5D,
61602123,00000197,false,Rx,0,4,8A,02,0E,C0,00,00,00,00,
61602677,000002E7,false,Rx,0,8,5B,CC,04,92,56,6C,00,00,
61602917,0000015F,false,Rx,0,8,1F,F1,00,7D,00,EE,00,7D,
61604843,0000013A,false,Rx,0,8,EB,F8,00,00,00,0E,FF,FF,
61606220,00000397,false,Rx,0,7,00,2A,00,75,09,28,01,00,
61606575,00000199,false,Rx,0,6,FF,FF,92,7E,FF,3F,00,00,
61606786,0000019A,false,Rx,0,6,FF,FF,2D,7F,FF,2F,00,00,
61606987,0000019F,false,Rx,0,6,FF,FF,01,80,FF,2F,00,00,
61607238,00000254,false,Rx,0,8,FF,7F,FF,7F,FF,7F,FF,7F,
61607364,00000258,false,Rx,0,2,11,11,00,00,00,00,00,00,
61608669,00000100,false,Rx,0,8,9F,F6,7F,C0,5D,3F,87,70,
61610976,000007BE,false,Rx,0,8,00,C0,FA,1C,02,00,00,00,
61611484,00000302,false,Rx,0,7,FF,FF,FD,9C,F1,FF,FF,00,
61611892,00000112,false,Rx,0,8,F7,1F,7E,0E,96,71,15,5D,
61612143,00000239,false,Rx,0,8,3B,C3,1B,FF,01,4C,FF,FF,
61612802,000000EF,false,Rx,0,8,0F,F2,00,7D,21,FE,7C,FF,
61613097,000002E8,false,Rx,0,8,C0,18,C5,FF,FF,F4,F6,EA,
61613359,000001A1,false,Rx,0,5,94,C9,00,00,81,00,00,00,
61616224,000002B0,false,Rx,0,6,3C,46,04,CD,FF,FF,00,00,
61618472,00000100,false,Rx,0,8,C2,F7,7F,C0,5D,3F,87,70,
61619731,000000A5,false,Rx,0,8,B4,F1,FF,F7,7F,00,00,C1,
61619859,000000AC,false,Rx,0,2,00,F0,00,00,00,00,00,00,
61620098,000000D9,false,Rx,0,8,F8,F1,00,10,00,F0,7F,C0,
61620339,000000F3,false,Rx,0,8,D6,01,00,FF,F0,C0,FF,FF,
61620894,0000019D,false,Rx,0,8,1A,DA,03,07,FF,FF,FF,FF,
61621128,000002C5,false,Rx,0,7,04,F0,00,70,04,70,C8,00,
61621683,00000206,false,Rx,0,8,EE,2A,5A,FF,FF,FF,FF,FF,
61621913,00000112,false,Rx,0,8,F7,1F,7E,0E,96,71,15,5D,
61622155,00000201,false,Rx,0,8,CE,3E,CE,3E,FF,FF,FF,FF,
61622385,000002F5,false,Rx,0,8,71,0F,60,29,22,0A,06,10,
61622804,0000015F,false,Rx,0,8,F8,F2,00,7D,00,EE,00,7D,
61624782,0000013A,false,Rx,0,8,51,FA,00,00,00,0E,FF,FF,
61626560,00000199,false,Rx,0,6,FF,FF,92,7E,FF,3F,00,00,
61626772,0000019A,false,Rx,0,6,FF,FF,41,7F,FF,2F,00,00,
61626981,0000019F,false,Rx,0,6,FF,FF,F3,7F,FF,2F,00,00,
61627231,00000254,false,Rx,0,8,FF,7F,FF,7F,FF,7F,FF,7F,
61627358,00000258,false,Rx,0,2,11,11,00,00,00,00,00,00,
61627567,00000246,false,Rx,0,5,3F,FB,00,FF,FF,00,00,00,
61627778,00000299,false,Rx,0,6,FF,FF,FF,FF,FF,00,00,00,
61628487,00000100,false,Rx,0,8,9E,F8,7F,C0,5D,3F,87,70,
61630797,00000096,false,Rx,0,8,58,00,68,96,01,FF,FF,FF,
61631879,00000112,false,Rx,0,8,F7,1F,7E,0E,96,71,15,5D,
61632120,00000197,false,Rx,0,4,05,03,0E,C0,00,00,00,00,
61632788,000000EF,false,Rx,0,8,52,F3,00,7D,21,FE,7C,FF,
61633352,000001A1,false,Rx,0,5,B3,CB,00,00,81,00,00,00,
61634322,000001D0,false,Rx,0,8,58,F5,DF,FF,FF,FF,FF,FF,
61634628,000001B9,false,Rx,0,5,FF,FF,FF,14,FF,00,00,00,
61635993,000003B4,false,Rx,0,8,00,00,0C,F0,B8,FF,00,FF,
61638471,00000100,false,Rx,0,8,C3,F9,7F,C0,5D,3F,87,70,
61639636,000000A5,false,Rx,0,8,53,F2,FF,F7,7F,00,00,C1,
61639763,000000AC,false,Rx,0,2,00,F0,00,00,00,00,00,00,
61640003,000000D9,false,Rx,0,8,1F,F2,00,10,00,F0,7F,C0,
61640244,000000F3,false,Rx,0,8,31,02,00,FF,F0,C0,FF,FF,
61640495,000002AE,false,Rx,0,8,FF,FF,FF,FF,FF,FF,FF,00,
61641877,00000112,false,Rx,0,8,F7,1F,7E,0E,96,71,15,5D,
61642806,0000015F,false,Rx,0,8,A5,F3,00,7D,00,EE,00,7D,
61644859,0000013A,false,Rx,0,8,82,FC,00,00,00,0E,FF,FF,
61646619,00000163,false,Rx,0,8,FF,FF,12,25,FF,FF,FF,FF,
61646851,00000173,false,Rx,0,8,78,F6,00,02,20,00,D2,10,
61647050,00000199,false,Rx,0,6,FF,FF,9C,7E,FF,3F,00,00,
61647259,0000019A,false,Rx,0,6,FF,FF,37,7F,FF,2F,00,00,
61647470,0000019F,false,Rx,0,6,FF,FF,03,80,FF,2F,00,00,
61647598,000001AE,false,Rx,0,2,FB,FF,00,00,00,00,00,00,
61647848,00000254,false,Rx,0,8,FF,7F,FF,7F,FF,7F,FF,7F,
61647975,00000258,false,Rx,0,2,11,11,00,00,00,00,00,00,
61648715,00000100,false,Rx,0,8,24,FA,7F,C0,5D,3F,87,70,
61649751,000002F2,false,Rx,0,6,00,00,00,00,FF,FF,00,00,
61650889,00000560,false,Rx,0,8,00,00,00,00,FE,00,00,60,
61651130,000001B3,false,Rx,0,8,FC,00,00,F3,14,78,8A,BC,
61651548,00000302,false,Rx,0,7,FF,FF,FD,9C,F1,FF,FF,00,
61651883,00000112,false,Rx,0,8,F7,1F,7E,0E,96,71,15,5D,
61652792,000000EF,false,Rx,0,8,DC,F4,00,7D,21,FE,7C,FF,
61653356,000001A1,false,Rx,0,5,DA,CD,00,00,81,00,00,00,
61657533,0000003C,false,Rx,0,8,FF,7F,00,00,00,00,FF,FF,
61658062,00000100,false,Rx,0,8,79,FB,7F,C0,5D,3F,87,70,
61659707,000000A5,false,Rx,0,8,0E,F3,FF,F7,7F,00,00,C1,
61659834,000000AC,false,Rx,0,2,00,F0,00,00,00,00,00,00,
61660074,000000D9,false,Rx,0,8,42,F3,00,10,00,F0,7F,C0,
61660314,000000F3,false,Rx,0,8,6C,03,00,FF,F0,C0,FF,FF,
61660556,00000096,false,Rx,0,8,58,00,68,96,01,FF,FF,FF,
61660704,00000314,false,Rx,0,3,50,00,FF,00,00,00,00,00,
61660882,0000036F,false,Rx,0,5,F2,F7,FE,FF,14,00,00,00,
61661132,000007BD,false,Rx,0,8,00,00,00,C0,FF,C0,01,08,
61661353,0000012F,false,Rx,0,8,9F,5A,8A,DD,F1,35,30,88,
61661607,000007BE,false,Rx,0,8,05,00,00,00,00,00,00,E0,
61661847,00000108,false,Rx,0,8,00,7D,FF,FF,07,F1,FF,FF,
61662036,000003FD,false,Rx,0,5,71,0E,20,00,FF,00,00,00,
61662267,00000112,false,Rx,0,8,F7,1F,7E,0E,96,71,15,5D,
61662435,00000197,false,Rx,0,4,8F,04,0E,C0,00,00,00,00,
61662676,00000206,false,Rx,0,8,B3,2B,5A,FF,FF,FF,FF,FF,
61662918,0000015F,false,Rx,0,8,2B,F4,00,7D,00,EE,00,7D,
61663159,00000212,false,Rx,0,8,A5,F9,F9,FF,FF,FF,FF,FF,
61663389,00000431,false,Rx,0,8,CA,FF,FF,FF,FF,4D,F3,4B,
61663644,000002DB,false,Rx,0,8,FF,FF,FF,FF,BF,FF,FF,FF,
61663885,000002F1,false,Rx,0,8,B4,0F,00,00,00,00,00,A0,
61664136,0000032B,false,Rx,0,8,00,00,00,00,00,00,00,FF,
61664387,00000331,false,Rx,0,8,FF,FF,FF,EF,7F,FE,F7,FF,
61664630,000003E9,false,Rx,0,8,08,52,00,00,00,00,00,00,
61664881,0000013A,false,Rx,0,8,38,FE,00,00,00,0E,FF,FF,
61666556,00000199,false,Rx,0,6,FF,FF,92,7E,FF,3F,00,00,
61666768,0000019A,false,Rx,0,6,FF,FF,37,7F,FF,2F,00,00,
61666977,0000019F,false,Rx,0,6,FF,FF,0F,80,FF,2F,00,00,
61667217,00000254,false,Rx,0,8,FF,7F,FF,7F,FF,7F,FF,7F,
61667354,00000258,false,Rx,0,2,11,11,00,00,00,00,00,00,
61668473,00000100,false,Rx,0,8,F7,FC,7F,C0,5D,3F,87,70,
61671682,00000201,false,Rx,0,8,DE,3E,DE,3E,FF,FF,FF,FF,
61671908,00000112,false,Rx,0,8,F7,1F,7E,0E,96,71,15,5D,
61672149,00000432,false,Rx,0,8,FC,E7,10,AA,5A,FF,01,FF,
61672797,000000EF,false,Rx,0,8,81,F5,00,7D,21,FE,7C,FF,
61673351,000001A1,false,Rx,0,5,95,C0,00,00,81,00,00,00,
61676025,00000272,false,Rx,0,8,D2,F6,FC,02,FF,FF,FF,FF,
61678473,00000100,false,Rx,0,8,AA,FD,7F,C0,5D,3F,87,70,
61679639,000000A5,false,Rx,0,8,80,F4,FF,F7,7F,00,00,C1,
61679766,000000AC,false,Rx,0,2,00,F0,00,00,00,00,00,00,
61680006,000000D9,false,Rx,0,8,CC,F4,00,10,00,F0,7F,C0,
61680246,000000F3,false,Rx,0,8,E2,04,00,FF,F0,C0,FF,FF,
61680435,000002A7,false,Rx,0,5,5D,FC,FE,FF,14,00,00,00,
61680796,00000239,false,Rx,0,8,7B,C3,1B,FF,01,4C,FF,FF,
61681901,00000112,false,Rx,0,8,F7,1F,7E,0E,96,71,15,5D,
61682797,0000015F,false,Rx,0,8,76,F5,00,7D,00,EE,00,7D,
61684838,0000013A,false,Rx,0,8,64,F1,00,00,00,0E,FF,FF,
61686247,000000A9,false,Rx,0,8,60,78,00,90,F1,00,00,FF,
61686589,00000199,false,Rx,0,6,FF,FF,B0,7E,FF,3F,00,00,
61686801,0000019A,false,Rx,0,6,FF,FF,37,7F,FF,2F,00,00,
61687000,0000019F,false,Rx,0,6,FF,FF,0A,80,FF,2F,00,00,
61687250,00000254,false,Rx,0,8,FF,7F,FF,7F,FF,7F,FF,7F,
61687377,00000258,false,Rx,0,2,11,11,00,00,00,00,00,00,
61687619,00000510,false,Rx,0,8,40,10,80,00,00,00,00,00,
61688688,00000100,false,Rx,0,8,4D,FE,7F,C0,5D,3F,87,70,
61690802,00000096,false,Rx,0,8,58,00,68,96,01,FF,FF,FF,
61691157,000001E1,false,Rx,0,6,FC,F3,01,FF,FF,FF,00,00,
61691585,00000302,false,Rx,0,7,FF,FF,FD,9C,F1,FF,FF,00,
61691889,00000112,false,Rx,0,8,F7,1F,7E,0E,96,71,15,5D,
61692120,000001FA,false,Rx,0,8,45,65,45,F0,44,46,43,44,
61692288,00000197,false,Rx,0,4,00,05,0E,C0,00,00,00,00,
61692797,000000EF,false,Rx,0,8,66,F6,00,7D,21,FE,7C,FF,
61693361,000001A1,false,Rx,0,5,B2,C2,00,00,81,00,00,00,
61695779,00000369,false,Rx,0,5,FF,FE,FF,FF,FF,00,00,00,
61696186,000002A1,false,Rx,0,5,00,58,02,00,F0,00,00,00,
61698477,00000100,false,Rx,0,8,4C,F0,7F,C0,5D,3F,87,70,
61699684,000002C4,false,Rx,0,8,00,00,FF,00,C8,64,FF,CF,
61699915,000000A5,false,Rx,0,8,DD,F5,FF,F7,7F,00,00,C1,
61700052,000000AC,false,Rx,0,2,00,F0,00,00,00,00,00,00,
61700291,000000D9,false,Rx,0,8,91,F5,00,10,00,F0,7F,C0,
61700533,000000F3,false,Rx,0,8,BF,05,00,FF,F0,C0,FF,FF,
61700779,00000289,false,Rx,0,8,3C,FA,E0,FF,FD,00,EC,01,
61700967,000002BB,false,Rx,0,5,49,F3,00,00,F2,00,00,00,
61701207,0000031C,false,Rx,0,8,FF,FF,FF,FF,FF,FF,FF,FF,
61701418,0000033B,false,Rx,0,6,00,FF,FF,FF,FF,FF,00,00,
61701640,000003A7,false,Rx,0,7,56,FB,00,00,1F,11,F0,00,
61701891,00000206,false,Rx,0,8,3D,2C,5A,FF,FF,FF,FF,FF,
61702112,00000112,false,Rx,0,8,F7,1F,7E,0E,96,71,15,5D,
61702363,00000363,false,Rx,0,8,3C,D3,EA,07,FF,FF,FF,FF,
61702489,000003E6,false,Rx,0,2,59,00,00,00,00,00,00,00,
61702816,0000015F,false,Rx,0,8,91,F6,00,7D,00,EE,00,7D,
61703514,00000301,false,Rx,0,7,FF,FF,DD,96,FF,FF,2F,00,
61704776,0000013A,false,Rx,0,8,DE,F3,00,00,00,0E,FF,FF,
61705694,000002ED,false,Rx,0,3,C2,0C,02,00,00,00,00,00,
61706143,000002C3,false,Rx,0,5,0B,15,0F,00,FF,00,00,00,
61706560,00000199,false,Rx,0,6,FF,FF,92,7E,FF,3F,00,00,
61706762,0000019A,false,Rx,0,6,FF,FF,23,7F,FF,2F,00,00,
61706982,0000019F,false,Rx,0,6,FF,FF,FA,7F,FF,2F,00,00,
61707222,00000254,false,Rx,0,8,FF,7F,FF,7F,FF,7F,FF,7F,
61707348,00000258,false,Rx,0,2,11,11,00,00,00,00,00,00,
61708632,00000100,false,Rx,0,8,11,F1,7F,C0,5D,3F,87,70,
61710983,000007BD,false,Rx,0,8,01,2D,55,7F,48,59,59,00,
61711252,000007BE,false,Rx,0,8,07,69,21,60,06,67,00,00,
61711878,000002E8,false,Rx,0,8,C0,18,C5,FF,FF,F4,F7,F7,
61712110,00000112,false,Rx,0,8,F7,1F,7E,0E,96,71,15,5D,
61712800,000000EF,false,Rx,0,8,3B,F7,00,7D,21,FE,7C,FF,
61713344,000001A1,false,Rx,0,5,DB,C4,00,00,81,00,00,00,
61715823,0000021F,false,Rx,0,8,FF,FF,FF,FF,FF,FF,FF,FF,
61716210,000002B0,false,Rx,0,6,3D,46,04,CD,FF,FF,00,00,
61718702,00000100,false,Rx,0,8,F6,F2,7F,C0,5D,3F,87,70,
61719669,000000A5,false,Rx,0,8,3A,F6,FF,F7,7F,00,00,C1,
61719807,000000AC,false,Rx,0,2,00,F0,00,00,00,00,00,00,
61720036,000000D9,false,Rx,0,8,76,F6,00,10,00,F0,7F,C0,
61720277,000000F3,false,Rx,0,8,58,06,00,FF,F0,C0,FF,FF,
61720518,00000096,false,Rx,0,8,58,00,68,96,01,FF,FF,FF,
61720646,0000024D,false,Rx,0,2,C0,FF,00,00,00,00,00,00,
61720833,00000349,false,Rx,0,5,FE,FF,3E,08,00,00,00,00,
61721053,000002C5,false,Rx,0,7,42,F1,00,70,04,70,C8,00,
61721231,0000036E,false,Rx,0,5,3D,F7,FE,FF,14,00,00,00,
61721357,000002CA,false,Rx,0,2,71,72,00,00,00,00,00,00,
61721565,000002F7,false,Rx,0,6,02,D8,8A,0B,11,F2,00,00,
61721806,00000201,false,Rx,0,8,ED,3E,ED,3E,FF,FF,FF,FF,
61722038,00000112,false,Rx,0,8,F7,1F,7E,0E,96,71,15,5D,
61722206,00000197,false,Rx,0,4,8C,06,0E,C0,00,00,00,00,
61722446,00000356,false,Rx,0,8,4D,F0,01,FF,FF,FF,FF,FF,
61722677,000002F5,false,Rx,0,8,71,0F,60,29,22,0A,06,10,
61722919,0000015F,false,Rx,0,8,CC,F7,00,7D,00,EE,00,7D,
61723087,00000393,false,Rx,0,4,FE,32,FE,FD,00,00,00,00,
61724842,0000013A,false,Rx,0,8,0D,F5,00,00,00,0E,FF,FF,
61726558,00000199,false,Rx,0,6,FF,FF,92,7E,FF,3F,00,00,
61726760,0000019A,false,Rx,0,6,FF,FF,2D,7F,FF,2F,00,00,
61726969,0000019F,false,Rx,0,6,FF,FF,FF,7F,FF,2F,00,00,
61727220,00000254,false,Rx,0,8,FF,7F,FF,7F,FF,7F,FF,7F,
61727346,00000258,false,Rx,0,2,11,11,00,00,00,00,00,00,
61728493,00000100,false,Rx,0,8,AB,F3,7F,C0,5D,3F,87,70,
61729923,000003F9,false,Rx,0,8,CA,F1,80,E0,44,FF,C3,FF,
61730645,000002A5,false,Rx,0,2,FE,FE,00,00,00,00,00,00,
61730801,000003CB,false,Rx,0,4,DE,AD,C8,AB,00,00,00,00,
61731478,00000302,false,Rx,0,7,FF,FF,FD,9C,F1,FF,FF,00,
61731886,00000112,false,Rx,0,8,F7,1F,7E,0E,96,71,15,5D,
61732795,000000EF,false,Rx,0,8,67,F8,00,7D,21,FE,7C,FF,
61733348,000001A1,false,Rx,0,5,FC,C6,00,00,81,00,00,00,
61738742,00000100,false,Rx,0,8,25,F4,7F,C0,5D,3F,87,70,
61739438,000000A5,false,Rx,0,8,67,F7,FF,F7,7F,00,00,C1,
61739574,000000AC,false,Rx,0,2,00,F0,00,00,00,00,00,00,
61739816,000000D9,false,Rx,0,8,2B,F7,00,10,00,F0,7F,C0,
61740057,000000F3,false,Rx,0,8,05,07,00,FF,F0,C0,FF,FF,
61740287,0000019B,false,Rx,0,8,48,4A,40,55,FD,FF,FF,FF,
61740539,000002AE,false,Rx,0,8,FF,FF,FF,FF,FF,FF,FF,00,
61741704,00000206,false,Rx,0,8,60,2D,5A,FF,FF,FF,FF,FF,
61741935,00000112,false,Rx,0,8,F7,1F,7E,0E,96,71,15,5D,
61742803,0000015F,false,Rx,0,8,90,F8,00,7D,00,EE,00,7D,
61744784,0000013A,false,Rx,0,8,B7,F7,00,00,00,0E,FF,FF,
61746617,00000163,false,Rx,0,8,FF,FF,12,25,FF,FF,FF,FF,
61746853,00000173,false,Rx,0,8,F6,F1,00,02,20,00,D2,10,
61747052,00000199,false,Rx,0,6,FF,FF,9C,7E,FF,3F,00,00,
61747251,0000019A,false,Rx,0,6,FF,FF,37,7F,FF,2F,00,00,
61747461,0000019F,false,Rx,0,6,FF,FF,F3,7F,FF,2F,00,00,
61747599,000001AE,false,Rx,0,2,FB,FF,00,00,00,00,00,00,
61747849,00000254,false,Rx,0,8,FF,7F,FF,7F,FF,7F,FF,7F,
61747975,00000258,false,Rx,0,2,11,11,00,00,00,00,00,00,
61748476,00000100,false,Rx,0,8,78,F5,7F,C0,5D,3F,87,70,
61749320,00000348,false,Rx,0,8,FE,FE,FE,00,FE,FE,FF,00,
61749813,000002F2,false,Rx,0,6,00,00,00,00,FF,FF,00,00,
61750783,00000096,false,Rx,0,8,58,00,68,96,01,FF,FF,FF,
61751013,000001B3,false,Rx,0,8,FC,00,00,F4,14,78,8A,BD,
61751224,00000297,false,Rx,0,7,09,EA,F0,E0,F2,92,EA,00,
61751444,00000362,false,Rx,0,7,2F,C1,02,2F,C1,02,EA,00,
61751894,00000112,false,Rx,0,8,F7,1F,7E,0E,96,71,15,5D,
61752125,00000197,false,Rx,0,4,03,07,0E,C0,00,00,00,00,
61752794,000000EF,false,Rx,0,8,3A,F9,00,7D,21,FE,7C,FF,
61753352,000001A1,false,Rx,0,5,09,C8,00,00,81,00,00,00,
61757376,000000C0,false,Rx,0,2,F2,40,00,00,00,00,00,00,
61757632,0000003C,false,Rx,0,8,FF,7F,00,00,00,00,FF,FF,
61758467,00000100,false,Rx,0,8,9F,F6,7F,C0,5D,3F,87,70,
61759739,000002A7,false,Rx,0,5,C0,FD,FE,FF,14,00,00,00,
61759979,000000A5,false,Rx,0,8,3B,F8,FF,F7,7F,00,00,C1,
61760106,000000AC,false,Rx,0,2,00,F0,00,00,00,00,00,00,
61760356,000000D9,false,Rx,0,8,77,F8,00,10,00,F0,7F,C0,
61760587,000000F3,false,Rx,0,8,59,08,00,FF,F0,C0,FF,FF,
61761037,000007BD,false,Rx,0,8,00,00,00,C0,FF,C0,01,08,
61761258,0000012F,false,Rx,0,8,C2,5B,8A,DD,F1,35,30,88,
61761516,000007BE,false,Rx,0,8,0B,00,00,00,00,00,00,00,
61761759,00000108,false,Rx,0,8,00,7D,FF,FF,07,F1,FF,FF,
61761949,000003FD,false,Rx,0,5,84,00,20,00,FF,00,00,00,
61762178,00000112,false,Rx,0,8,F7,1F,7E,0E,96,71,15,5D,
61762419,00000201,false,Rx,0,8,FA,3E,FA,3E,FF,FF,FF,FF,
61762671,00000212,false,Rx,0,8,42,FA,F9,FF,FF,FF,FF,FF,
61762913,0000015F,false,Rx,0,8,CD,F9,00,7D,00,EE,00,7D,
61763154,000002DB,false,Rx,0,8,FF,FF,FF,FF,BF,FF,FF,FF,
61763405,000002F1,false,Rx,0,8,B4,0F,00,00,00,00,00,A0,
61764786,0000013A,false,Rx,0,8,B6,F9,00,00,00,0E,FF,FF,
61766555,00000199,false,Rx,0,6,FF,FF,9C,7E,FF,3F,00,00,
61766765,0000019A,false,Rx,0,6,FF,FF,23,7F,FF,2F,00,00,
61766985,0000019F,false,Rx,0,6,FF,FF,F9,7F,FF,2F,00,00,
61767225,00000254,false,Rx,0,8,FF,7F,FF,7F,FF,7F,FF,7F,
61767352,00000258,false,Rx,0,2,11,11,00,00,00,00,00,00,
61768711,00000100,false,Rx,0,8,C2,F7,7F,C0,5D,3F,87,70,
61769213,0000043D,false,Rx,0,8,FE,FE,EF,FF,F6,FE,FE,F7,
61771484,00000302,false,Rx,0,7,FF,FF,FD,9C,F1,FF,FF,00,
61771732,00000201,false,Rx,0,8,FD,3E,FD,3E,FF,FF,FF,FF,
61771964,00000112,false,Rx,0,8,F8,1F,7E,0E,96,71,15,5D,
61772788,000000EF,false,Rx,0,8,DD,FA,00,7D,21,FE,7C,FF,
61773341,000001A1,false,Rx,0,5,2E,CA,00,00,81,00,00,00,
61773970,000003C0,false,Rx,0,8,DD,DD,DD,FD,FF,FF,FF,FF,
61778718,00000100,false,Rx,0,8,9E,F8,7F,C0,5D,3F,87,70,
61779579,000000A5,false,Rx,0,8,66,F9,FF,F7,7F,00,00,C1,
61779718,000000AC,false,Rx,0,2,00,F0,00,00,00,00,00,00,
61779958,000000D9,false,Rx,0,8,2A,F9,00,10,00,F0,7F,C0,
61780198,000000F3,false,Rx,0,8,04,09,00,FF,F0,C0,FF,FF,
61780440,00000096,false,Rx,0,8,58,00,68,96,01,FF,FF,FF,
61781676,00000206,false,Rx,0,8,87,2E,5A,FF,FF,FF,FF,FF,
61781918,00000112,false,Rx,0,8,F7,1F,7E,0E,96,71,15,5D,
61782117,00000197,false,Rx,0,4,85,08,0E,C0,00,00,00,00,
61782806,0000015F,false,Rx,0,8,2A,FA,00,7D,00,EE,00,7D,
61784287,00000340,false,Rx,0,2,FC,FF,00,00,00,00,00,00,
61784777,0000013A,false,Rx,0,8,0C,FB,00,00,00,0E,FF,FF,
61786237,000000A9,false,Rx,0,8,70,78,00,90,F1,00,00,FF,
61786478,00000589,false,Rx,0,8,40,22,00,15,FF,FF,FF,FF,
61786679,00000199,false,Rx,0,6,FF,FF,92,7E,FF,3F,00,00,
61786888,0000019A,false,Rx,0,6,FF,FF,23,7F,FF,2F,00,00,
61787097,0000019F,false,Rx,0,6,FF,FF,FF,7F,FF,2F,00,00,
61787349,00000254,false,Rx,0,8,FF,7F,FF,7F,FF,7F,FF,7F,
61787476,00000258,false,Rx,0,2,11,11,00,00,00,00,00,00,
61788476,00000100,false,Rx,0,8,C3,F9,7F,C0,5D,3F,87,70,
61790315,0000043C,false,Rx,0,8,FE,FE,FF,FF,FF,FF,FF,FF,
61791930,00000112,false,Rx,0,8,F7,1F,7E,0E,96,71,15,5D,
61792662,0000059D,false,Rx,0,8,8D,0E,01,FC,00,00,03,00,
61792890,000000EF,false,Rx,0,8,80,FB,00,7D,21,FE,7C,FF,
61793359,000001A1,false,Rx,0,5,47,CC,00,00,81,00,00,00,
61795903,000005E0,false,Rx,0,8,11,03,00,05,12,0A,C4,1B,
61796206,000002A1,false,Rx,0,5,00,58,02,00,F0,00,00,00,
61796698,0000051A,false,Rx,0,8,00,00,00,00,50,00,00,1A,
61798470,00000100,false,Rx,0,8,24,FA,7F,C0,5D,3F,87,70,
61799617,000002C4,false,Rx,0,8,00,00,FF,00,C8,64,FF,CF,
61799858,000000A5,false,Rx,0,8,81,FA,FF,F7,7F,00,00,C1,
61799984,000000AC,false,Rx,0,2,00,F0,00,00,00,00,00,00,
61800234,000000D9,false,Rx,0,8,CD,FA,00,10,00,F0,7F,C0,
61800465,000000F3,false,Rx,0,8,E3,0A,00,FF,F0,C0,FF,FF,
61800707,00000289,false,Rx,0,8,61,FB,E0,FF,FD,00,EC,01,
61800886,000002BB,false,Rx,0,5,BC,FD,00,00,F2,00,00,00,
61801092,00000304,false,Rx,0,6,FF,FF,79,39,FF,FF,00,00,
61801887,00000112,false,Rx,0,8,F7,1F,7E,0E,96,71,15,5D,
61802795,0000015F,false,Rx,0,8,77,FB,00,7D,00,EE,00,7D,
61804839,0000013A,false,Rx,0,8,DF,FD,00,00,00,0E,FF,FF,
61806556,00000199,false,Rx,0,6,FF,FF,92,7E,FF,3F,00,00,
61806756,0000019A,false,Rx,0,6,FF,FF,2D,7F,FF,2F,00,00,
61806965,0000019F,false,Rx,0,6,FF,FF,11,80,FF,2F,00,00,
61807215,00000254,false,Rx,0,8,FF,7F,FF,7F,FF,7F,FF,7F,
61807343,00000258,false,Rx,0,2,11,11,00,00,00,00,00,00,
61808479,00000100,false,Rx,0,8,79,FB,7F,C0,5D,3F,87,70,
61810888,00000096,false,Rx,0,8,58,00,68,96,01,FF,FF,FF,
61811136,000007BD,false,Rx,0,8,04,00,00,00,00,00,00,80,
61811480,00000302,false,Rx,0,7,FF,FF,FD,9C,F1,FF,FF,00,
61811889,000002E8,false,Rx,0,8,C0,18,C5,FF,FF,F4,F8,4C,
61812120,00000112,false,Rx,0,8,F7,1F,7E,0E,96,71,15,5D,
61812287,00000197,false,Rx,0,4,0A,09,0E,C0,00,00,00,00,
61812517,00000239,false,Rx,0,8,7B,C3,1B,FF,01,4C,FF,FF,
61812812,000000EF,false,Rx,0,8,0E,FC,00,7D,21,FE,7C,FF,
61813373,000001A1,false,Rx,0,5,60,CE,00,00,81,00,00,00,
61815023,00000512,false,Rx,0,8,00,00,00,00,00,00,00,12,
61816199,000002B0,false,Rx,0,6,3D,46,04,CD,FF,FF,00,00,
61818478,00000100,false,Rx,0,8,F7,FC,7F,C0,5D,3F,87,70,
61819624,000000A5,false,Rx,0,8,DC,FB,FF,F7,7F,00,00,C1,
61819761,000000AC,false,Rx,0,2,00,F0,00,00,00,00,00,00,
61820000,000000D9,false,Rx,0,8,90,FB,00,10,00,F0,7F,C0,
61820241,000000F3,false,Rx,0,8,BE,0B,00,FF,F0,C0,FF,FF,
61820400,00000314,false,Rx,0,3,50,00,FF,00,00,00,00,00,
61820765,0000036F,false,Rx,0,5,9A,F8,FE,FF,14,00,00,00,
61820974,000002C5,false,Rx,0,7,88,F2,00,70,04,70,C8,00,
61821681,00000206,false,Rx,0,8,86,20,5A,FF,FF,FF,FF,FF,
61821913,00000112,false,Rx,0,8,F7,1F,7E,0E,96,71,15,5D,
61822153,00000201,false,Rx,0,8,0D,3F,0D,3F,FF,FF,FF,FF,
61822384,000002F5,false,Rx,0,8,71,0F,60,29,22,0A,06,10,
61822803,0000015F,false,Rx,0,8,F9,FC,00,7D,00,EE,00,7D,
61824790,0000013A,false,Rx,0,8,39,F0,00,00,00,0E,FF,FF,
61826101,000003D2,false,Rx,0,2,F3,FF,00,00,00,00,00,00,
61826560,00000199,false,Rx,0,6,FF,FF,9C,7E,FF,3F,00,00,
61826760,0000019A,false,Rx,0,6,FF,FF,41,7F,FF,2F,00,00,
61826969,0000019F,false,Rx,0,6,FF,FF,11,80,FF,2F,00,00,
61827222,00000254,false,Rx,0,8,FF,7F,FF,7F,FF,7F,FF,7F,
61827348,00000258,false,Rx,0,2,11,11,00,00,00,00,00,00,
61828714,00000100,false,Rx,0,8,AA,FD,7F,C0,5D,3F,87,70,
61830790,00000346,false,Rx,0,4,35,D3,70,F0,00,00,00,00,
61831892,00000112,false,Rx,0,8,F8,1F,7E,0E,96,71,15,5D,
61832790,000000EF,false,Rx,0,8,53,FD,00,7D,21,FE,7C,FF,
61833341,000001A1,false,Rx,0,5,08,C1,00,00,81,00,00,00,
61836183,000003B4,false,Rx,0,8,00,00,0C,F0,B8,FF,00,FF,
61836988,0000032E,false,Rx,0,8,FF,FF,8F,BF,8F,FF,FF,1E,
61838467,00000100,false,Rx,0,8,4D,FE,7F,C0,5D,3F,87,70,
61839654,000000A5,false,Rx,0,8,52,FC,FF,F7,7F,00,00,C1,
61839791,000000AC,false,Rx,0,2,00,F0,00,00,00,00,00,00,
61840030,000000D9,false,Rx,0,8,1E,FC,00,10,00,F0,7F,C0,
61840272,000000F3,false,Rx,0,8,30,0C,00,FF,F0,C0,FF,FF,
61840513,00000096,false,Rx,0,8,58,00,68,96,01,FF,FF,FF,
61840692,000002A7,false,Rx,0,5,7A,FE,FE,FF,14,00,00,00,
61840943,000002AE,false,Rx,0,8,FF,FF,FF,FF,FF,FF,FF,00,
61841880,00000112,false,Rx,0,8,F7,1F,7E,0E,96,71,15,5D,
61842131,00000197,false,Rx,0,4,86,0A,0E,C0,00,00,00,00,
61842790,0000015F,false,Rx,0,8,A4,FD,00,7D,00,EE,00,7D,
61844854,0000013A,false,Rx,0,8,83,F2,00,00,00,0E,FF,FF,
61845750,0000031E,false,Rx,0,8,33,00,00,FF,78,FF,FF,FF,
61846606,00000163,false,Rx,0,8,FF,FF,12,25,FF,FF,FF,FF,
61846836,00000173,false,Rx,0,8,9E,FB,00,02,20,00,D2,10,
61847046,00000199,false,Rx,0,6,FF,FF,92,7E,FF,3F,00,00,
61847246,0000019A,false,Rx,0,6,FF,FF,0F,7F,FF,2F,00,00,
61847459,0000019F,false,Rx,0,6,FF,FF,0C,80,FF,2F,00,00,
61847585,000001AE,false,Rx,0,2,FB,FF,00,00,00,00,00,00,
61847836,00000254,false,Rx,0,8,FF,7F,FF,7F,FF,7F,FF,7F,
61847963,00000258,false,Rx,0,2,11,11,00,00,00,00,00,00,
61848725,00000100,false,Rx,0,8,4C,F0,7F,C0,5D,3F,87,70,
61849771,000002F2,false,Rx,0,6,00,00,00,00,FF,FF,00,00,
61850700,000001EE,false,Rx,0,2,00,FC,00,00,00,00,00,00,
61850929,000001B3,false,Rx,0,8,FC,00,00,F5,14,78,8A,BE,
61851067,000002A6,false,Rx,0,2,00,B4,00,00,00,00,00,00,
61851484,00000302,false,Rx,0,7,FF,FF,FD,9C,F1,FF,FF,00,
61851893,00000112,false,Rx,0,8,F7,1F,7E,0E,96,71,15,5D,
61852791,000000EF,false,Rx,0,8,B4,FE,00,7D,21,FE,7C,FF,
61853355,000001A1,false,Rx,0,5,2F,C3,00,00,81,00,00,00,
61857531,0000003C,false,Rx,0,8,FF,7F,00,00,00,00,FF,FF,
61858467,00000100,false,Rx,0,8,11,F1,7F,C0,5D,3F,87,70,
61859747,000000A5,false,Rx,0,8,0F,FD,FF,F7,7F,00,00,C1,
61859884,000000AC,false,Rx,0,2,00,F0,00,00,00,00,00,00,
61860124,000000D9,false,Rx,0,8,43,FD,00,10,00,F0,7F,C0,
61860355,000000F3,false,Rx,0,8,6D,0D,00,FF,F0,C0,FF,FF,
61861003,000007BD,false,Rx,0,8,00,00,00,C0,FF,C0,01,08,
61861223,0000012F,false,Rx,0,8,4C,5C,8A,DD,F1,35,30,88,
61861474,000007BE,false,Rx,0,8,05,00,00,00,00,00,00,E0,
61861724,00000108,false,Rx,0,8,00,7D,FF,FF,07,F1,FF,FF,
61861904,000003FD,false,Rx,0,5,19,01,20,00,FF,00,00,00,
61862133,00000112,false,Rx,0,8,F7,1F,7E,0E,96,71,15,5D,
61862374,00000206,false,Rx,0,8,DB,21,5A,FF,FF,FF,FF,FF,
61862607,00000431,false,Rx,0,8,CA,FF,FF,FF,FF,4D,F3,4B,
61862847,0000015F,false,Rx,0,8,43,FE,00,7D,00,EE,00,7D,
61863098,00000212,false,Rx,0,8,1F,FB,F9,FF,FF,FF,FF,FF,
61863350,000002DB,false,Rx,0,8,FF,FF,FF,FF,BF,FF,FF,FF,
61863603,000002F1,false,Rx,0,8,B4,0F,00,00,00,00,00,A0,
61863856,0000032B,false,Rx,0,8,00,00,00,00,00,00,00,FF,
61864098,00000331,false,Rx,0,8,FF,FF,FF,EF,7F,FE,F7,FF,
61864349,000003E9,false,Rx,0,8,08,52,00,00,00,00,00,00,
61864778,0000013A,false,Rx,0,8,50,F4,00,00,00,0E,FF,FF,
61866553,00000199,false,Rx,0,6,FF,FF,92,7E,FF,3F,00,00,
61866754,0000019A,false,Rx,0,6,FF,FF,2D,7F,FF,2F,00,00,
61866963,0000019F,false,Rx,0,6,FF,FF,0B,80,FF,2F,00,00,
61867205,00000254,false,Rx,0,8,FF,7F,FF,7F,FF,7F,FF,7F,
61867342,00000258,false,Rx,0,2,11,11,00,00,00,00,00,00,
61868470,00000100,false,Rx,0,8,F6,F2,7F,C0,5D,3F,87,70,
61870866,00000096,false,Rx,0,8,58,00,68,96,01,FF,FF,FF,
61871681,00000201,false,Rx,0,8,1D,3F,1D,3F,FF,FF,FF,FF,
61871911,00000112,false,Rx,0,8,F7,1F,7E,0E,96,71,15,5D,
61872141,00000432,false,Rx,0,8,FC,E7,10,AA,5A,FF,01,FF,
61872309,00000197,false,Rx,0,4,09,0B,0E,C0,00,00,00,00,
61872666,000003CD,false,Rx,0,8,B9,08,83,12,2C,00,C3,04,
61872906,000000EF,false,Rx,0,8,B5,F0,00,7D,21,FE,7C,FF,
61873356,000001A1,false,Rx,0,5,46,C5,00,00,81,00,00,00,
61876211,00000272,false,Rx,0,8,8F,F7,FC,02,FF,FF,FF,FF,
61878461,00000100,false,Rx,0,8,AB,F3,7F,C0,5D,3F,87,70,
61879638,000000A5,false,Rx,0,8,E8,FE,FF,F7,7F,00,00,C1,
61879774,000000AC,false,Rx,0,2,00,F0,00,00,00,00,00,00,
61880014,000000D9,false,Rx,0,8,A4,FE,00,10,00,F0,7F,C0,
61880245,000000F3,false,Rx,0,8,8A,0E,00,FF,F0,C0,FF,FF,
61880434,0000036E,false,Rx,0,5,55,F8,FE,FF,14,00,00,00,
61881909,00000112,false,Rx,0,8,F7,1F,7E,0E,96,71,15,5D,
61882792,0000015F,false,Rx,0,8,42,F0,00,7D,00,EE,00,7D,
61884779,0000013A,false,Rx,0,8,EA,F6,00,00,00,0E,FF,FF,
61886240,000000A9,false,Rx,0,8,70,78,00,90,F1,00,00,FF,
61886595,00000199,false,Rx,0,6,FF,FF,9C,7E,FF,3F,00,00,
61886804,0000019A,false,Rx,0,6,FF,FF,23,7F,FF,2F,00,00,
61887013,0000019F,false,Rx,0,6,FF,FF,F2,7F,FF,2F,00,00,
61887255,00000254,false,Rx,0,8,FF,7F,FF,7F,FF,7F,FF,7F,
61887381,00000258,false,Rx,0,2,11,11,00,00,00,00,00,00,
61887622,00000509,false,Rx,0,8,00,00,00,00,6E,32,00,09,
61888703,00000100,false,Rx,0,8,25,F4,7F,C0,5D,3F,87,70,
61891160,000001E1,false,Rx,0,6,F7,F4,01,FF,FF,FF,00,00,
61891566,00000302,false,Rx,0,7,FF,FF,FD,9C,F1,FF,FF,00,
61891892,00000112,false,Rx,0,8,F8,1F,7E,0E,96,71,15,5D,
61892790,000000EF,false,Rx,0,8,E8,F1,00,7D,21,FE,7C,FF,
61893344,000001A1,false,Rx,0,5,61,C7,00,00,81,00,00,00,
61896187,000002A1,false,Rx,0,5,00,58,02,00,F0,00,00,00,
61898709,00000100,false,Rx,0,8,78,F5,7F,C0,5D,3F,87,70,
61899446,000002C4,false,Rx,0,8,00,00,FF,00,C8,64,FF,CF,
61899688,000000A5,false,Rx,0,8,E9,F0,FF,F7,7F,00,00,C1,
61899928,000000D9,false,Rx,0,8,A5,F0,00,10,00,F0,7F,C0,
61900065,000000AC,false,Rx,0,2,00,F0,00,00,00,00,00,00,
61900295,000000F3,false,Rx,0,8,8B,00,00,FF,F0,C0,FF,FF,
61900536,00000096,false,Rx,0,8,58,00,68,96,01,FF,FF,FF,
61900773,00000289,false,Rx,0,8,EF,FC,E0,FF,FD,00,EC,01,
61900963,000002BB,false,Rx,0,5,6F,F8,00,00,F2,00,00,00,
61901203,0000031C,false,Rx,0,8,FF,FF,FF,FF,FF,FF,FF,FF,
61901413,0000033B,false,Rx,0,6,00,FF,FF,FF,FF,FF,00,00,
61901686,00000206,false,Rx,0,8,3C,22,5A,FF,FF,FF,FF,FF,
61901918,00000112,false,Rx,0,8,F7,1F,7E,0E,96,71,15,5D,
61902117,00000197,false,Rx,0,4,83,0C,0E,C0,00,00,00,00,
61902804,0000015F,false,Rx,0,8,1F,F1,00,7D,00,EE,00,7D,
61903503,00000301,false,Rx,0,7,FF,FF,DD,96,FF,FF,2F,00,
61904796,0000013A,false,Rx,0,8,EB,F8,00,00,00,0E,FF,FF,
61906578,00000199,false,Rx,0,6,FF,FF,9C,7E,FF,3F,00,00,
61906789,0000019A,false,Rx,0,6,FF,FF,41,7F,FF,2F,00,00,
61906987,0000019F,false,Rx,0,6,FF,FF,1D,80,FF,2F,00,00,
61907239,00000254,false,Rx,0,8,FF,7F,FF,7F,FF,7F,FF,7F,
61907366,00000258,false,Rx,0,2,11,11,00,00,00,00,00,00,
61908649,00000100,false,Rx,0,8,9F,F6,7F,C0,5D,3F,87,70,
61911008,000007BD,false,Rx,0,8,03,00,00,00,00,00,00,05,
61911286,000007BE,false,Rx,0,8,0C,0F,04,6B,00,00,00,00,
61911893,000002E8,false,Rx,0,8,C0,18,C5,FF,FF,F4,F9,51,
61912123,00000112,false,Rx,0,8,F8,1F,7E,0E,96,71,15,5D,
61912793,000000EF,false,Rx,0,8,0F,F2,00,7D,21,FE,7C,FF,
61913338,000001A1,false,Rx,0,5,94,C9,00,00,81,00,00,00,
61916212,000002B0,false,Rx,0,6,3D,46,04,CD,FF,FF,00,00,
61918470,00000100,false,Rx,0,8,C2,F7,7F,C0,5D,3F,87,70,
61919637,000000A5,false,Rx,0,8,B4,F1,FF,F7,7F,00,00,C1,
61919774,000000AC,false,Rx,0,2,00,F0,00,00,00,00,00,00,
61920013,000000D9,false,Rx,0,8,F8,F1,00,10,00,F0,7F,C0,
61920255,000000F3,false,Rx,0,8,D6,01,00,FF,F0,C0,FF,FF,
61920433,000002A7,false,Rx,0,5,8F,F0,FE,FF,14,00,00,00,
61920623,00000349,false,Rx,0,5,FE,FF,3E,08,00,00,00,00,
61920926,0000019D,false,Rx,0,8,1A,DA,03,07,FF,FF,FF,FF,
61921154,000002C5,false,Rx,0,7,CE,F3,00,70,04,70,C8,00,
61921698,00000201,false,Rx,0,8,2C,3F,2C,3F,FF,FF,FF,FF,
61921928,00000112,false,Rx,0,8,F7,1F,7E,0E,96,71,15,5D,
61922356,000002F5,false,Rx,0,8,71,0F,60,29,22,0A,06,10,
61922797,0000015F,false,Rx,0,8,F8,F2,00,7D,00,EE,00,7D,
61924334,0000030B,false,Rx,0,8,6E,F9,FF,FF,F1,FF,FF,FF,
61924837,0000013A,false,Rx,0,8,51,FA,00,00,00,0E,FF,FF,
61926555,00000199,false,Rx,0,6,FF,FF,92,7E,FF,3F,00,00,
61926755,0000019A,false,Rx,0,6,FF,FF,19,7F,FF,2F,00,00,
61926965,0000019F,false,Rx,0,6,FF,FF,F9,7F,FF,2F,00,00,
61927216,00000254,false,Rx,0,8,FF,7F,FF,7F,FF,7F,FF,7F,
61927342,00000258,false,Rx,0,2,11,11,00,00,00,00,00,00,
61928499,00000100,false,Rx,0,8,9E,F8,7F,C0,5D,3F,87,70,
61930617,000002A5,false,Rx,0,2,FE,FE,00,00,00,00,00,00,
61930856,00000096,false,Rx,0,8,58,00,68,96,01,FF,FF,FF,
61931480,00000302,false,Rx,0,7,FF,FF,FD,9C,F1,FF,FF,00,
61931891,00000112,false,Rx,0,8,F7,1F,7E,0E,96,71,15,5D,
61932121,00000197,false,Rx,0,4,0C,0D,0E,C0,00,00,00,00,
61932790,000000EF,false,Rx,0,8,52,F3,00,7D,21,FE,7C,FF,
61933356,000001A1,false,Rx,0,5,B3,CB,00,00,81,00,00,00,
61933816,000002D1,false,Rx,0,2,19,C3,00,00,00,00,00,00,
61938732,00000100,false,Rx,0,8,C3,F9,7F,C0,5D,3F,87,70,
61939437,000000A5,false,Rx,0,8,53,F2,FF,F7,7F,00,00,C1,
61939574,000000AC,false,Rx,0,2,00,F0,00,00,00,00,00,00,
61939815,000000D9,false,Rx,0,8,1F,F2,00,10,00,F0,7F,C0,
61940056,000000F3,false,Rx,0,8,31,02,00,FF,F0,C0,FF,FF,
61940287,0000019B,false,Rx,0,8,15,4B,40,55,FD,FF,FF,FF,
61940538,000002AE,false,Rx,0,8,FF,FF,FF,FF,FF,FF,FF,00,
61941673,00000206,false,Rx,0,8,61,23,5A,FF,FF,FF,FF,FF,
61941903,00000112,false,Rx,0,8,F7,1F,7E,0E,96,71,15,5D,
61942809,0000015F,false,Rx,0,8,A5,F3,00,7D,00,EE,00,7D,
61944792,0000013A,false,Rx,0,8,82,FC,00,00,00,0E,FF,FF,
61945729,00000350,false,Rx,0,6,F3,FF,FF,FF,FF,FF,00,00,
61946606,00000163,false,Rx,0,8,FF,FF,12,25,FF,FF,FF,FF,
61946845,00000173,false,Rx,0,8,78,F6,00,02,20,00,D2,10,
61947045,00000199,false,Rx,0,6,FF,FF,9C,7E,FF,3F,00,00,
61947244,0000019A,false,Rx,0,6,FF,FF,19,7F,FF,2F,00,00,
61947453,0000019F,false,Rx,0,6,FF,FF,02,80,FF,2F,00,00,
61947589,000001AE,false,Rx,0,2,FB,FF,00,00,00,00,00,00,
61947831,00000254,false,Rx,0,8,FF,7F,FF,7F,FF,7F,FF,7F,
61947968,00000258,false,Rx,0,2,11,11,00,00,00,00,00,00,
61948708,00000100,false,Rx,0,8,24,FA,7F,C0,5D,3F,87,70,
61949761,000002F2,false,Rx,0,6,00,00,00,00,FF,FF,00,00,
61950762,00000297,false,Rx,0,7,4F,EB,F0,E0,F2,92,EA,00,
61950991,000001B3,false,Rx,0,8,FC,00,00,F6,14,78,8A,BF,
61951450,00000362,false,Rx,0,7,2F,C1,02,2F,C1,02,EA,00,
61951901,00000112,false,Rx,0,8,F7,1F,7E,0E,96,71,15,5D,
61952788,000000EF,false,Rx,0,8,DC,F4,00,7D,21,FE,7C,FF,
61953334,000001A1,false,Rx,0,5,DA,CD,00,00,81,00,00,00,
61957377,000000C0,false,Rx,0,2,F3,40,00,00,00,00,00,00,
61957624,0000003C,false,Rx,0,8,FF,7F,00,00,00,00,FF,FF,
61958627,00000100,false,Rx,0,8,79,FB,7F,C0,5D,3F,87,70,
61959710,000000A5,false,Rx,0,8,0E,F3,FF,F7,7F,00,00,C1,
61959836,000000AC,false,Rx,0,2,00,F0,00,00,00,00,00,00,
61960077,000000D9,false,Rx,0,8,42,F3,00,10,00,F0,7F,C0,
61960317,000000F3,false,Rx,0,8,6C,03,00,FF,F0,C0,FF,FF,
61960558,00000096,false,Rx,0,8,58,00,68,96,01,FF,FF,FF,
61961009,000007BD,false,Rx,0,8,00,00,00,C0,FF,C0,01,08,
61961240,0000012F,false,Rx,0,8,11,5D,8A,DD,F1,35,30,88,
61961478,000007BE,false,Rx,0,8,00,C0,FA,1C,02,00,00,00,
61961732,00000108,false,Rx,0,8,00,7D,FF,FF,07,F1,FF,FF,
61961920,000003FD,false,Rx,0,5,A3,02,20,00,FF,00,00,00,
61962150,00000112,false,Rx,0,8,F7,1F,7E,0E,96,71,15,5D,
61962307,00000197,false,Rx,0,4,80,0E,0E,C0,00,00,00,00,
61962559,00000212,false,Rx,0,8,91,FC,F9,FF,FF,FF,FF,FF,
61962811,000002DB,false,Rx,0,8,FF,FF,FF,FF,BF,FF,FF,FF,
61963052,0000015F,false,Rx,0,8,2B,F4,00,7D,00,EE,00,7D,
61963294,000002F1,false,Rx,0,8,B4,0F,00,00,00,00,00,A0,
61964840,0000013A,false,Rx,0,8,38,FE,00,00,00,0E,FF,FF,
61966556,00000199,false,Rx,0,6,FF,FF,9C,7E,FF,3F,00,00,
61966756,0000019A,false,Rx,0,6,FF,FF,2D,7F,FF,2F,00,00,
61966965,0000019F,false,Rx,0,6,FF,FF,E0,7F,FF,2F,00,00,
61967217,00000254,false,Rx,0,8,FF,7F,FF,7F,FF,7F,FF,7F,
61967343,00000258,false,Rx,0,2,11,11,00,00,00,00,00,00,
61968704,00000100,false,Rx,0,8,F7,FC,7F,C0,5D,3F,87,70,
61971473,00000302,false,Rx,0,7,FF,FF,FD,9C,F1,FF,FF,00,
61971722,00000201,false,Rx,0,8,3C,3F,3C,3F,FF,FF,FF,FF,
61971952,00000112,false,Rx,0,8,F8,1F,7E,0E,96,71,15,5D,
61972788,000000EF,false,Rx,0,8,81,F5,00,7D,21,FE,7C,FF,
61973341,000001A1,false,Rx,0,5,95,C0,00,00,81,00,00,00,
61978721,00000100,false,Rx,0,8,AA,FD,7F,C0,5D,3F,87,70,
61979436,000000A5,false,Rx,0,8,80,F4,FF,F7,7F,00,00,C1,
61979563,000000AC,false,Rx,0,2,00,F0,00,00,00,00,00,00,
61979804,000000D9,false,Rx,0,8,CC,F4,00,10,00,F0,7F,C0,
61980045,000000F3,false,Rx,0,8,E2,04,00,FF,F0,C0,FF,FF,
61980224,00000314,false,Rx,0,3,50,00,FF,00,00,00,00,00,
61980725,0000036F,false,Rx,0,5,07,F9,FE,FF,14,00,00,00,
61981680,00000206,false,Rx,0,8,EF,24,5A,FF,FF,FF,FF,FF,
61981910,00000112,false,Rx,0,8,F8,1F,7E,0E,96,71,15,5D,
61982796,0000015F,false,Rx,0,8,76,F5,00,7D,00,EE,00,7D,
61984778,0000013A,false,Rx,0,8,64,F1,00,00,00,0E,FF,FF,
61986237,000000A9,false,Rx,0,8,70,78,00,90,F1,00,00,FF,
61986571,00000199,false,Rx,0,6,FF,FF,92,7E,FF,3F,00,00,
61986771,0000019A,false,Rx,0,6,FF,FF,2D,7F,FF,2F,00,00,
61986981,0000019F,false,Rx,0,6,FF,FF,FE,7F,FF,2F,00,00,
61987232,00000254,false,Rx,0,8,FF,7F,FF,7F,FF,7F,FF,7F,
61987358,00000258,false,Rx,0,2,11,11,00,00,00,00,00,00,
61988704,00000100,false,Rx,0,8,4D,FE,7F,C0,5D,3F,87,70,
61990780,00000096,false,Rx,0,8,58,00,68,96,01,FF,FF,FF,
61991915,00000112,false,Rx,0,8,F8,1F,7E,0E,96,71,15,5D,
61992124,00000197,false,Rx,0,4,89,00,0E,C0,00,00,00,00,
61992637,0000059D,false,Rx,0,8,8E,0E,01,32,00,FF,7F,03,
61992877,000000EF,false,Rx,0,8,66,F6,00,7D,21,FE,7C,FF,
61993368,000001A1,false,Rx,0,5,B2,C2,00,00,81,00,00,00,
61995900,000005E0,false,Rx,0,8,11,03,00,06,00,00,C4,00,
61996194,000002A1,false,Rx,0,5,00,58,02,00,F0,00,00,00,
61998475,00000100,false,Rx,0,8,4C,F0,7F,C0,5D,3F,87,70,
61999630,000002C4,false,Rx,0,8,00,00,FF,00,C8,64,FF,CF,
61999871,000000A5,false,Rx,0,8,DD,F5,FF,F7,7F,00,00,C1,
61999997,000000AC,false,Rx,0,2,00,F0,00,00,00,00,00,00,
62000248,000000D9,false,Rx,0,8,91,F5,00,10,00,F0,7F,C0,
62000489,000000F3,false,Rx,0,8,BF,05,00,FF,F0,C0,FF,FF,
62000720,00000289,false,Rx,0,8,B2,FD,E0,FF,FD,00,EC,01,
62000900,000002A7,false,Rx,0,5,12,F1,FE,FF,14,00,00,00,
62001085,000002BB,false,Rx,0,5,49,F3,00,00,F2,00,00,00,
62001294,00000304,false,Rx,0,6,FF,FF,79,39,FF,FF,00,00,
62001890,00000112,false,Rx,0,8,F7,1F,7E,0E,96,71,15,5D,
62002799,0000015F,false,Rx,0,8,91,F6,00,7D,00,EE,00,7D,
62004845,0000013A,false,Rx,0,8,DE,F3,00,00,00,0E,FF,FF,
62006551,00000199,false,Rx,0,6,FF,FF,92,7E,FF,3F,00,00,
62006761,0000019A,false,Rx,0,6,FF,FF,23,7F,FF,2F,00,00,
62006961,0000019F,false,Rx,0,6,FF,FF,EF,7F,FF,2F,00,00,
62007211,00000254,false,Rx,0,8,FF,7F,FF,7F,FF,7F,FF,7F,
62007338,00000258,false,Rx,0,2,11,11,00,00,00,00,00,00,
62008642,00000100,false,Rx,0,8,11,F1,7F,C0,5D,3F,87,70,
62009121,0000034A,false,Rx,0,8,81,A6,C9,FD,88,BE,F9,27,
62010969,000007BE,false,Rx,0,8,0B,00,00,00,00,00,00,00,
62011478,00000302,false,Rx,0,7,FF,FF,FD,9C,F1,FF,FF,00,
62011721,00000201,false,Rx,0,8,49,3F,49,3F,FF,FF,FF,FF,
62011951,000002E8,false,Rx,0,8,C0,18,C5,FF,FF,F4,FA,76,
62012181,00000112,false,Rx,0,8,F7,1F,7E,0E,96,71,15,5D,
62012413,00000239,false,Rx,0,8,7B,C3,1B,FF,01,4C,FF,FF,
62012800,000000EF,false,Rx,0,8,3B,F7,00,7D,21,FE,7C,FF,
62013340,000001A1,false,Rx,0,5,DB,C4,00,00,81,00,00,00,
62016203,000002B0,false,Rx,0,6,3D,46,04,CD,FF,FF,00,00,
62017543,0000051D,false,Rx,0,8,00,00,00,00,00,00,00,1D,
62018693,00000100,false,Rx,0,8,F6,F2,7F,C0,5D,3F,87,70,
62019599,000000A5,false,Rx,0,8,3A,F6,FF,F7,7F,00,00,C1,
62019725,000000AC,false,Rx,0,2,00,F0,00,00,00,00,00,00,
62019965,000000D9,false,Rx,0,8,76,F6,00,10,00,F0,7F,C0,
62020207,000000F3,false,Rx,0,8,58,06,00,FF,F0,C0,FF,FF,
62020447,00000096,false,Rx,0,8,58,00,68,96,01,FF,FF,FF,
62020867,000002C5,false,Rx,0,7,01,F4,00,70,04,70,C8,00,
62021677,00000206,false,Rx,0,8,B2,25,5A,FF,FF,FF,FF,FF,
62021907,00000112,false,Rx,0,8,F7,1F,7E,0E,96,71,15,5D,
62022148,00000201,false,Rx,0,8,4C,3F,4C,3F,FF,FF,FF,FF,
62022307,00000197,false,Rx,0,4,06,01,0E,C0,00,00,00,00,
62022536,000002F5,false,Rx,0,8,71,0F,60,29,22,0A,06,10,
62022799,0000015F,false,Rx,0,8,CC,F7,00,7D,00,EE,00,7D,
62024777,0000013A,false,Rx,0,8,0D,F5,00,00,00,0E,FF,FF,
62026556,00000199,false,Rx,0,6,FF,FF,9C,7E,FF,3F,00,00,
62026756,0000019A,false,Rx,0,6,FF,FF,37,7F,FF,2F,00,00,
62026966,0000019F,false,Rx,0,6,FF,FF,F7,7F,FF,2F,00,00,
62027216,00000254,false,Rx,0,8,FF,7F,FF,7F,FF,7F,FF,7F,
62027343,00000258,false,Rx,0,2,11,11,00,00,00,00,00,00,
62028710,00000100,false,Rx,0,8,AB,F3,7F,C0,5D,3F,87,70,
62031914,00000112,false,Rx,0,8,F7,1F,7E,0E,96,71,15,5D,
62032151,0000034C,false,Rx,0,8,68,00,00,00,48,13,F0,FF,
62032789,000000EF,false,Rx,0,8,67,F8,00,7D,21,FE,7C,FF,
62033353,000001A1,false,Rx,0,5,FC,C6,00,00,81,00,00,00,
62033938,000005F8,false,Rx,0,8,6E,0B,00,FC,FF,FF,FF,FF,
62036257,00000337,false,Rx,0,2,FF,FF,00,00,00,00,00,00,
62036533,000003B4,false,Rx,0,8,00,00,0C,F0,B8,FF,00,FF,
62038741,00000100,false,Rx,0,8,25,F4,7F,C0,5D,3F,87,70,
62039629,000000A5,false,Rx,0,8,67,F7,FF,F7,7F,00,00,C1,
62039756,000000AC,false,Rx,0,2,00,F0,00,00,00,00,00,00,
62039996,000000D9,false,Rx,0,8,2B,F7,00,10,00,F0,7F,C0,
62040237,000000F3,false,Rx,0,8,05,07,00,FF,F0,C0,FF,FF,
62040492,000002AE,false,Rx,0,8,FF,FF,FF,FF,FF,FF,FF,00,
62040671,0000036E,false,Rx,0,5,C8,F9,FE,FF,14,00,00,00,
62041913,00000112,false,Rx,0,8,F7,1F,7E,0E,96,71,15,5D,
62042790,0000015F,false,Rx,0,8,90,F8,00,7D,00,EE,00,7D,
62044841,0000013A,false,Rx,0,8,B7,F7,00,00,00,0E,FF,FF,
62046599,00000163,false,Rx,0,8,FF,FF,12,25,FF,FF,FF,FF,
62046840,00000173,false,Rx,0,8,F6,F1,00,02,20,00,D2,10,
62047040,00000199,false,Rx,0,6,FF,FF,9C,7E,FF,3F,00,00,
62047249,0000019A,false,Rx,0,6,FF,FF,37,7F,FF,2F,00,00,
62047458,0000019F,false,Rx,0,6,FF,FF,F7,7F,FF,2F,00,00,
62047584,000001AE,false,Rx,0,2,FB,FF,00,00,00,00,00,00,
62047837,00000254,false,Rx,0,8,FF,7F,FF,7F,FF,7F,FF,7F,
62047963,00000258,false,Rx,0,2,11,11,00,00,00,00,00,00,
62048692,00000100,false,Rx,0,8,78,F5,7F,C0,5D,3F,87,70,
62049756,000002F2,false,Rx,0,6,00,00,00,00,FF,FF,00,00,
62050902,00000096,false,Rx,0,8,58,00,68,96,01,FF,FF,FF,
62051132,000001B3,false,Rx,0,8,FC,00,00,F7,14,78,8A,C0,
62051540,00000302,false,Rx,0,7,FF,FF,FD,9C,F1,FF,FF,00,
62051907,00000112,false,Rx,0,8,F8,1F,7E,0E,96,71,15,5D,
62052127,00000197,false,Rx,0,4,8A,02,0E,C0,00,00,00,00,
62052788,000000EF,false,Rx,0,8,3A,F9,00,7D,21,FE,7C,FF,
62053353,000001A1,false,Rx,0,5,09,C8,00,00,81,00,00,00,
62057526,0000003C,false,Rx,0,8,FF,7F,00,00,00,00,FF,FF,
62058464,00000100,false,Rx,0,8,9F,F6,7F,C0,5D,3F,87,70,
62059713,000000A5,false,Rx,0,8,3B,F8,FF,F7,7F,00,00,C1,
62059850,000000AC,false,Rx,0,2,00,F0,00,00,00,00,00,00,
62060090,000000D9,false,Rx,0,8,77,F8,00,10,00,F0,7F,C0,
62060331,000000F3,false,Rx,0,8,59,08,00,FF,F0,C0,FF,FF,
62060990,000007BD,false,Rx,0,8,00,00,00,C0,FF,C0,01,08,
62061220,0000012F,false,Rx,0,8,F6,5E,8A,DD,F1,35,30,88,
62061462,000007BE,false,Rx,0,8,05,00,00,00,00,00,00,E0,
62061712,00000108,false,Rx,0,8,00,7D,FF,FF,07,F1,FF,FF,
62061942,00000112,false,Rx,0,8,F7,1F,7E,0E,96,71,15,5D,
62062131,000003FD,false,Rx,0,5,3E,03,20,00,FF,00,00,00,
62062362,00000431,false,Rx,0,8,CA,FF,FF,FF,FF,4D,F3,4B,
62062604,00000206,false,Rx,0,8,55,26,5A,FF,FF,FF,FF,FF,
62062844,0000015F,false,Rx,0,8,CD,F9,00,7D,00,EE,00,7D,
62063097,00000212,false,Rx,0,8,CC,FD,F9,FF,FF,FF,FF,FF,
62063348,000002DB,false,Rx,0,8,FF,FF,FF,FF,BF,FF,FF,FF,
62063621,000002F1,false,Rx,0,8,B4,0F,00,00,00,00,00,A0,
62063842,0000032B,false,Rx,0,8,00,00,00,00,00,00,00,FF,
62064093,00000331,false,Rx,0,8,FF,FF,FF,EF,7F,FE,F7,FF,
62064344,000003E9,false,Rx,0,8,08,52,00,00,00,00,00,00,
62064775,0000013A,false,Rx,0,8,B6,F9,00,00,00,0E,FF,FF,
62066552,00000199,false,Rx,0,6,FF,FF,92,7E,FF,3F,00,00,
62066762,0000019A,false,Rx,0,6,FF,FF,41,7F,FF,2F,00,00,
62066973,0000019F,false,Rx,0,6,FF,FF,F3,7F,FF,2F,00,00,
62067213,00000254,false,Rx,0,8,FF,7F,FF,7F,FF,7F,FF,7F,
62067350,00000258,false,Rx,0,2,11,11,00,00,00,00,00,00,
62068721,00000100,false,Rx,0,8,C2,F7,7F,C0,5D,3F,87,70,
62070855,00000328,false,Rx,0,6,99,4C,57,0E,94,1E,00,00,
62071686,00000201,false,Rx,0,8,5C,3F,5C,3F,FF,FF,FF,FF,
62071916,00000112,false,Rx,0,8,F7,1F,7E,0E,96,71,15,5D,
62072157,00000432,false,Rx,0,8,FC,E7,10,AA,5A,FF,01,FF,
62072785,000000EF,false,Rx,0,8,DD,FA,00,7D,21,FE,7C,FF,
62073339,000001A1,false,Rx,0,5,2E,CA,00,00,81,00,00,00,
62076392,00000272,false,Rx,0,8,D3,F8,FC,02,FF,FF,FF,FF,
62078716,00000100,false,Rx,0,8,9E,F8,7F,C0,5D,3F,87,70,
62079587,000000A5,false,Rx,0,8,66,F9,FF,F7,7F,00,00,C1,
62079725,000000AC,false,Rx,0,2,00,F0,00,00,00,00,00,00,
62079966,000000D9,false,Rx,0,8,2A,F9,00,10,00,F0,7F,C0,
62080207,000000F3,false,Rx,0,8,04,09,00,FF,F0,C0,FF,FF,
62080437,00000096,false,Rx,0,8,58,00,68,96,01,FF,FF,FF,
62080617,000002A7,false,Rx,0,5,A8,F2,FE,FF,14,00,00,00,
62081947,00000112,false,Rx,0,8,F7,1F,7E,0E,96,71,15,5D,
62082125,00000197,false,Rx,0,4,05,03,0E,C0,00,00,00,00,
62082791,0000015F,false,Rx,0,8,2A,FA,00,7D,00,EE,00,7D,
62084832,0000013A,false,Rx,0,8,0C,FB,00,00,00,0E,FF,FF,
62086230,000000A9,false,Rx,0,8,70,78,00,90,F1,00,00,FF,
62086564,00000199,false,Rx,0,6,FF,FF,92,7E,FF,3F,00,00,
62086775,0000019A,false,Rx,0,6,FF,FF,37,7F,FF,2F,00,00,
62086987,0000019F,false,Rx,0,6,FF,FF,FC,7F,FF,2F,00,00,
62087227,00000254,false,Rx,0,8,FF,7F,FF,7F,FF,7F,FF,7F,
62087353,00000258,false,Rx,0,2,11,11,00,00,00,00,00,00,
62088470,00000100,false,Rx,0,8,C3,F9,7F,C0,5D,3F,87,70,
62091154,000001E1,false,Rx,0,6,9D,F5,01,FF,FF,FF,00,00,
62091589,00000302,false,Rx,0,7,FF,FF,FD,9C,F1,FF,FF,00,
62091893,00000112,false,Rx,0,8,F7,1F,7E,0E,96,71,15,5D,
62092791,000000EF,false,Rx,0,8,80,FB,00,7D,21,FE,7C,FF,
62093344,000001A1,false,Rx,0,5,47,CC,00,00,81,00,00,00,
62096187,000002A1,false,Rx,0,5,00,58,02,00,F0,00,00,00,
62098738,00000100,false,Rx,0,8,24,FA,7F,C0,5D,3F,87,70,
62099642,000002C4,false,Rx,0,8,00,00,FF,00,C8,64,FF,CF,
62099895,000000A5,false,Rx,0,8,81,FA,FF,F7,7F,00,00,C1,
62100021,000000AC,false,Rx,0,2,00,F0,00,00,00,00,00,00,
62100260,000000D9,false,Rx,0,8,CD,FA,00,10,00,F0,7F,C0,
62100501,000000F3,false,Rx,0,8,E3,0A,00,FF,F0,C0,FF,FF,
62100734,00000289,false,Rx,0,8,55,FE,E0,FF,FD,00,EC,01,
62100923,000002BB,false,Rx,0,5,BC,FD,00,00,F2,00,00,00,
62101174,0000031C,false,Rx,0,8,FF,FF,FF,FF,FF,FF,FF,FF,
62101384,0000033B,false,Rx,0,6,00,FF,FF,FF,FF,FF,00,00,
62101698,00000206,false,Rx,0,8,08,27,5A,FF,FF,FF,FF,FF,
62101929,00000112,false,Rx,0,8,F7,1F,7E,0E,96,71,15,5D,
62102795,0000015F,false,Rx,0,8,77,FB,00,7D,00,EE,00,7D,
62103486,00000301,false,Rx,0,7,FF,FF,DD,96,FF,FF,2F,00,
62104771,0000013A,false,Rx,0,8,DF,FD,00,00,00,0E,FF,FF,
62106551,00000199,false,Rx,0,6,FF,FF,92,7E,FF,3F,00,00,
62106751,0000019A,false,Rx,0,6,FF,FF,2D,7F,FF,2F,00,00,
62106962,0000019F,false,Rx,0,6,FF,FF,11,80,FF,2F,00,00,
62107202,00000254,false,Rx,0,8,FF,7F,FF,7F,FF,7F,FF,7F,
62107330,00000258,false,Rx,0,2,11,11,00,00,00,00,00,00,
62108477,00000100,false,Rx,0,8,79,FB,7F,C0,5D,3F,87,70,
62110864,00000096,false,Rx,0,8,58,00,68,96,01,FF,FF,FF,
62111883,000002E8,false,Rx,0,8,C0,18,C5,FF,FF,F4,FB,6B,
62112113,00000112,false,Rx,0,8,F7,1F,7E,0E,96,71,15,5D,
62112271,00000197,false,Rx,0,4,8F,04,0E,C0,00,00,00,00,
62112793,000000EF,false,Rx,0,8,0E,FC,00,7D,21,FE,7C,FF,
62113349,000001A1,false,Rx,0,5,60,CE,00,00,81,00,00,00,
62116203,000002B0,false,Rx,0,6,3D,46,04,CD,FF,FF,00,00,
62118471,00000100,false,Rx,0,8,F7,FC,7F,C0,5D,3F,87,70,
62119657,000000A5,false,Rx,0,8,DC,FB,FF,F7,7F,00,00,C1,
62119794,000000AC,false,Rx,0,2,00,F0,00,00,00,00,00,00,
62120024,000000D9,false,Rx,0,8,90,FB,00,10,00,F0,7F,C0,
62120275,000000F3,false,Rx,0,8,BE,0B,00,FF,F0,C0,FF,FF,
62120454,00000349,false,Rx,0,5,FE,FF,3E,08,00,00,00,00,
62120863,000002C5,false,Rx,0,7,47,F5,00,70,04,70,C8,00,
62121672,00000201,false,Rx,0,8,6B,3F,6B,3F,FF,FF,FF,FF,
62121913,00000112,false,Rx,0,8,F7,1F,7E,0E,96,71,15,5D,
62122383,000002F5,false,Rx,0,8,71,0F,60,29,22,0A,06,10,
62122792,0000015F,false,Rx,0,8,F9,FC,00,7D,00,EE,00,7D,
62124849,0000013A,false,Rx,0,8,39,F0,00,00,00,0E,FF,FF,
62126545,00000199,false,Rx,0,6,FF,FF,9C,7E,FF,3F,00,00,
62126757,0000019A,false,Rx,0,6,FF,FF,41,7F,FF,2F,00,00,
62126966,0000019F,false,Rx,0,6,FF,FF,0F,80,FF,2F,00,00,
62127217,00000254,false,Rx,0,8,FF,7F,FF,7F,FF,7F,FF,7F,
62127343,00000258,false,Rx,0,2,11,11,00,00,00,00,00,00,
62128713,00000100,false,Rx,0,8,AA,FD,7F,C0,5D,3F,87,70,
62130619,000002A5,false,Rx,0,2,FE,FE,00,00,00,00,00,00,
62131468,00000302,false,Rx,0,7,FF,FF,FD,9C,F1,FF,FF,00,
62131897,00000112,false,Rx,0,8,F7,1F,7E,0E,96,71,15,5D,
62132784,000000EF,false,Rx,0,8,53,FD,00,7D,21,FE,7C,FF,
62133338,000001A1,false,Rx,0,5,08,C1,00,00,81,00,00,00,
62138697,00000100,false,Rx,0,8,4D,FE,7F,C0,5D,3F,87,70,
62139434,000000A5,false,Rx,0,8,52,FC,FF,F7,7F,00,00,C1,
62139570,000000AC,false,Rx,0,2,00,F0,00,00,00,00,00,00,
62139812,000000D9,false,Rx,0,8,1E,FC,00,10,00,F0,7F,C0,
62140053,000000F3,false,Rx,0,8,30,0C,00,FF,F0,C0,FF,FF,
62140294,0000019B,false,Rx,0,8,9B,4C,40,55,FD,FF,FF,FF,
62140534,00000096,false,Rx,0,8,58,00,68,96,01,FF,FF,FF,
62140783,000002AE,false,Rx,0,8,FF,FF,FF,FF,FF,FF,FF,00,
62140930,00000314,false,Rx,0,3,50,00,FF,00,00,00,00,00,
62141108,0000036F,false,Rx,0,5,BD,FA,FE,FF,14,00,00,00,
62141693,00000206,false,Rx,0,8,54,28,5A,FF,FF,FF,FF,FF,
62141924,00000112,false,Rx,0,8,F7,1F,7E,0E,96,71,15,5D,
62142134,00000197,false,Rx,0,4,00,05,0E,C0,00,00,00,00,
62142796,0000015F,false,Rx,0,8,A4,FD,00,7D,00,EE,00,7D,
62144780,0000013A,false,Rx,0,8,83,F2,00,00,00,0E,FF,FF,
62146604,00000163,false,Rx,0,8,FF,FF,12,25,FF,FF,FF,FF,
62146831,00000173,false,Rx,0,8,9E,FB,00,02,20,00,D2,10,
62147041,00000199,false,Rx,0,6,FF,FF,9C,7E,FF,3F,00,00,
62147240,0000019A,false,Rx,0,6,FF,FF,37,7F,FF,2F,00,00,
62147449,0000019F,false,Rx,0,6,FF,FF,0F,80,FF,2F,00,00,
62147586,000001AE,false,Rx,0,2,FB,FF,00,00,00,00,00,00,
62147827,00000254,false,Rx,0,8,FF,7F,FF,7F,FF,7F,FF,7F,
62147964,00000258,false,Rx,0,2,11,11,00,00,00,00,00,00,
62148537,00000100,false,Rx,0,8,4C,F0,7F,C0,5D,3F,87,70,
62149237,00000348,false,Rx,0,8,FE,FE,FE,00,FE,FE,FF,00,
62149813,000002F2,false,Rx,0,6,00,00,00,00,FF,FF,00,00,
62150762,00000297,false,Rx,0,7,80,EC,F0,E0,F2,92,EA,00,
62151262,000001B3,false,Rx,0,8,FC,00,00,F8,14,78,8A,C1,
62151504,00000362,false,Rx,0,7,2F,C1,02,2F,C1,02,EA,00,
62151901,00000112,false,Rx,0,8,F7,1F,7E,0E,96,71,15,5D,
62152789,000000EF,false,Rx,0,8,B4,FE,00,7D,21,FE,7C,FF,
62153335,000001A1,false,Rx,0,5,2F,C3,00,00,81,00,00,00,
62157367,000000C0,false,Rx,0,2,F4,40,00,00,00,00,00,00,
62157614,0000003C,false,Rx,0,8,FF,7F,00,00,00,00,FF,FF,
62158637,00000100,false,Rx,0,8,11,F1,7F,C0,5D,3F,87,70,
62159709,000002A7,false,Rx,0,5,35,F3,FE,FF,14,00,00,00,
62159961,000000A5,false,Rx,0,8,0F,FD,FF,F7,7F,00,00,C1,
62160088,000000AC,false,Rx,0,2,00,F0,00,00,00,00,00,00,
62160337,000000D9,false,Rx,0,8,43,FD,00,10,00,F0,7F,C0,
62160569,000000F3,false,Rx,0,8,6D,0D,00,FF,F0,C0,FF,FF,
62161029,000007BD,false,Rx,0,8,00,00,00,C0,FF,C0,01,08,
62161249,0000012F,false,Rx,0,8,F7,50,8A,DD,F1,35,30,88,
62161498,000007BE,false,Rx,0,8,0C,0F,04,6B,00,00,00,00,
62161740,00000108,false,Rx,0,8,00,7D,FF,FF,07,F1,FF,FF,
62161929,000003FD,false,Rx,0,5,CA,04,20,00,FF,00,00,00,
62162160,00000112,false,Rx,0,8,F7,1F,7E,0E,96,71,15,5D,
62162400,00000212,false,Rx,0,8,2B,FE,F9,FF,FF,FF,FF,FF,
62162653,000002DB,false,Rx,0,8,FF,FF,FF,FF,BF,FF,FF,FF,
62162905,000002F1,false,Rx,0,8,B4,0F,00,00,00,00,00,A0,
62163146,0000015F,false,Rx,0,8,43,FE,00,7D,00,EE,00,7D,
62164774,0000013A,false,Rx,0,8,50,F4,00,00,00,0E,FF,FF,
62166542,00000199,false,Rx,0,6,FF,FF,A6,7E,FF,3F,00,00,
62166753,0000019A,false,Rx,0,6,FF,FF,37,7F,FF,2F,00,00,
62166962,0000019F,false,Rx,0,6,FF,FF,00,80,FF,2F,00,00,
62167203,00000254,false,Rx,0,8,FF,7F,FF,7F,FF,7F,FF,7F,
62167329,00000258,false,Rx,0,2,11,11,00,00,00,00,00,00,
62168709,00000100,false,Rx,0,8,F6,F2,7F,C0,5D,3F,87,70,
62169169,0000043D,false,Rx,0,8,FE,FE,EF,FF,F6,FE,FE,F7,
62170848,00000096,false,Rx,0,8,58,00,68,96,01,FF,FF,FF,
62171474,00000302,false,Rx,0,7,FF,FF,FD,9C,F1,FF,FF,00,
62171714,00000201,false,Rx,0,8,7B,3F,7B,3F,FF,FF,FF,FF,
62171944,00000112,false,Rx,0,8,F7,1F,7E,0E,96,71,15,5D,
62172134,00000197,false,Rx,0,4,8C,06,0E,C0,00,00,00,00,
62172791,000000EF,false,Rx,0,8,B5,F0,00,7D,21,FE,7C,FF,
62173344,000001A1,false,Rx,0,5,46,C5,00,00,81,00,00,00,
62178463,00000100,false,Rx,0,8,AB,F3,7F,C0,5D,3F,87,70,
62179608,000000A5,false,Rx,0,8,E8,FE,FF,F7,7F,00,00,C1,
62179735,000000AC,false,Rx,0,2,00,F0,00,00,00,00,00,00,
62179975,000000D9,false,Rx,0,8,A4,FE,00,10,00,F0,7F,C0,
62180215,000000F3,false,Rx,0,8,8A,0E,00,FF,F0,C0,FF,FF,
62181689,00000206,false,Rx,0,8,09,29,5A,FF,FF,FF,FF,FF,
62181919,00000112,false,Rx,0,8,F7,1F,7E,0E,96,71,15,5D,
62182795,0000015F,false,Rx,0,8,42,F0,00,7D,00,EE,00,7D,
62184783,0000013A,false,Rx,0,8,EA,F6,00,00,00,0E,FF,FF,
62186244,000000A9,false,Rx,0,8,70,78,00,90,F1,00,00,FF,
62186566,00000199,false,Rx,0,6,FF,FF,A6,7E,FF,3F,00,00,
62186767,0000019A,false,Rx,0,6,FF,FF,41,7F,FF,2F,00,00,
62186976,0000019F,false,Rx,0,6,FF,FF,0C,80,FF,2F,00,00,
62187227,00000254,false,Rx,0,8,FF,7F,FF,7F,FF,7F,FF,7F,
62187353,00000258,false,Rx,0,2,11,11,00,00,00,00,00,00,
62188723,00000100,false,Rx,0,8,25,F4,7F,C0,5D,3F,87,70,
62189391,0000043C,false,Rx,0,8,FE,FE,FF,FF,FF,FF,FF,FF,
62191903,00000112,false,Rx,0,8,F7,1F,7E,0E,96,71,15,5D,
62192787,000000EF,false,Rx,0,8,E8,F1,00,7D,21,FE,7C,FF,
62193340,000001A1,false,Rx,0,5,61,C7,00,00,81,00,00,00,
62195904,000005E0,false,Rx,0,8,11,03,00,02,FF,FF,C0,00,
62196196,000002A1,false,Rx,0,5,00,58,02,00,F0,00,00,00,
62198457,00000100,false,Rx,0,8,78,F5,7F,C0,5D,3F,87,70,
62199622,000002C4,false,Rx,0,8,00,00,FF,00,C8,64,FF,CF,
62199864,000000A5,false,Rx,0,8,E9,F0,FF,F7,7F,00,00,C1,
62200001,000000AC,false,Rx,0,2,00,F0,00,00,00,00,00,00,
62200240,000000D9,false,Rx,0,8,A5,F0,00,10,00,F0,7F,C0,
62200482,00000096,false,Rx,0,8,58,00,68,96,01,FF,FF,FF,
62200717,000000F3,false,Rx,0,8,8B,00,00,FF,F0,C0,FF,FF,
62200958,00000289,false,Rx,0,8,54,F0,E0,FF,FD,00,EC,01,
62201136,000002BB,false,Rx,0,5,6F,F8,00,00,F2,00,00,00,
62201346,00000304,false,Rx,0,6,FF,FF,7A,39,FF,FF,00,00,
62201524,0000036E,false,Rx,0,5,72,FA,FE,FF,14,00,00,00,
62201776,00000540,false,Rx,0,8,00,00,00,00,FF,3B,FF,40,
62202008,00000112,false,Rx,0,8,F7,1F,7E,0E,96,71,15,5D,
62202175,00000197,false,Rx,0,4,03,07,0E,C0,00,00,00,00,
62202791,0000015F,false,Rx,0,8,1F,F1,00,7D,00,EE,00,7D,
62204841,0000013A,false,Rx,0,8,EB,F8,00,00,00,0E,FF,FF,
62206540,00000199,false,Rx,0,6,FF,FF,92,7E,FF,3F,00,00,
62206749,0000019A,false,Rx,0,6,FF,FF,2D,7F,FF,2F,00,00,
62206958,0000019F,false,Rx,0,6,FF,FF,FC,7F,FF,2F,00,00,
62207199,00000254,false,Rx,0,8,FF,7F,FF,7F,FF,7F,FF,7F,
62207336,00000258,false,Rx,0,2,11,11,00,00,00,00,00,00,
62208483,00000100,false,Rx,0,8,9F,F6,7F,C0,5D,3F,87,70,
62210960,000007BE,false,Rx,0,8,07,69,21,60,06,67,00,00,
62211468,00000302,false,Rx,0,7,FF,FF,FD,9C,F1,FF,FF,00,
62211876,000002E8,false,Rx,0,8,C0,18,C5,FF,FF,F4,FC,38,
62212108,00000112,false,Rx,0,8,F7,1F,7E,0E,96,71,15,5D,
62212348,00000239,false,Rx,0,8,7B,C3,1B,FF,01,4C,FF,FF,
62212789,000000EF,false,Rx,0,8,0F,F2,00,7D,21,FE,7C,FF,
62213335,000001A1,false,Rx,0,5,94,C9,00,00,81,00,00,00,
62216198,000002B0,false,Rx,0,6,3D,46,04,CD,FF,FF,00,00,
62218457,00000100,false,Rx,0,8,C2,F7,7F,C0,5D,3F,87,70,
62219622,000000A5,false,Rx,0,8,B4,F1,FF,F7,7F,00,00,C1,
62219760,000000AC,false,Rx,0,2,00,F0,00,00,00,00,00,00,
62220000,000000D9,false,Rx,0,8,F8,F1,00,10,00,F0,7F,C0,
62220240,000000F3,false,Rx,0,8,D6,01,00,FF,F0,C0,FF,FF,
62220889,0000019D,false,Rx,0,8,1A,DA,03,07,FF,FF,FF,FF,
62221123,000002C5,false,Rx,0,7,8D,F6,00,70,04,70,C8,00,
62221678,00000206,false,Rx,0,8,EE,2A,5A,FF,FF,FF,FF,FF,
62221908,00000112,false,Rx,0,8,F7,1F,7E,0E,96,71,15,5D,
62222150,00000201,false,Rx,0,8,8B,3F,8B,3F,FF,FF,FF,FF,
62222381,000002F5,false,Rx,0,8,71,0F,60,29,22,0A,06,10,
62222790,0000015F,false,Rx,0,8,F8,F2,00,7D,00,EE,00,7D,
62224778,0000013A,false,Rx,0,8,51,FA,00,00,00,0E,FF,FF,
62226546,00000199,false,Rx,0,6,FF,FF,92,7E,FF,3F,00,00,
62226747,0000019A,false,Rx,0,6,FF,FF,19,7F,FF,2F,00,00,
62226956,0000019F,false,Rx,0,6,FF,FF,F3,7F,FF,2F,00,00,
62227206,00000254,false,Rx,0,8,FF,7F,FF,7F,FF,7F,FF,7F,
62227332,00000258,false,Rx,0,2,11,11,00,00,00,00,00,00,
62228501,00000100,false,Rx,0,8,9E,F8,7F,C0,5D,3F,87,70,
62230827,00000096,false,Rx,0,8,58,00,68,96,01,FF,FF,FF,
62231897,00000112,false,Rx,0,8,F7,1F,7E,0E,96,71,15,5D,
62232129,00000197,false,Rx,0,4,85,08,0E,C0,00,00,00,00,
62232777,000000EF,false,Rx,0,8,52,F3,00,7D,21,FE,7C,FF,
62233360,000001A1,false,Rx,0,5,B3,CB,00,00,81,00,00,00,
62233956,00000200,false,Rx,0,8,00,00,3A,00,18,28,FA,FF,
62236540,000003B4,false,Rx,0,8,00,00,0C,F0,B8,FF,00,FF,
62238477,00000100,false,Rx,0,8,C3,F9,7F,C0,5D,3F,87,70,
62239644,000000A5,false,Rx,0,8,53,F2,FF,F7,7F,00,00,C1,
62239770,000000AC,false,Rx,0,2,00,F0,00,00,00,00,00,00,
62240020,000000D9,false,Rx,0,8,1F,F2,00,10,00,F0,7F,C0,
62240261,000000F3,false,Rx,0,8,31,02,00,FF,F0,C0,FF,FF,
62240440,000002A7,false,Rx,0,5,C1,F4,FE,FF,14,00,00,00,
62240692,000002AE,false,Rx,0,8,FF,FF,FF,FF,FF,FF,FF,00,
62241897,00000112,false,Rx,0,8,F7,1F,7E,0E,96,71,15,5D,
62242796,0000015F,false,Rx,0,8,A5,F3,00,7D,00,EE,00,7D,
62244848,0000013A,false,Rx,0,8,82,FC,00,00,00,0E,FF,FF,
62246597,00000163,false,Rx,0,8,FF,FF,12,25,FF,FF,FF,FF,
62246828,00000173,false,Rx,0,8,78,F6,00,02,20,00,D2,10,
62247027,00000199,false,Rx,0,6,FF,FF,92,7E,FF,3F,00,00,
62247236,0000019A,false,Rx,0,6,FF,FF,23,7F,FF,2F,00,00,
62247448,0000019F,false,Rx,0,6,FF,FF,E8,7F,FF,2F,00,00,
62247584,000001AE,false,Rx,0,2,FB,FF,00,00,00,00,00,00,
62247825,00000254,false,Rx,0,8,FF,7F,FF,7F,FF,7F,FF,7F,
62247951,00000258,false,Rx,0,2,11,11,00,00,00,00,00,00,
62248703,00000100,false,Rx,0,8,24,FA,7F,C0,5D,3F,87,70,
62249750,000002F2,false,Rx,0,6,00,00,00,00,FF,FF,00,00,
62251189,000001B3,false,Rx,0,8,FC,00,00,F9,14,78,8A,C2,
62251480,00000302,false,Rx,0,7,FF,FF,FD,9C,F1,FF,FF,00,
62251910,00000112,false,Rx,0,8,F7,1F,7E,0E,96,71,15,5D,
62252787,000000EF,false,Rx,0,8,DC,F4,00,7D,21,FE,7C,FF,
62253329,000001A1,false,Rx,0,5,DA,CD,00,00,81,00,00,00,
62257517,0000003C,false,Rx,0,8,FF,7F,00,00,00,00,FF,FF,
62258620,00000100,false,Rx,0,8,79,FB,7F,C0,5D,3F,87,70,
62259733,000000A5,false,Rx,0,8,0E,F3,FF,F7,7F,00,00,C1,
62259860,000000AC,false,Rx,0,2,00,F0,00,00,00,00,00,00,
62260099,000000D9,false,Rx,0,8,42,F3,00,10,00,F0,7F,C0,
62260340,000000F3,false,Rx,0,8,6C,03,00,FF,F0,C0,FF,FF,
62260582,00000096,false,Rx,0,8,58,00,68,96,01,FF,FF,FF,
62261010,000007BD,false,Rx,0,8,00,00,00,C0,FF,C0,01,08,
62261231,0000012F,false,Rx,0,8,AA,51,8A,DD,F1,35,30,88,
62261482,000007BE,false,Rx,0,8,05,00,00,00,00,00,00,E0,
62261735,00000108,false,Rx,0,8,00,7D,FF,FF,07,F1,FF,FF,
62261914,000003FD,false,Rx,0,5,57,05,20,00,FF,00,00,00,
62262144,00000112,false,Rx,0,8,F7,1F,7E,0E,96,71,15,5D,
62262312,00000197,false,Rx,0,4,0A,09,0E,C0,00,00,00,00,
62262562,00000201,false,Rx,0,8,98,3F,98,3F,FF,FF,FF,FF,
62262794,00000431,false,Rx,0,8,CA,FF,FF,FF,FF,4D,F3,4B,
62263035,0000015F,false,Rx,0,8,2B,F4,00,7D,00,EE,00,7D,
62263276,00000206,false,Rx,0,8,B3,2B,5A,FF,FF,FF,FF,FF,
62263528,00000212,false,Rx,0,8,2A,F0,F9,FF,FF,FF,FF,FF,
62263772,000002DB,false,Rx,0,8,FF,FF,FF,FF,BF,FF,FF,FF,
62264023,000002F1,false,Rx,0,8,B4,0F,00,00,00,00,00,A0,
62264275,000002FA,false,Rx,0,8,FD,FF,00,FF,FF,FF,FF,FF,
62264526,0000032B,false,Rx,0,8,00,00,00,00,00,00,00,FF,
62264768,00000331,false,Rx,0,8,FF,FF,FF,EF,7F,FE,F7,FF,
62265010,0000013A,false,Rx,0,8,38,FE,00,00,00,0E,FF,FF,
62265261,000003AD,false,Rx,0,8,00,F0,FF,FF,FF,FF,FF,FD,
62265398,000003E8,false,Rx,0,2,F1,FF,00,00,00,00,00,00,
62265659,000003E9,false,Rx,0,8,08,52,00,00,00,00,00,00,
62266546,00000199,false,Rx,0,6,FF,FF,9C,7E,FF,3F,00,00,
62266757,0000019A,false,Rx,0,6,FF,FF,41,7F,FF,2F,00,00,
62266966,0000019F,false,Rx,0,6,FF,FF,F1,7F,FF,2F,00,00,
62267206,00000254,false,Rx,0,8,FF,7F,FF,7F,FF,7F,FF,7F,
62267334,00000258,false,Rx,0,2,11,11,00,00,00,00,00,00,
62268495,00000100,false,Rx,0,8,F7,FC,7F,C0,5D,3F,87,70,
62271694,00000201,false,Rx,0,8,9B,3F,9B,3F,FF,FF,FF,FF,
62271922,00000112,false,Rx,0,8,F7,1F,7E,0E,96,71,15,5D,
62272162,00000432,false,Rx,0,8,FC,E7,10,AA,5A,FF,01,FF,
62272790,000000EF,false,Rx,0,8,81,F5,00,7D,21,FE,7C,FF,
62273332,000001A1,false,Rx,0,5,95,C0,00,00,81,00,00,00,
62276573,00000272,false,Rx,0,8,8E,F9,FC,02,FF,FF,FF,FF,
62278467,00000100,false,Rx,0,8,AA,FD,7F,C0,5D,3F,87,70,
62279634,000000A5,false,Rx,0,8,80,F4,FF,F7,7F,00,00,C1,
62279771,000000AC,false,Rx,0,2,00,F0,00,00,00,00,00,00,
62280010,000000D9,false,Rx,0,8,CC,F4,00,10,00,F0,7F,C0,
62280251,000000F3,false,Rx,0,8,E2,04,00,FF,F0,C0,FF,FF,
62281934,00000112,false,Rx,0,8,F8,1F,7E,0E,96,71,15,5D,
62282786,0000015F,false,Rx,0,8,76,F5,00,7D,00,EE,00,7D,
62284825,0000013A,false,Rx,0,8,64,F1,00,00,00,0E,FF,FF,
62286234,000000A9,false,Rx,0,8,70,78,00,90,F1,00,00,FF,
62286559,00000199,false,Rx,0,6,FF,FF,92,7E,FF,3F,00,00,
62286769,0000019A,false,Rx,0,6,FF,FF,23,7F,FF,2F,00,00,
62286978,0000019F,false,Rx,0,6,FF,FF,F1,7F,FF,2F,00,00,
62287229,00000254,false,Rx,0,8,FF,7F,FF,7F,FF,7F,FF,7F,
